Time [s], Analyzer Name, Decoded Protocol Result
0.019527208333333,SPI,MOSI: 0x2A;  MISO: 0xFF
0.019535208333333,SPI,MOSI: 0xD4;  MISO: 0xFF
0.019544708333333,SPI,MOSI: 0x00;  MISO: 0xFF
0.019552708333333,SPI,MOSI: 0x00;  MISO: 0xFF
0.019584041666667,SPI,MOSI: 0x2A;  MISO: 0xFF
0.019592041666667,SPI,MOSI: 0xD4;  MISO: 0xFF
0.019601541666667,SPI,MOSI: 0x00;  MISO: 0xFF
0.019609541666667,SPI,MOSI: 0x00;  MISO: 0xFF
0.019639416666667,SPI,MOSI: 0x2A;  MISO: 0xFF
0.019647416666667,SPI,MOSI: 0xD4;  MISO: 0xFF
0.019656916666667,SPI,MOSI: 0x00;  MISO: 0xFF
0.019664916666667,SPI,MOSI: 0x00;  MISO: 0xFF
0.019972208333333,SPI,MOSI: 0x2A;  MISO: 0xFF
0.019980208333333,SPI,MOSI: 0xD4;  MISO: 0xFF
0.019989708333333,SPI,MOSI: 0x00;  MISO: 0xFF
0.019997708333333,SPI,MOSI: 0x00;  MISO: 0xFF
0.020028833333333,SPI,MOSI: 0x2A;  MISO: 0xFF
0.020036833333333,SPI,MOSI: 0xD4;  MISO: 0xFF
0.020046333333333,SPI,MOSI: 0x00;  MISO: 0xFF
0.020054333333333,SPI,MOSI: 0x00;  MISO: 0xFF
0.020084250000000,SPI,MOSI: 0x2A;  MISO: 0xFF
0.020092250000000,SPI,MOSI: 0xD4;  MISO: 0xFF
0.020101750000000,SPI,MOSI: 0x00;  MISO: 0xFF
0.020109750000000,SPI,MOSI: 0x00;  MISO: 0xFF
0.020171458333333,SPI,MOSI: 0x2A;  MISO: 0xFF
0.020179458333333,SPI,MOSI: 0xD4;  MISO: 0xFF
0.020188958333333,SPI,MOSI: 0x00;  MISO: 0xFF
0.020196958333333,SPI,MOSI: 0x00;  MISO: 0xFF
0.020227041666667,SPI,MOSI: 0x2A;  MISO: 0xFF
0.020235041666667,SPI,MOSI: 0xD4;  MISO: 0xFF
0.020244541666667,SPI,MOSI: 0x00;  MISO: 0xFF
0.020252541666667,SPI,MOSI: 0x00;  MISO: 0xFF
0.020282291666667,SPI,MOSI: 0x2A;  MISO: 0xFF
0.020290291666667,SPI,MOSI: 0xD4;  MISO: 0xFF
0.020299791666667,SPI,MOSI: 0x00;  MISO: 0xFF
0.020307791666667,SPI,MOSI: 0x00;  MISO: 0xFF
0.020338958333333,SPI,MOSI: 0x2A;  MISO: 0xFF
0.020346958333333,SPI,MOSI: 0xD4;  MISO: 0xFF
0.020356458333333,SPI,MOSI: 0x00;  MISO: 0xFF
0.020364458333333,SPI,MOSI: 0x00;  MISO: 0xFF
0.020394291666667,SPI,MOSI: 0x2A;  MISO: 0xFF
0.020402291666667,SPI,MOSI: 0xD4;  MISO: 0xFF
0.020411791666667,SPI,MOSI: 0x00;  MISO: 0x3F
0.020419791666667,SPI,MOSI: 0x00;  MISO: 0xFF
0.020449458333333,SPI,MOSI: 0x2A;  MISO: 0xFF
0.020457458333333,SPI,MOSI: 0xD4;  MISO: 0xFF
0.020466958333333,SPI,MOSI: 0x00;  MISO: 0x0F
0.020474958333333,SPI,MOSI: 0x00;  MISO: 0xFF
0.020504541666667,SPI,MOSI: 0x2A;  MISO: 0xFF
0.020512541666667,SPI,MOSI: 0xD4;  MISO: 0xFF
0.020522041666667,SPI,MOSI: 0x00;  MISO: 0x0F
0.020530041666667,SPI,MOSI: 0x00;  MISO: 0xFF
0.020559583333333,SPI,MOSI: 0x2A;  MISO: 0xFF
0.020567625000000,SPI,MOSI: 0xD4;  MISO: 0xFF
0.020577083333333,SPI,MOSI: 0x00;  MISO: 0x0F
0.020585125000000,SPI,MOSI: 0x00;  MISO: 0xFF
0.020614750000000,SPI,MOSI: 0x2A;  MISO: 0xFF
0.020622708333333,SPI,MOSI: 0xD4;  MISO: 0xFF
0.020632250000000,SPI,MOSI: 0x00;  MISO: 0x0F
0.020640208333333,SPI,MOSI: 0x00;  MISO: 0xFF
0.020713708333333,SPI,MOSI: 0x2A;  MISO: 0xFF
0.020721708333333,SPI,MOSI: 0xD4;  MISO: 0xFF
0.020731208333333,SPI,MOSI: 0x00;  MISO: 0x0F
0.020739208333333,SPI,MOSI: 0x00;  MISO: 0xFF
0.020999500000000,SPI,MOSI: 0x2A;  MISO: 0xFF
0.021007500000000,SPI,MOSI: 0xD4;  MISO: 0xFF
0.021017000000000,SPI,MOSI: 0x00;  MISO: 0x0F
0.021025000000000,SPI,MOSI: 0x00;  MISO: 0xFF
0.021055291666667,SPI,MOSI: 0x2A;  MISO: 0xFF
0.021063333333333,SPI,MOSI: 0xD4;  MISO: 0xFF
0.021072833333333,SPI,MOSI: 0x00;  MISO: 0x0F
0.021080833333333,SPI,MOSI: 0x00;  MISO: 0xFF
0.021110000000000,SPI,MOSI: 0x21;  MISO: 0xFF
0.021118000000000,SPI,MOSI: 0xF2;  MISO: 0xFF
0.021192958333333,SPI,MOSI: 0x4D;  MISO: 0xFF
0.021200958333333,SPI,MOSI: 0x91;  MISO: 0xFF
0.021210458333333,SPI,MOSI: 0x6A;  MISO: 0xFF
0.021218458333333,SPI,MOSI: 0x00;  MISO: 0x91
0.021227958333333,SPI,MOSI: 0x00;  MISO: 0x7D
0.021235958333333,SPI,MOSI: 0x00;  MISO: 0x15
0.021245458333333,SPI,MOSI: 0x00;  MISO: 0x29
0.021253458333333,SPI,MOSI: 0x00;  MISO: 0xFB
0.021262958333333,SPI,MOSI: 0x00;  MISO: 0x91
0.021270958333333,SPI,MOSI: 0x00;  MISO: 0x14
0.021280458333333,SPI,MOSI: 0x00;  MISO: 0x40
0.021288458333333,SPI,MOSI: 0x00;  MISO: 0x36
0.021297958333333,SPI,MOSI: 0x00;  MISO: 0x91
0.021305958333333,SPI,MOSI: 0x00;  MISO: 0x94
0.021315458333333,SPI,MOSI: 0x00;  MISO: 0x14
0.021323458333333,SPI,MOSI: 0x00;  MISO: 0xDC
0.021332958333333,SPI,MOSI: 0x00;  MISO: 0xF8
0.021340958333333,SPI,MOSI: 0x00;  MISO: 0xDC
0.021350458333333,SPI,MOSI: 0x00;  MISO: 0x14
0.021358458333333,SPI,MOSI: 0x00;  MISO: 0x79
0.021367958333333,SPI,MOSI: 0x00;  MISO: 0xCB
0.021375958333333,SPI,MOSI: 0x00;  MISO: 0xFF
0.021385458333333,SPI,MOSI: 0x00;  MISO: 0xFF
0.021393458333333,SPI,MOSI: 0x00;  MISO: 0xFF
0.021402958333333,SPI,MOSI: 0x00;  MISO: 0xFF
0.021410958333333,SPI,MOSI: 0x00;  MISO: 0xFF
0.021420458333333,SPI,MOSI: 0x00;  MISO: 0xFF
0.021428458333333,SPI,MOSI: 0x00;  MISO: 0xFF
0.021437958333333,SPI,MOSI: 0x00;  MISO: 0xFF
0.021445958333333,SPI,MOSI: 0x00;  MISO: 0xFF
0.021455458333333,SPI,MOSI: 0x00;  MISO: 0xFF
0.021463458333333,SPI,MOSI: 0x00;  MISO: 0xFF
0.021472958333333,SPI,MOSI: 0x00;  MISO: 0xFF
0.021480958333333,SPI,MOSI: 0x00;  MISO: 0xFF
0.021490458333333,SPI,MOSI: 0x00;  MISO: 0xFF
0.021498458333333,SPI,MOSI: 0x00;  MISO: 0xFF
0.021507958333333,SPI,MOSI: 0x00;  MISO: 0xFF
0.021515958333333,SPI,MOSI: 0x00;  MISO: 0xFF
0.021525458333333,SPI,MOSI: 0x00;  MISO: 0xFF
0.021533458333333,SPI,MOSI: 0x00;  MISO: 0xFF
0.021542958333333,SPI,MOSI: 0x00;  MISO: 0xFF
0.021550958333333,SPI,MOSI: 0x00;  MISO: 0xFF
0.021560458333333,SPI,MOSI: 0x00;  MISO: 0xFF
0.021568458333333,SPI,MOSI: 0x00;  MISO: 0xFF
0.021577958333333,SPI,MOSI: 0x00;  MISO: 0xFF
0.021585958333333,SPI,MOSI: 0x00;  MISO: 0xFF
0.021595458333333,SPI,MOSI: 0x00;  MISO: 0xFF
0.021603458333333,SPI,MOSI: 0x00;  MISO: 0xFF
0.021612958333333,SPI,MOSI: 0x00;  MISO: 0xFF
0.021620958333333,SPI,MOSI: 0x00;  MISO: 0xFF
0.021630458333333,SPI,MOSI: 0x00;  MISO: 0xFF
0.021638458333333,SPI,MOSI: 0x00;  MISO: 0xFF
0.021647958333333,SPI,MOSI: 0x00;  MISO: 0xFF
0.021655958333333,SPI,MOSI: 0x00;  MISO: 0xFF
0.021665458333333,SPI,MOSI: 0x00;  MISO: 0xFF
0.021673458333333,SPI,MOSI: 0x00;  MISO: 0xFF
0.021682958333333,SPI,MOSI: 0x00;  MISO: 0xFF
0.021690958333333,SPI,MOSI: 0x00;  MISO: 0xFF
0.021700458333333,SPI,MOSI: 0x00;  MISO: 0xFF
0.021708458333333,SPI,MOSI: 0x00;  MISO: 0xFF
0.021717958333333,SPI,MOSI: 0x00;  MISO: 0xFF
0.021725958333333,SPI,MOSI: 0x00;  MISO: 0xFF
0.021735458333333,SPI,MOSI: 0x00;  MISO: 0xFF
0.021743500000000,SPI,MOSI: 0x00;  MISO: 0xFF
0.021752958333333,SPI,MOSI: 0x00;  MISO: 0xFF
0.021761000000000,SPI,MOSI: 0x00;  MISO: 0xFF
0.021770458333333,SPI,MOSI: 0x00;  MISO: 0xFF
0.021778458333333,SPI,MOSI: 0x00;  MISO: 0xFF
0.021788000000000,SPI,MOSI: 0x00;  MISO: 0xFF
0.021795958333333,SPI,MOSI: 0x00;  MISO: 0xFF
0.021805500000000,SPI,MOSI: 0x00;  MISO: 0xFF
0.021813500000000,SPI,MOSI: 0x00;  MISO: 0xFF
0.021823000000000,SPI,MOSI: 0x00;  MISO: 0xFF
0.021831000000000,SPI,MOSI: 0x00;  MISO: 0xFF
0.021840500000000,SPI,MOSI: 0x00;  MISO: 0xFF
0.021848500000000,SPI,MOSI: 0x00;  MISO: 0xFF
0.022025791666667,SPI,MOSI: 0x2A;  MISO: 0xFF
0.022033791666667,SPI,MOSI: 0xD4;  MISO: 0xFF
0.022043291666667,SPI,MOSI: 0x00;  MISO: 0xFF
0.022051291666667,SPI,MOSI: 0x00;  MISO: 0xFF
0.022102500000000,SPI,MOSI: 0x2A;  MISO: 0xFF
0.022110500000000,SPI,MOSI: 0xD4;  MISO: 0xFF
0.022120000000000,SPI,MOSI: 0x00;  MISO: 0xFF
0.022128000000000,SPI,MOSI: 0x00;  MISO: 0xFF
0.022158625000000,SPI,MOSI: 0x2A;  MISO: 0xFF
0.022166625000000,SPI,MOSI: 0xD4;  MISO: 0xFF
0.022176125000000,SPI,MOSI: 0x00;  MISO: 0xFF
0.022184125000000,SPI,MOSI: 0x00;  MISO: 0xFF
0.022213875000000,SPI,MOSI: 0x2A;  MISO: 0xFF
0.022221875000000,SPI,MOSI: 0xD4;  MISO: 0xFF
0.022231375000000,SPI,MOSI: 0x00;  MISO: 0xFF
0.022239375000000,SPI,MOSI: 0x00;  MISO: 0xFF
0.022269125000000,SPI,MOSI: 0x2A;  MISO: 0xFF
0.022277125000000,SPI,MOSI: 0xD4;  MISO: 0xFF
0.022286625000000,SPI,MOSI: 0x00;  MISO: 0xFF
0.022294625000000,SPI,MOSI: 0x00;  MISO: 0xFF
0.022324291666667,SPI,MOSI: 0x2A;  MISO: 0xFF
0.022332291666667,SPI,MOSI: 0xD4;  MISO: 0xFF
0.022341791666667,SPI,MOSI: 0x00;  MISO: 0xFF
0.022349791666667,SPI,MOSI: 0x00;  MISO: 0xFF
0.022379583333333,SPI,MOSI: 0x2A;  MISO: 0xFF
0.022387583333333,SPI,MOSI: 0xD4;  MISO: 0xFF
0.022397083333333,SPI,MOSI: 0x00;  MISO: 0xFF
0.022405083333333,SPI,MOSI: 0x00;  MISO: 0xFF
0.022436833333333,SPI,MOSI: 0x4D;  MISO: 0xFF
0.022444833333333,SPI,MOSI: 0x91;  MISO: 0xFF
0.022454333333333,SPI,MOSI: 0x6A;  MISO: 0xFF
0.022462333333333,SPI,MOSI: 0x00;  MISO: 0xFF
0.022471833333333,SPI,MOSI: 0x00;  MISO: 0xFF
0.022479833333333,SPI,MOSI: 0x00;  MISO: 0xFF
0.022489333333333,SPI,MOSI: 0x00;  MISO: 0xFF
0.022497333333333,SPI,MOSI: 0x00;  MISO: 0xFF
0.022506833333333,SPI,MOSI: 0x00;  MISO: 0xFF
0.022514833333333,SPI,MOSI: 0x00;  MISO: 0xFF
0.022524333333333,SPI,MOSI: 0x00;  MISO: 0xFF
0.022532333333333,SPI,MOSI: 0x00;  MISO: 0xFF
0.022541833333333,SPI,MOSI: 0x00;  MISO: 0xFF
0.022549833333333,SPI,MOSI: 0x00;  MISO: 0xFF
0.022559333333333,SPI,MOSI: 0x00;  MISO: 0xFF
0.022567333333333,SPI,MOSI: 0x00;  MISO: 0xFF
0.022576833333333,SPI,MOSI: 0x00;  MISO: 0xFF
0.022584833333333,SPI,MOSI: 0x00;  MISO: 0xFF
0.022594333333333,SPI,MOSI: 0x00;  MISO: 0xFF
0.022602333333333,SPI,MOSI: 0x00;  MISO: 0xFF
0.022611833333333,SPI,MOSI: 0x00;  MISO: 0xFF
0.022619833333333,SPI,MOSI: 0x00;  MISO: 0xFF
0.022629333333333,SPI,MOSI: 0x00;  MISO: 0xFF
0.022637333333333,SPI,MOSI: 0x00;  MISO: 0xFF
0.022646833333333,SPI,MOSI: 0x00;  MISO: 0xFF
0.022654833333333,SPI,MOSI: 0x00;  MISO: 0xFF
0.022664333333333,SPI,MOSI: 0x00;  MISO: 0xFF
0.022672333333333,SPI,MOSI: 0x00;  MISO: 0xFF
0.022681833333333,SPI,MOSI: 0x00;  MISO: 0xFF
0.022689833333333,SPI,MOSI: 0x00;  MISO: 0xFF
0.022699333333333,SPI,MOSI: 0x00;  MISO: 0xFF
0.022707333333333,SPI,MOSI: 0x00;  MISO: 0xFF
0.022716833333333,SPI,MOSI: 0x00;  MISO: 0xFF
0.022724833333333,SPI,MOSI: 0x00;  MISO: 0xFF
0.022734333333333,SPI,MOSI: 0x00;  MISO: 0xFF
0.022742333333333,SPI,MOSI: 0x00;  MISO: 0xFF
0.022751833333333,SPI,MOSI: 0x00;  MISO: 0xFF
0.022759833333333,SPI,MOSI: 0x00;  MISO: 0xFF
0.022769333333333,SPI,MOSI: 0x00;  MISO: 0xFF
0.022777333333333,SPI,MOSI: 0x00;  MISO: 0xFF
0.022786833333333,SPI,MOSI: 0x00;  MISO: 0xFF
0.022794833333333,SPI,MOSI: 0x00;  MISO: 0xFF
0.022804333333333,SPI,MOSI: 0x00;  MISO: 0xFF
0.022812333333333,SPI,MOSI: 0x00;  MISO: 0xFF
0.022821833333333,SPI,MOSI: 0x00;  MISO: 0xFF
0.022829833333333,SPI,MOSI: 0x00;  MISO: 0xFF
0.022839333333333,SPI,MOSI: 0x00;  MISO: 0xFF
0.022847333333333,SPI,MOSI: 0x00;  MISO: 0xFF
0.022856833333333,SPI,MOSI: 0x00;  MISO: 0xFF
0.022864833333333,SPI,MOSI: 0x00;  MISO: 0xFF
0.022874333333333,SPI,MOSI: 0x00;  MISO: 0xFF
0.022882333333333,SPI,MOSI: 0x00;  MISO: 0xFF
0.022891833333333,SPI,MOSI: 0x00;  MISO: 0xFF
0.022899833333333,SPI,MOSI: 0x00;  MISO: 0xFF
0.022909333333333,SPI,MOSI: 0x00;  MISO: 0xFF
0.022917333333333,SPI,MOSI: 0x00;  MISO: 0xFF
0.022926833333333,SPI,MOSI: 0x00;  MISO: 0xFF
0.022934833333333,SPI,MOSI: 0x00;  MISO: 0xFF
0.023021791666667,SPI,MOSI: 0x4E;  MISO: 0xFF
0.023029791666667,SPI,MOSI: 0x91;  MISO: 0xFF
0.023039291666667,SPI,MOSI: 0x7E;  MISO: 0xFF
0.023047291666667,SPI,MOSI: 0x00;  MISO: 0x91
0.023056791666667,SPI,MOSI: 0x00;  MISO: 0x84
0.023064791666667,SPI,MOSI: 0x00;  MISO: 0x93
0.023074291666667,SPI,MOSI: 0x00;  MISO: 0x42
0.023082291666667,SPI,MOSI: 0x00;  MISO: 0x05
0.023091791666667,SPI,MOSI: 0x00;  MISO: 0x85
0.023099791666667,SPI,MOSI: 0x00;  MISO: 0xF5
0.023109291666667,SPI,MOSI: 0x00;  MISO: 0x62
0.023117291666667,SPI,MOSI: 0x00;  MISO: 0xF5
0.023126791666667,SPI,MOSI: 0x00;  MISO: 0x91
0.023134791666667,SPI,MOSI: 0x00;  MISO: 0x67
0.023144291666667,SPI,MOSI: 0x00;  MISO: 0x93
0.023152291666667,SPI,MOSI: 0x00;  MISO: 0x44
0.023161791666667,SPI,MOSI: 0x00;  MISO: 0x05
0.023169791666667,SPI,MOSI: 0x00;  MISO: 0x4B
0.023179291666667,SPI,MOSI: 0x00;  MISO: 0xF3
0.023187291666667,SPI,MOSI: 0x00;  MISO: 0x64
0.023196791666667,SPI,MOSI: 0x00;  MISO: 0x13
0.023204791666667,SPI,MOSI: 0x00;  MISO: 0xFF
0.023214291666667,SPI,MOSI: 0x00;  MISO: 0xFF
0.023222291666667,SPI,MOSI: 0x00;  MISO: 0xFF
0.023231791666667,SPI,MOSI: 0x00;  MISO: 0xFF
0.023239791666667,SPI,MOSI: 0x00;  MISO: 0xFF
0.023249291666667,SPI,MOSI: 0x00;  MISO: 0xFF
0.023257291666667,SPI,MOSI: 0x00;  MISO: 0xFF
0.023266791666667,SPI,MOSI: 0x00;  MISO: 0xFF
0.023274791666667,SPI,MOSI: 0x00;  MISO: 0xFF
0.023284291666667,SPI,MOSI: 0x00;  MISO: 0xFF
0.023292291666667,SPI,MOSI: 0x00;  MISO: 0xFF
0.023301791666667,SPI,MOSI: 0x00;  MISO: 0xFF
0.023309791666667,SPI,MOSI: 0x00;  MISO: 0xFF
0.023319291666667,SPI,MOSI: 0x00;  MISO: 0xFF
0.023327291666667,SPI,MOSI: 0x00;  MISO: 0xFF
0.023336791666667,SPI,MOSI: 0x00;  MISO: 0xFF
0.023344833333333,SPI,MOSI: 0x00;  MISO: 0xFF
0.023354291666667,SPI,MOSI: 0x00;  MISO: 0xFF
0.023362333333333,SPI,MOSI: 0x00;  MISO: 0xFF
0.023371791666667,SPI,MOSI: 0x00;  MISO: 0xFF
0.023379833333333,SPI,MOSI: 0x00;  MISO: 0xFF
0.023389291666667,SPI,MOSI: 0x00;  MISO: 0xFF
0.023397333333333,SPI,MOSI: 0x00;  MISO: 0xFF
0.023406833333333,SPI,MOSI: 0x00;  MISO: 0xFF
0.023414833333333,SPI,MOSI: 0x00;  MISO: 0xFF
0.023424333333333,SPI,MOSI: 0x00;  MISO: 0xFF
0.023432333333333,SPI,MOSI: 0x00;  MISO: 0xFF
0.023441833333333,SPI,MOSI: 0x00;  MISO: 0xFF
0.023449833333333,SPI,MOSI: 0x00;  MISO: 0xFF
0.023459333333333,SPI,MOSI: 0x00;  MISO: 0xFF
0.023467333333333,SPI,MOSI: 0x00;  MISO: 0xFF
0.023476833333333,SPI,MOSI: 0x00;  MISO: 0xFF
0.023484833333333,SPI,MOSI: 0x00;  MISO: 0xFF
0.023494333333333,SPI,MOSI: 0x00;  MISO: 0xFF
0.023502333333333,SPI,MOSI: 0x00;  MISO: 0xFF
0.023511833333333,SPI,MOSI: 0x00;  MISO: 0xFF
0.023519833333333,SPI,MOSI: 0x00;  MISO: 0xFF
0.023529333333333,SPI,MOSI: 0x00;  MISO: 0xFF
0.023537333333333,SPI,MOSI: 0x00;  MISO: 0xFF
0.023546833333333,SPI,MOSI: 0x00;  MISO: 0xFF
0.023554833333333,SPI,MOSI: 0x00;  MISO: 0xFF
0.023564333333333,SPI,MOSI: 0x00;  MISO: 0xFF
0.023572333333333,SPI,MOSI: 0x00;  MISO: 0xFF
0.023581833333333,SPI,MOSI: 0x00;  MISO: 0xFF
0.023589833333333,SPI,MOSI: 0x00;  MISO: 0xFF
0.023599333333333,SPI,MOSI: 0x00;  MISO: 0xFF
0.023607333333333,SPI,MOSI: 0x00;  MISO: 0xFF
0.023616833333333,SPI,MOSI: 0x00;  MISO: 0xFF
0.023624791666667,SPI,MOSI: 0x00;  MISO: 0xFF
0.023634333333333,SPI,MOSI: 0x00;  MISO: 0xFF
0.023642291666667,SPI,MOSI: 0x00;  MISO: 0xFF
0.023651833333333,SPI,MOSI: 0x00;  MISO: 0xFF
0.023659833333333,SPI,MOSI: 0x00;  MISO: 0xFF
0.023669333333333,SPI,MOSI: 0x00;  MISO: 0xFF
0.023677333333333,SPI,MOSI: 0x00;  MISO: 0xFF
0.023717166666667,SPI,MOSI: 0x2A;  MISO: 0xFF
0.023725166666667,SPI,MOSI: 0xD4;  MISO: 0xFF
0.023734666666667,SPI,MOSI: 0x00;  MISO: 0xFF
0.023742666666667,SPI,MOSI: 0x00;  MISO: 0xFF
0.024007750000000,SPI,MOSI: 0x2A;  MISO: 0xFF
0.024015750000000,SPI,MOSI: 0xD4;  MISO: 0xFF
0.024025250000000,SPI,MOSI: 0x00;  MISO: 0xFF
0.024033250000000,SPI,MOSI: 0x00;  MISO: 0xFF
0.024097208333333,SPI,MOSI: 0x2A;  MISO: 0xFF
0.024105208333333,SPI,MOSI: 0xD4;  MISO: 0xFF
0.024114708333333,SPI,MOSI: 0x00;  MISO: 0xFF
0.024122708333333,SPI,MOSI: 0x00;  MISO: 0xFF
0.024152625000000,SPI,MOSI: 0x2A;  MISO: 0xFF
0.024160583333333,SPI,MOSI: 0xD4;  MISO: 0xFF
0.024170125000000,SPI,MOSI: 0x00;  MISO: 0xFF
0.024178083333333,SPI,MOSI: 0x00;  MISO: 0xFF
0.024207708333333,SPI,MOSI: 0x2A;  MISO: 0xFF
0.024215750000000,SPI,MOSI: 0xD4;  MISO: 0xFF
0.024225208333333,SPI,MOSI: 0x00;  MISO: 0xFF
0.024233250000000,SPI,MOSI: 0x00;  MISO: 0xFF
0.024262791666667,SPI,MOSI: 0x2A;  MISO: 0xFF
0.024270791666667,SPI,MOSI: 0xD4;  MISO: 0xFF
0.024280291666667,SPI,MOSI: 0x00;  MISO: 0xFF
0.024288291666667,SPI,MOSI: 0x00;  MISO: 0xFF
0.024318000000000,SPI,MOSI: 0x2A;  MISO: 0xFF
0.024326000000000,SPI,MOSI: 0xD4;  MISO: 0xFF
0.024335500000000,SPI,MOSI: 0x00;  MISO: 0xFF
0.024343500000000,SPI,MOSI: 0x00;  MISO: 0xFF
0.024375250000000,SPI,MOSI: 0x4E;  MISO: 0xFF
0.024383250000000,SPI,MOSI: 0x91;  MISO: 0xFF
0.024392750000000,SPI,MOSI: 0x7E;  MISO: 0xFF
0.024400750000000,SPI,MOSI: 0x00;  MISO: 0xFF
0.024410250000000,SPI,MOSI: 0x00;  MISO: 0xFF
0.024418250000000,SPI,MOSI: 0x00;  MISO: 0xFF
0.024427750000000,SPI,MOSI: 0x00;  MISO: 0xFF
0.024435750000000,SPI,MOSI: 0x00;  MISO: 0xFF
0.024445250000000,SPI,MOSI: 0x00;  MISO: 0xFF
0.024453250000000,SPI,MOSI: 0x00;  MISO: 0xFF
0.024462750000000,SPI,MOSI: 0x00;  MISO: 0xFF
0.024470750000000,SPI,MOSI: 0x00;  MISO: 0xFF
0.024480250000000,SPI,MOSI: 0x00;  MISO: 0xFF
0.024488250000000,SPI,MOSI: 0x00;  MISO: 0xFF
0.024497750000000,SPI,MOSI: 0x00;  MISO: 0xFF
0.024505750000000,SPI,MOSI: 0x00;  MISO: 0xFF
0.024515250000000,SPI,MOSI: 0x00;  MISO: 0xFF
0.024523250000000,SPI,MOSI: 0x00;  MISO: 0xFF
0.024532750000000,SPI,MOSI: 0x00;  MISO: 0xFF
0.024540750000000,SPI,MOSI: 0x00;  MISO: 0xFF
0.024550250000000,SPI,MOSI: 0x00;  MISO: 0xFF
0.024558250000000,SPI,MOSI: 0x00;  MISO: 0xFF
0.024567750000000,SPI,MOSI: 0x00;  MISO: 0xFF
0.024575750000000,SPI,MOSI: 0x00;  MISO: 0xFF
0.024585250000000,SPI,MOSI: 0x00;  MISO: 0xFF
0.024593250000000,SPI,MOSI: 0x00;  MISO: 0xFF
0.024602750000000,SPI,MOSI: 0x00;  MISO: 0xFF
0.024610750000000,SPI,MOSI: 0x00;  MISO: 0xFF
0.024620250000000,SPI,MOSI: 0x00;  MISO: 0xFF
0.024628250000000,SPI,MOSI: 0x00;  MISO: 0xFF
0.024637750000000,SPI,MOSI: 0x00;  MISO: 0xFF
0.024645750000000,SPI,MOSI: 0x00;  MISO: 0xFF
0.024655250000000,SPI,MOSI: 0x00;  MISO: 0xFF
0.024663250000000,SPI,MOSI: 0x00;  MISO: 0xFF
0.024672750000000,SPI,MOSI: 0x00;  MISO: 0xFF
0.024680750000000,SPI,MOSI: 0x00;  MISO: 0xFF
0.024690250000000,SPI,MOSI: 0x00;  MISO: 0xFF
0.024698250000000,SPI,MOSI: 0x00;  MISO: 0xFF
0.024707750000000,SPI,MOSI: 0x00;  MISO: 0xFF
0.024715750000000,SPI,MOSI: 0x00;  MISO: 0xFF
0.024725250000000,SPI,MOSI: 0x00;  MISO: 0xFF
0.024733250000000,SPI,MOSI: 0x00;  MISO: 0xFF
0.024742750000000,SPI,MOSI: 0x00;  MISO: 0xFF
0.024750750000000,SPI,MOSI: 0x00;  MISO: 0xFF
0.024760250000000,SPI,MOSI: 0x00;  MISO: 0xFF
0.024768250000000,SPI,MOSI: 0x00;  MISO: 0xFF
0.024777750000000,SPI,MOSI: 0x00;  MISO: 0xFF
0.024785750000000,SPI,MOSI: 0x00;  MISO: 0xFF
0.024795250000000,SPI,MOSI: 0x00;  MISO: 0xFF
0.024803250000000,SPI,MOSI: 0x00;  MISO: 0xFF
0.024812750000000,SPI,MOSI: 0x00;  MISO: 0xFF
0.024820750000000,SPI,MOSI: 0x00;  MISO: 0xFF
0.024830250000000,SPI,MOSI: 0x00;  MISO: 0xFF
0.024838250000000,SPI,MOSI: 0x00;  MISO: 0xFF
0.024847750000000,SPI,MOSI: 0x00;  MISO: 0xFF
0.024855750000000,SPI,MOSI: 0x00;  MISO: 0xFF
0.024865250000000,SPI,MOSI: 0x00;  MISO: 0xFF
0.024873250000000,SPI,MOSI: 0x00;  MISO: 0xFF
0.025030333333333,SPI,MOSI: 0x50;  MISO: 0xFF
0.025038333333333,SPI,MOSI: 0x91;  MISO: 0xFF
0.025047833333333,SPI,MOSI: 0xF6;  MISO: 0xFF
0.025055833333333,SPI,MOSI: 0x00;  MISO: 0x91
0.025065333333333,SPI,MOSI: 0x00;  MISO: 0xF3
0.025073333333333,SPI,MOSI: 0x00;  MISO: 0x00
0.025082833333333,SPI,MOSI: 0x00;  MISO: 0x00
0.025090833333333,SPI,MOSI: 0x00;  MISO: 0x00
0.025100333333333,SPI,MOSI: 0x00;  MISO: 0x6F
0.025108333333333,SPI,MOSI: 0x00;  MISO: 0xE7
0.025117833333333,SPI,MOSI: 0x00;  MISO: 0x91
0.025125833333333,SPI,MOSI: 0x00;  MISO: 0xF3
0.025135333333333,SPI,MOSI: 0x00;  MISO: 0x00
0.025143333333333,SPI,MOSI: 0x00;  MISO: 0x00
0.025152833333333,SPI,MOSI: 0x00;  MISO: 0x00
0.025160833333333,SPI,MOSI: 0x00;  MISO: 0x6F
0.025170333333333,SPI,MOSI: 0x00;  MISO: 0xE7
0.025178333333333,SPI,MOSI: 0x00;  MISO: 0xFF
0.025187833333333,SPI,MOSI: 0x00;  MISO: 0xFF
0.025195833333333,SPI,MOSI: 0x00;  MISO: 0xFF
0.025205333333333,SPI,MOSI: 0x00;  MISO: 0xFF
0.025213333333333,SPI,MOSI: 0x00;  MISO: 0xFF
0.025222833333333,SPI,MOSI: 0x00;  MISO: 0xFF
0.025230833333333,SPI,MOSI: 0x00;  MISO: 0xFF
0.025240333333333,SPI,MOSI: 0x00;  MISO: 0xFF
0.025248333333333,SPI,MOSI: 0x00;  MISO: 0xFF
0.025257833333333,SPI,MOSI: 0x00;  MISO: 0xFF
0.025265833333333,SPI,MOSI: 0x00;  MISO: 0xFF
0.025275333333333,SPI,MOSI: 0x00;  MISO: 0xFF
0.025283333333333,SPI,MOSI: 0x00;  MISO: 0xFF
0.025292833333333,SPI,MOSI: 0x00;  MISO: 0xFF
0.025300833333333,SPI,MOSI: 0x00;  MISO: 0xFF
0.025310333333333,SPI,MOSI: 0x00;  MISO: 0xFF
0.025318333333333,SPI,MOSI: 0x00;  MISO: 0xFF
0.025327833333333,SPI,MOSI: 0x00;  MISO: 0xFF
0.025335833333333,SPI,MOSI: 0x00;  MISO: 0xFF
0.025345333333333,SPI,MOSI: 0x00;  MISO: 0xFF
0.025353333333333,SPI,MOSI: 0x00;  MISO: 0xFF
0.025362833333333,SPI,MOSI: 0x00;  MISO: 0xFF
0.025370833333333,SPI,MOSI: 0x00;  MISO: 0xFF
0.025380333333333,SPI,MOSI: 0x00;  MISO: 0xFF
0.025388333333333,SPI,MOSI: 0x00;  MISO: 0xFF
0.025397833333333,SPI,MOSI: 0x00;  MISO: 0xFF
0.025405833333333,SPI,MOSI: 0x00;  MISO: 0xFF
0.025415333333333,SPI,MOSI: 0x00;  MISO: 0xFF
0.025423333333333,SPI,MOSI: 0x00;  MISO: 0xFF
0.025432833333333,SPI,MOSI: 0x00;  MISO: 0xFF
0.025440833333333,SPI,MOSI: 0x00;  MISO: 0xFF
0.025450333333333,SPI,MOSI: 0x00;  MISO: 0xFF
0.025458333333333,SPI,MOSI: 0x00;  MISO: 0xFF
0.025467833333333,SPI,MOSI: 0x00;  MISO: 0xFF
0.025475833333333,SPI,MOSI: 0x00;  MISO: 0xFF
0.025485333333333,SPI,MOSI: 0x00;  MISO: 0xFF
0.025493333333333,SPI,MOSI: 0x00;  MISO: 0xFF
0.025502833333333,SPI,MOSI: 0x00;  MISO: 0xFF
0.025510833333333,SPI,MOSI: 0x00;  MISO: 0xFF
0.025520333333333,SPI,MOSI: 0x00;  MISO: 0xFF
0.025528333333333,SPI,MOSI: 0x00;  MISO: 0xFF
0.025537833333333,SPI,MOSI: 0x00;  MISO: 0xFF
0.025545833333333,SPI,MOSI: 0x00;  MISO: 0xFF
0.025586083333333,SPI,MOSI: 0x2A;  MISO: 0xFF
0.025594083333333,SPI,MOSI: 0xD4;  MISO: 0xFF
0.025603583333333,SPI,MOSI: 0x00;  MISO: 0xFF
0.025611583333333,SPI,MOSI: 0x00;  MISO: 0xFF
0.025642625000000,SPI,MOSI: 0x2A;  MISO: 0xFF
0.025650625000000,SPI,MOSI: 0xD4;  MISO: 0xFF
0.025660125000000,SPI,MOSI: 0x00;  MISO: 0xFF
0.025668125000000,SPI,MOSI: 0x00;  MISO: 0xFF
0.025698750000000,SPI,MOSI: 0x2A;  MISO: 0xFF
0.025706750000000,SPI,MOSI: 0xD4;  MISO: 0xFF
0.025716250000000,SPI,MOSI: 0x00;  MISO: 0xFF
0.025724250000000,SPI,MOSI: 0x00;  MISO: 0xFF
0.026041000000000,SPI,MOSI: 0x2A;  MISO: 0xFF
0.026049000000000,SPI,MOSI: 0xD4;  MISO: 0xFF
0.026058500000000,SPI,MOSI: 0x00;  MISO: 0xFF
0.026066500000000,SPI,MOSI: 0x00;  MISO: 0xFF
0.026097375000000,SPI,MOSI: 0x2A;  MISO: 0xFF
0.026105375000000,SPI,MOSI: 0xD4;  MISO: 0xFF
0.026114875000000,SPI,MOSI: 0x00;  MISO: 0xFF
0.026122875000000,SPI,MOSI: 0x00;  MISO: 0xFF
0.026152541666667,SPI,MOSI: 0x2A;  MISO: 0xFF
0.026160541666667,SPI,MOSI: 0xD4;  MISO: 0xFF
0.026170041666667,SPI,MOSI: 0x00;  MISO: 0xFF
0.026178041666667,SPI,MOSI: 0x00;  MISO: 0xFF
0.026228833333333,SPI,MOSI: 0x2A;  MISO: 0xFF
0.026236833333333,SPI,MOSI: 0xD4;  MISO: 0xFF
0.026246333333333,SPI,MOSI: 0x00;  MISO: 0xFF
0.026254333333333,SPI,MOSI: 0x00;  MISO: 0xFF
0.026286416666667,SPI,MOSI: 0x50;  MISO: 0xFF
0.026294416666667,SPI,MOSI: 0x91;  MISO: 0xFF
0.026303916666667,SPI,MOSI: 0xF6;  MISO: 0xFF
0.026311916666667,SPI,MOSI: 0x00;  MISO: 0xFF
0.026321416666667,SPI,MOSI: 0x00;  MISO: 0xFF
0.026329416666667,SPI,MOSI: 0x00;  MISO: 0xFF
0.026338916666667,SPI,MOSI: 0x00;  MISO: 0xFF
0.026346916666667,SPI,MOSI: 0x00;  MISO: 0xFF
0.026356416666667,SPI,MOSI: 0x00;  MISO: 0xFF
0.026364416666667,SPI,MOSI: 0x00;  MISO: 0xFF
0.026373916666667,SPI,MOSI: 0x00;  MISO: 0xFF
0.026381916666667,SPI,MOSI: 0x00;  MISO: 0xFF
0.026391416666667,SPI,MOSI: 0x00;  MISO: 0xFF
0.026399416666667,SPI,MOSI: 0x00;  MISO: 0xFF
0.026408916666667,SPI,MOSI: 0x00;  MISO: 0xFF
0.026416916666667,SPI,MOSI: 0x00;  MISO: 0xFF
0.026426416666667,SPI,MOSI: 0x00;  MISO: 0xFF
0.026434416666667,SPI,MOSI: 0x00;  MISO: 0xFF
0.026443916666667,SPI,MOSI: 0x00;  MISO: 0xFF
0.026451916666667,SPI,MOSI: 0x00;  MISO: 0xFF
0.026461416666667,SPI,MOSI: 0x00;  MISO: 0xFF
0.026469416666667,SPI,MOSI: 0x00;  MISO: 0xFF
0.026478916666667,SPI,MOSI: 0x00;  MISO: 0xFF
0.026486916666667,SPI,MOSI: 0x00;  MISO: 0xFF
0.026496416666667,SPI,MOSI: 0x00;  MISO: 0xFF
0.026504416666667,SPI,MOSI: 0x00;  MISO: 0xFF
0.026513916666667,SPI,MOSI: 0x00;  MISO: 0xFF
0.026521916666667,SPI,MOSI: 0x00;  MISO: 0xFF
0.026531416666667,SPI,MOSI: 0x00;  MISO: 0xFF
0.026539416666667,SPI,MOSI: 0x00;  MISO: 0xFF
0.026548916666667,SPI,MOSI: 0x00;  MISO: 0xFF
0.026556916666667,SPI,MOSI: 0x00;  MISO: 0xFF
0.026566416666667,SPI,MOSI: 0x00;  MISO: 0xFF
0.026574416666667,SPI,MOSI: 0x00;  MISO: 0xFF
0.026583916666667,SPI,MOSI: 0x00;  MISO: 0xFF
0.026591916666667,SPI,MOSI: 0x00;  MISO: 0xFF
0.026601416666667,SPI,MOSI: 0x00;  MISO: 0xFF
0.026609416666667,SPI,MOSI: 0x00;  MISO: 0xFF
0.026618916666667,SPI,MOSI: 0x00;  MISO: 0xFF
0.026626916666667,SPI,MOSI: 0x00;  MISO: 0xFF
0.026636416666667,SPI,MOSI: 0x00;  MISO: 0xFF
0.026644416666667,SPI,MOSI: 0x00;  MISO: 0xFF
0.026653916666667,SPI,MOSI: 0x00;  MISO: 0xFF
0.026661916666667,SPI,MOSI: 0x00;  MISO: 0xFF
0.026671416666667,SPI,MOSI: 0x00;  MISO: 0xFF
0.026679416666667,SPI,MOSI: 0x00;  MISO: 0xFF
0.026711541666667,SPI,MOSI: 0x2B;  MISO: 0xFF
0.026719541666667,SPI,MOSI: 0xFB;  MISO: 0xFF
0.026998583333333,SPI,MOSI: 0x2B;  MISO: 0xFF
0.027006583333333,SPI,MOSI: 0xFB;  MISO: 0xFF
0.027040416666667,SPI,MOSI: 0x4F;  MISO: 0xFF
0.027048416666667,SPI,MOSI: 0x91;  MISO: 0xFF
0.027057916666667,SPI,MOSI: 0x97;  MISO: 0xFF
0.027065916666667,SPI,MOSI: 0x00;  MISO: 0x91
0.027075416666667,SPI,MOSI: 0x00;  MISO: 0xFF
0.027083416666667,SPI,MOSI: 0x00;  MISO: 0x40
0.027092916666667,SPI,MOSI: 0x00;  MISO: 0xC0
0.027100916666667,SPI,MOSI: 0x00;  MISO: 0x0D
0.027110416666667,SPI,MOSI: 0x00;  MISO: 0xBF
0.027118416666667,SPI,MOSI: 0x00;  MISO: 0x5A
0.027127916666667,SPI,MOSI: 0x00;  MISO: 0x91
0.027135916666667,SPI,MOSI: 0x00;  MISO: 0xFF
0.027145416666667,SPI,MOSI: 0x00;  MISO: 0x40
0.027153416666667,SPI,MOSI: 0x00;  MISO: 0xC0
0.027162916666667,SPI,MOSI: 0x00;  MISO: 0xD4
0.027170916666667,SPI,MOSI: 0x00;  MISO: 0xB1
0.027180416666667,SPI,MOSI: 0x00;  MISO: 0xFE
0.027188416666667,SPI,MOSI: 0x00;  MISO: 0xFF
0.027197916666667,SPI,MOSI: 0x00;  MISO: 0xFF
0.027205916666667,SPI,MOSI: 0x00;  MISO: 0xFF
0.027215416666667,SPI,MOSI: 0x00;  MISO: 0xFF
0.027223416666667,SPI,MOSI: 0x00;  MISO: 0xFF
0.027232916666667,SPI,MOSI: 0x00;  MISO: 0xFF
0.027240916666667,SPI,MOSI: 0x00;  MISO: 0xFF
0.027250416666667,SPI,MOSI: 0x00;  MISO: 0xFF
0.027258416666667,SPI,MOSI: 0x00;  MISO: 0xFF
0.027267916666667,SPI,MOSI: 0x00;  MISO: 0xFF
0.027275916666667,SPI,MOSI: 0x00;  MISO: 0xFF
0.027285416666667,SPI,MOSI: 0x00;  MISO: 0xFF
0.027293416666667,SPI,MOSI: 0x00;  MISO: 0xFF
0.027302916666667,SPI,MOSI: 0x00;  MISO: 0xFF
0.027310916666667,SPI,MOSI: 0x00;  MISO: 0xFF
0.027320416666667,SPI,MOSI: 0x00;  MISO: 0xFF
0.027328416666667,SPI,MOSI: 0x00;  MISO: 0xFF
0.027337916666667,SPI,MOSI: 0x00;  MISO: 0xFF
0.027345916666667,SPI,MOSI: 0x00;  MISO: 0xFF
0.027355416666667,SPI,MOSI: 0x00;  MISO: 0xFF
0.027363416666667,SPI,MOSI: 0x00;  MISO: 0xFF
0.027372916666667,SPI,MOSI: 0x00;  MISO: 0xFF
0.027380916666667,SPI,MOSI: 0x00;  MISO: 0xFF
0.027390416666667,SPI,MOSI: 0x00;  MISO: 0xFF
0.027398416666667,SPI,MOSI: 0x00;  MISO: 0xFF
0.027407916666667,SPI,MOSI: 0x00;  MISO: 0xFF
0.027415916666667,SPI,MOSI: 0x00;  MISO: 0xFF
0.027425416666667,SPI,MOSI: 0x00;  MISO: 0xFF
0.027433416666667,SPI,MOSI: 0x00;  MISO: 0xFF
0.027442916666667,SPI,MOSI: 0x00;  MISO: 0xFF
0.027450916666667,SPI,MOSI: 0x00;  MISO: 0xFF
0.027460416666667,SPI,MOSI: 0x00;  MISO: 0xFF
0.027468416666667,SPI,MOSI: 0x00;  MISO: 0xFF
0.027477916666667,SPI,MOSI: 0x00;  MISO: 0xFF
0.027485916666667,SPI,MOSI: 0x00;  MISO: 0xFF
0.027495416666667,SPI,MOSI: 0x00;  MISO: 0xFF
0.027503416666667,SPI,MOSI: 0x00;  MISO: 0xFF
0.027512916666667,SPI,MOSI: 0x00;  MISO: 0xFF
0.027520916666667,SPI,MOSI: 0x00;  MISO: 0xFF
0.027530416666667,SPI,MOSI: 0x00;  MISO: 0xFF
0.027538416666667,SPI,MOSI: 0x00;  MISO: 0xFF
0.027547916666667,SPI,MOSI: 0x00;  MISO: 0xFF
0.027555916666667,SPI,MOSI: 0x00;  MISO: 0xFF
0.027595250000000,SPI,MOSI: 0x2A;  MISO: 0xFF
0.027603250000000,SPI,MOSI: 0xD4;  MISO: 0xFF
0.027612750000000,SPI,MOSI: 0x00;  MISO: 0xFF
0.027620750000000,SPI,MOSI: 0x00;  MISO: 0xFF
0.027651000000000,SPI,MOSI: 0x2A;  MISO: 0xFF
0.027659000000000,SPI,MOSI: 0xD4;  MISO: 0xFF
0.027668500000000,SPI,MOSI: 0x00;  MISO: 0xFF
0.027676500000000,SPI,MOSI: 0x00;  MISO: 0xFF
0.027706291666667,SPI,MOSI: 0x2A;  MISO: 0xFF
0.027714291666667,SPI,MOSI: 0xD4;  MISO: 0xFF
0.027723791666667,SPI,MOSI: 0x00;  MISO: 0xFF
0.027731791666667,SPI,MOSI: 0x00;  MISO: 0xFF
0.028011000000000,SPI,MOSI: 0x2A;  MISO: 0xFF
0.028019000000000,SPI,MOSI: 0xD4;  MISO: 0xFF
0.028028500000000,SPI,MOSI: 0x00;  MISO: 0xFF
0.028036500000000,SPI,MOSI: 0x00;  MISO: 0xFF
0.028100583333333,SPI,MOSI: 0x2A;  MISO: 0xFF
0.028108583333333,SPI,MOSI: 0xD4;  MISO: 0xFF
0.028118083333333,SPI,MOSI: 0x00;  MISO: 0xFF
0.028126083333333,SPI,MOSI: 0x00;  MISO: 0xFF
0.028156708333333,SPI,MOSI: 0x2A;  MISO: 0xFF
0.028164708333333,SPI,MOSI: 0xD4;  MISO: 0xFF
0.028174166666667,SPI,MOSI: 0x00;  MISO: 0xFF
0.028182208333333,SPI,MOSI: 0x00;  MISO: 0xFF
0.028211833333333,SPI,MOSI: 0x2A;  MISO: 0xFF
0.028219791666667,SPI,MOSI: 0xD4;  MISO: 0xFF
0.028229333333333,SPI,MOSI: 0x00;  MISO: 0xFF
0.028237291666667,SPI,MOSI: 0x00;  MISO: 0xFF
0.028268916666667,SPI,MOSI: 0x4F;  MISO: 0xFF
0.028276916666667,SPI,MOSI: 0x91;  MISO: 0xFF
0.028286416666667,SPI,MOSI: 0x97;  MISO: 0xFF
0.028294416666667,SPI,MOSI: 0x00;  MISO: 0xFF
0.028303916666667,SPI,MOSI: 0x00;  MISO: 0xFF
0.028311916666667,SPI,MOSI: 0x00;  MISO: 0xFF
0.028321416666667,SPI,MOSI: 0x00;  MISO: 0xFF
0.028329416666667,SPI,MOSI: 0x00;  MISO: 0xFF
0.028338916666667,SPI,MOSI: 0x00;  MISO: 0xFF
0.028346916666667,SPI,MOSI: 0x00;  MISO: 0xFF
0.028356416666667,SPI,MOSI: 0x00;  MISO: 0xFF
0.028364416666667,SPI,MOSI: 0x00;  MISO: 0xFF
0.028373916666667,SPI,MOSI: 0x00;  MISO: 0xFF
0.028381916666667,SPI,MOSI: 0x00;  MISO: 0xFF
0.028391416666667,SPI,MOSI: 0x00;  MISO: 0xFF
0.028399416666667,SPI,MOSI: 0x00;  MISO: 0xFF
0.028408916666667,SPI,MOSI: 0x00;  MISO: 0xFF
0.028416916666667,SPI,MOSI: 0x00;  MISO: 0xFF
0.028426416666667,SPI,MOSI: 0x00;  MISO: 0xFF
0.028434416666667,SPI,MOSI: 0x00;  MISO: 0xFF
0.028443916666667,SPI,MOSI: 0x00;  MISO: 0xFF
0.028451916666667,SPI,MOSI: 0x00;  MISO: 0xFF
0.028461416666667,SPI,MOSI: 0x00;  MISO: 0xFF
0.028469416666667,SPI,MOSI: 0x00;  MISO: 0xFF
0.028478916666667,SPI,MOSI: 0x00;  MISO: 0xFF
0.028486916666667,SPI,MOSI: 0x00;  MISO: 0xFF
0.028496416666667,SPI,MOSI: 0x00;  MISO: 0xFF
0.028504416666667,SPI,MOSI: 0x00;  MISO: 0xFF
0.028513916666667,SPI,MOSI: 0x00;  MISO: 0xFF
0.028521916666667,SPI,MOSI: 0x00;  MISO: 0xFF
0.028531416666667,SPI,MOSI: 0x00;  MISO: 0xFF
0.028539416666667,SPI,MOSI: 0x00;  MISO: 0xFF
0.028548916666667,SPI,MOSI: 0x00;  MISO: 0xFF
0.028556916666667,SPI,MOSI: 0x00;  MISO: 0xFF
0.028566416666667,SPI,MOSI: 0x00;  MISO: 0xFF
0.028574416666667,SPI,MOSI: 0x00;  MISO: 0xFF
0.028583916666667,SPI,MOSI: 0x00;  MISO: 0xFF
0.028591916666667,SPI,MOSI: 0x00;  MISO: 0xFF
0.028601416666667,SPI,MOSI: 0x00;  MISO: 0xFF
0.028609416666667,SPI,MOSI: 0x00;  MISO: 0xFF
0.028618916666667,SPI,MOSI: 0x00;  MISO: 0xFF
0.028626916666667,SPI,MOSI: 0x00;  MISO: 0xFF
0.028636416666667,SPI,MOSI: 0x00;  MISO: 0xFF
0.028644416666667,SPI,MOSI: 0x00;  MISO: 0xFF
0.028653916666667,SPI,MOSI: 0x00;  MISO: 0xFF
0.028661916666667,SPI,MOSI: 0x00;  MISO: 0xFF
0.028696250000000,SPI,MOSI: 0x47;  MISO: 0xFF
0.028704250000000,SPI,MOSI: 0x91;  MISO: 0xFF
0.028713750000000,SPI,MOSI: 0x12;  MISO: 0xFF
0.028721750000000,SPI,MOSI: 0x00;  MISO: 0x91
0.028731250000000,SPI,MOSI: 0x00;  MISO: 0x7F
0.028739250000000,SPI,MOSI: 0x00;  MISO: 0x9F
0.028748750000000,SPI,MOSI: 0x00;  MISO: 0xD0
0.028756750000000,SPI,MOSI: 0x00;  MISO: 0x9F
0.028766250000000,SPI,MOSI: 0x00;  MISO: 0xDC
0.028774250000000,SPI,MOSI: 0x00;  MISO: 0x9F
0.028783750000000,SPI,MOSI: 0x00;  MISO: 0xB3
0.028791750000000,SPI,MOSI: 0x00;  MISO: 0xEC
0.028801250000000,SPI,MOSI: 0x00;  MISO: 0x91
0.028809250000000,SPI,MOSI: 0x00;  MISO: 0x09
0.028818750000000,SPI,MOSI: 0x00;  MISO: 0x82
0.028826750000000,SPI,MOSI: 0x00;  MISO: 0xC7
0.028836250000000,SPI,MOSI: 0x00;  MISO: 0xBD
0.028844250000000,SPI,MOSI: 0x00;  MISO: 0xDE
0.028853750000000,SPI,MOSI: 0x00;  MISO: 0x9F
0.028861750000000,SPI,MOSI: 0x00;  MISO: 0x94
0.028871250000000,SPI,MOSI: 0x00;  MISO: 0x8D
0.028879250000000,SPI,MOSI: 0x00;  MISO: 0xFF
0.028888750000000,SPI,MOSI: 0x00;  MISO: 0xFF
0.028896750000000,SPI,MOSI: 0x00;  MISO: 0xFF
0.028906250000000,SPI,MOSI: 0x00;  MISO: 0xFF
0.028914250000000,SPI,MOSI: 0x00;  MISO: 0xFF
0.028923750000000,SPI,MOSI: 0x00;  MISO: 0xFF
0.028931750000000,SPI,MOSI: 0x00;  MISO: 0xFF
0.028941250000000,SPI,MOSI: 0x00;  MISO: 0xFF
0.028949250000000,SPI,MOSI: 0x00;  MISO: 0xFF
0.028958750000000,SPI,MOSI: 0x00;  MISO: 0xFF
0.028966750000000,SPI,MOSI: 0x00;  MISO: 0xFF
0.028976250000000,SPI,MOSI: 0x00;  MISO: 0xFF
0.028984250000000,SPI,MOSI: 0x00;  MISO: 0xFF
0.028993750000000,SPI,MOSI: 0x00;  MISO: 0xFF
0.029001750000000,SPI,MOSI: 0x00;  MISO: 0xFF
0.029011250000000,SPI,MOSI: 0x00;  MISO: 0xFF
0.029019250000000,SPI,MOSI: 0x00;  MISO: 0xFF
0.029028750000000,SPI,MOSI: 0x00;  MISO: 0xFF
0.029036750000000,SPI,MOSI: 0x00;  MISO: 0xFF
0.029046250000000,SPI,MOSI: 0x00;  MISO: 0xFF
0.029054250000000,SPI,MOSI: 0x00;  MISO: 0xFF
0.029063750000000,SPI,MOSI: 0x00;  MISO: 0xFF
0.029071750000000,SPI,MOSI: 0x00;  MISO: 0xFF
0.029081250000000,SPI,MOSI: 0x00;  MISO: 0xFF
0.029089250000000,SPI,MOSI: 0x00;  MISO: 0xFF
0.029098750000000,SPI,MOSI: 0x00;  MISO: 0xFF
0.029106750000000,SPI,MOSI: 0x00;  MISO: 0xFF
0.029116250000000,SPI,MOSI: 0x00;  MISO: 0xFF
0.029124250000000,SPI,MOSI: 0x00;  MISO: 0xFF
0.029133750000000,SPI,MOSI: 0x00;  MISO: 0xFF
0.029141750000000,SPI,MOSI: 0x00;  MISO: 0xFF
0.029151250000000,SPI,MOSI: 0x00;  MISO: 0xFF
0.029159250000000,SPI,MOSI: 0x00;  MISO: 0xFF
0.029168750000000,SPI,MOSI: 0x00;  MISO: 0xFF
0.029176750000000,SPI,MOSI: 0x00;  MISO: 0xFF
0.029186250000000,SPI,MOSI: 0x00;  MISO: 0xFF
0.029194250000000,SPI,MOSI: 0x00;  MISO: 0xFF
0.029203750000000,SPI,MOSI: 0x00;  MISO: 0xFF
0.029211750000000,SPI,MOSI: 0x00;  MISO: 0xFF
0.029221250000000,SPI,MOSI: 0x00;  MISO: 0xFF
0.029229250000000,SPI,MOSI: 0x00;  MISO: 0xFF
0.029238750000000,SPI,MOSI: 0x00;  MISO: 0xFF
0.029246750000000,SPI,MOSI: 0x00;  MISO: 0xFF
0.029256250000000,SPI,MOSI: 0x00;  MISO: 0xFF
0.029264250000000,SPI,MOSI: 0x00;  MISO: 0xFF
0.029273750000000,SPI,MOSI: 0x00;  MISO: 0xFF
0.029281750000000,SPI,MOSI: 0x00;  MISO: 0xFF
0.029291250000000,SPI,MOSI: 0x00;  MISO: 0xFF
0.029299250000000,SPI,MOSI: 0x00;  MISO: 0xFF
0.029308750000000,SPI,MOSI: 0x00;  MISO: 0xFF
0.029316750000000,SPI,MOSI: 0x00;  MISO: 0xFF
0.029326250000000,SPI,MOSI: 0x00;  MISO: 0xFF
0.029334250000000,SPI,MOSI: 0x00;  MISO: 0xFF
0.029343750000000,SPI,MOSI: 0x00;  MISO: 0xFF
0.029351750000000,SPI,MOSI: 0x00;  MISO: 0xFF
0.029424958333333,SPI,MOSI: 0x2A;  MISO: 0xFF
0.029432958333333,SPI,MOSI: 0xD4;  MISO: 0xFF
0.029442416666667,SPI,MOSI: 0x00;  MISO: 0xFF
0.029450458333333,SPI,MOSI: 0x00;  MISO: 0xFF
0.029486208333333,SPI,MOSI: 0x2A;  MISO: 0xFF
0.029494208333333,SPI,MOSI: 0xD4;  MISO: 0xFF
0.029503708333333,SPI,MOSI: 0x00;  MISO: 0xFF
0.029511708333333,SPI,MOSI: 0x00;  MISO: 0xFF
0.029541500000000,SPI,MOSI: 0x2A;  MISO: 0xFF
0.029549500000000,SPI,MOSI: 0xD4;  MISO: 0xFF
0.029559000000000,SPI,MOSI: 0x00;  MISO: 0xFF
0.029567000000000,SPI,MOSI: 0x00;  MISO: 0xFF
0.029596666666667,SPI,MOSI: 0x2A;  MISO: 0xFF
0.029604666666667,SPI,MOSI: 0xD4;  MISO: 0xFF
0.029614166666667,SPI,MOSI: 0x00;  MISO: 0xFF
0.029622166666667,SPI,MOSI: 0x00;  MISO: 0xFF
0.029651750000000,SPI,MOSI: 0x2A;  MISO: 0xFF
0.029659750000000,SPI,MOSI: 0xD4;  MISO: 0xFF
0.029669250000000,SPI,MOSI: 0x00;  MISO: 0xFF
0.029677250000000,SPI,MOSI: 0x00;  MISO: 0xFF
0.029980083333333,SPI,MOSI: 0x2A;  MISO: 0xFF
0.029988083333333,SPI,MOSI: 0xD4;  MISO: 0xFF
0.029997583333333,SPI,MOSI: 0x00;  MISO: 0xFF
0.030005583333333,SPI,MOSI: 0x00;  MISO: 0xFF
0.030036833333333,SPI,MOSI: 0x2A;  MISO: 0xFF
0.030044833333333,SPI,MOSI: 0xD4;  MISO: 0xFF
0.030054333333333,SPI,MOSI: 0x00;  MISO: 0xFF
0.030062333333333,SPI,MOSI: 0x00;  MISO: 0xFF
0.030094041666667,SPI,MOSI: 0x47;  MISO: 0xFF
0.030102041666667,SPI,MOSI: 0x91;  MISO: 0xFF
0.030111541666667,SPI,MOSI: 0x12;  MISO: 0xFF
0.030119541666667,SPI,MOSI: 0x00;  MISO: 0xFF
0.030129041666667,SPI,MOSI: 0x00;  MISO: 0xFF
0.030137041666667,SPI,MOSI: 0x00;  MISO: 0xFF
0.030146541666667,SPI,MOSI: 0x00;  MISO: 0xFF
0.030154541666667,SPI,MOSI: 0x00;  MISO: 0xFF
0.030164041666667,SPI,MOSI: 0x00;  MISO: 0xFF
0.030172041666667,SPI,MOSI: 0x00;  MISO: 0xFF
0.030181541666667,SPI,MOSI: 0x00;  MISO: 0xFF
0.030189541666667,SPI,MOSI: 0x00;  MISO: 0xFF
0.030199041666667,SPI,MOSI: 0x00;  MISO: 0xFF
0.030207041666667,SPI,MOSI: 0x00;  MISO: 0xFF
0.030216541666667,SPI,MOSI: 0x00;  MISO: 0xFF
0.030224541666667,SPI,MOSI: 0x00;  MISO: 0xFF
0.030234041666667,SPI,MOSI: 0x00;  MISO: 0xFF
0.030242041666667,SPI,MOSI: 0x00;  MISO: 0xFF
0.030251541666667,SPI,MOSI: 0x00;  MISO: 0xFF
0.030259541666667,SPI,MOSI: 0x00;  MISO: 0xFF
0.030269041666667,SPI,MOSI: 0x00;  MISO: 0xFF
0.030277041666667,SPI,MOSI: 0x00;  MISO: 0xFF
0.030286541666667,SPI,MOSI: 0x00;  MISO: 0xFF
0.030294541666667,SPI,MOSI: 0x00;  MISO: 0xFF
0.030304041666667,SPI,MOSI: 0x00;  MISO: 0xFF
0.030312041666667,SPI,MOSI: 0x00;  MISO: 0xFF
0.030321541666667,SPI,MOSI: 0x00;  MISO: 0xFF
0.030329541666667,SPI,MOSI: 0x00;  MISO: 0xFF
0.030339041666667,SPI,MOSI: 0x00;  MISO: 0xFF
0.030347041666667,SPI,MOSI: 0x00;  MISO: 0xFF
0.030356541666667,SPI,MOSI: 0x00;  MISO: 0xFF
0.030364541666667,SPI,MOSI: 0x00;  MISO: 0xFF
0.030374041666667,SPI,MOSI: 0x00;  MISO: 0xFF
0.030382041666667,SPI,MOSI: 0x00;  MISO: 0xFF
0.030391541666667,SPI,MOSI: 0x00;  MISO: 0xFF
0.030399541666667,SPI,MOSI: 0x00;  MISO: 0xFF
0.030409041666667,SPI,MOSI: 0x00;  MISO: 0xFF
0.030417041666667,SPI,MOSI: 0x00;  MISO: 0xFF
0.030426541666667,SPI,MOSI: 0x00;  MISO: 0xFF
0.030434541666667,SPI,MOSI: 0x00;  MISO: 0xFF
0.030444041666667,SPI,MOSI: 0x00;  MISO: 0xFF
0.030452041666667,SPI,MOSI: 0x00;  MISO: 0xFF
0.030461541666667,SPI,MOSI: 0x00;  MISO: 0xFF
0.030469541666667,SPI,MOSI: 0x00;  MISO: 0xFF
0.030479041666667,SPI,MOSI: 0x00;  MISO: 0xFF
0.030487041666667,SPI,MOSI: 0x00;  MISO: 0xFF
0.030496541666667,SPI,MOSI: 0x00;  MISO: 0xFF
0.030504541666667,SPI,MOSI: 0x00;  MISO: 0xFF
0.030514041666667,SPI,MOSI: 0x00;  MISO: 0xFF
0.030522041666667,SPI,MOSI: 0x00;  MISO: 0xFF
0.030531541666667,SPI,MOSI: 0x00;  MISO: 0xFF
0.030539541666667,SPI,MOSI: 0x00;  MISO: 0xFF
0.030549041666667,SPI,MOSI: 0x00;  MISO: 0xFF
0.030557041666667,SPI,MOSI: 0x00;  MISO: 0xFF
0.030566541666667,SPI,MOSI: 0x00;  MISO: 0xFF
0.030574541666667,SPI,MOSI: 0x00;  MISO: 0xFF
0.030584041666667,SPI,MOSI: 0x00;  MISO: 0xFF
0.030592041666667,SPI,MOSI: 0x00;  MISO: 0xFF
0.030626833333333,SPI,MOSI: 0x48;  MISO: 0xFF
0.030634833333333,SPI,MOSI: 0x91;  MISO: 0xFF
0.030644333333333,SPI,MOSI: 0x56;  MISO: 0xFF
0.030652333333333,SPI,MOSI: 0x00;  MISO: 0x91
0.030661833333333,SPI,MOSI: 0x00;  MISO: 0xFB
0.030669833333333,SPI,MOSI: 0x00;  MISO: 0x9F
0.030679333333333,SPI,MOSI: 0x00;  MISO: 0xD4
0.030687333333333,SPI,MOSI: 0x00;  MISO: 0x9F
0.030696833333333,SPI,MOSI: 0x00;  MISO: 0xFB
0.030704833333333,SPI,MOSI: 0x00;  MISO: 0x9F
0.030714333333333,SPI,MOSI: 0x00;  MISO: 0xBF
0.030722333333333,SPI,MOSI: 0x00;  MISO: 0x8E
0.030731833333333,SPI,MOSI: 0x00;  MISO: 0x91
0.030739833333333,SPI,MOSI: 0x00;  MISO: 0xDB
0.030749333333333,SPI,MOSI: 0x00;  MISO: 0x9F
0.030757333333333,SPI,MOSI: 0x00;  MISO: 0xD0
0.030766833333333,SPI,MOSI: 0x00;  MISO: 0x9F
0.030774833333333,SPI,MOSI: 0x00;  MISO: 0xED
0.030784333333333,SPI,MOSI: 0x00;  MISO: 0x9F
0.030792333333333,SPI,MOSI: 0x00;  MISO: 0xB3
0.030801833333333,SPI,MOSI: 0x00;  MISO: 0xB0
0.030809833333333,SPI,MOSI: 0x00;  MISO: 0xFF
0.030819333333333,SPI,MOSI: 0x00;  MISO: 0xFF
0.030827333333333,SPI,MOSI: 0x00;  MISO: 0xFF
0.030836833333333,SPI,MOSI: 0x00;  MISO: 0xFF
0.030844833333333,SPI,MOSI: 0x00;  MISO: 0xFF
0.030854333333333,SPI,MOSI: 0x00;  MISO: 0xFF
0.030862333333333,SPI,MOSI: 0x00;  MISO: 0xFF
0.030871833333333,SPI,MOSI: 0x00;  MISO: 0xFF
0.030879833333333,SPI,MOSI: 0x00;  MISO: 0xFF
0.030889333333333,SPI,MOSI: 0x00;  MISO: 0xFF
0.030897333333333,SPI,MOSI: 0x00;  MISO: 0xFF
0.030906833333333,SPI,MOSI: 0x00;  MISO: 0xFF
0.030914833333333,SPI,MOSI: 0x00;  MISO: 0xFF
0.030924333333333,SPI,MOSI: 0x00;  MISO: 0xFF
0.030932333333333,SPI,MOSI: 0x00;  MISO: 0xFF
0.030941833333333,SPI,MOSI: 0x00;  MISO: 0xFF
0.030949833333333,SPI,MOSI: 0x00;  MISO: 0xFF
0.030959333333333,SPI,MOSI: 0x00;  MISO: 0xFF
0.030967333333333,SPI,MOSI: 0x00;  MISO: 0xFF
0.030976833333333,SPI,MOSI: 0x00;  MISO: 0xFF
0.030984833333333,SPI,MOSI: 0x00;  MISO: 0xFF
0.030994333333333,SPI,MOSI: 0x00;  MISO: 0xFF
0.031002333333333,SPI,MOSI: 0x00;  MISO: 0xFF
0.031011833333333,SPI,MOSI: 0x00;  MISO: 0xFF
0.031019833333333,SPI,MOSI: 0x00;  MISO: 0xFF
0.031029333333333,SPI,MOSI: 0x00;  MISO: 0xFF
0.031037333333333,SPI,MOSI: 0x00;  MISO: 0xFF
0.031046833333333,SPI,MOSI: 0x00;  MISO: 0xFF
0.031054833333333,SPI,MOSI: 0x00;  MISO: 0xFF
0.031064333333333,SPI,MOSI: 0x00;  MISO: 0xFF
0.031072333333333,SPI,MOSI: 0x00;  MISO: 0xFF
0.031081833333333,SPI,MOSI: 0x00;  MISO: 0xFF
0.031089833333333,SPI,MOSI: 0x00;  MISO: 0xFF
0.031099333333333,SPI,MOSI: 0x00;  MISO: 0xFF
0.031107333333333,SPI,MOSI: 0x00;  MISO: 0xFF
0.031116833333333,SPI,MOSI: 0x00;  MISO: 0xFF
0.031124833333333,SPI,MOSI: 0x00;  MISO: 0xFF
0.031134333333333,SPI,MOSI: 0x00;  MISO: 0xFF
0.031142333333333,SPI,MOSI: 0x00;  MISO: 0xFF
0.031151833333333,SPI,MOSI: 0x00;  MISO: 0xFF
0.031159833333333,SPI,MOSI: 0x00;  MISO: 0xFF
0.031169333333333,SPI,MOSI: 0x00;  MISO: 0xFF
0.031177333333333,SPI,MOSI: 0x00;  MISO: 0xFF
0.031186833333333,SPI,MOSI: 0x00;  MISO: 0xFF
0.031194833333333,SPI,MOSI: 0x00;  MISO: 0xFF
0.031204333333333,SPI,MOSI: 0x00;  MISO: 0xFF
0.031212333333333,SPI,MOSI: 0x00;  MISO: 0xFF
0.031221833333333,SPI,MOSI: 0x00;  MISO: 0xFF
0.031229833333333,SPI,MOSI: 0x00;  MISO: 0xFF
0.031239333333333,SPI,MOSI: 0x00;  MISO: 0xFF
0.031247333333333,SPI,MOSI: 0x00;  MISO: 0xFF
0.031256833333333,SPI,MOSI: 0x00;  MISO: 0xFF
0.031264833333333,SPI,MOSI: 0x00;  MISO: 0xFF
0.031274333333333,SPI,MOSI: 0x00;  MISO: 0xFF
0.031282333333333,SPI,MOSI: 0x00;  MISO: 0xFF
0.031323916666667,SPI,MOSI: 0x2A;  MISO: 0xFF
0.031331916666667,SPI,MOSI: 0xD4;  MISO: 0xFF
0.031341416666667,SPI,MOSI: 0x00;  MISO: 0xFF
0.031349416666667,SPI,MOSI: 0x00;  MISO: 0xFF
0.031423208333333,SPI,MOSI: 0x2A;  MISO: 0xFF
0.031431208333333,SPI,MOSI: 0xD4;  MISO: 0xFF
0.031440708333333,SPI,MOSI: 0x00;  MISO: 0xFF
0.031448708333333,SPI,MOSI: 0x00;  MISO: 0xFF
0.031478916666667,SPI,MOSI: 0x2A;  MISO: 0xFF
0.031486916666667,SPI,MOSI: 0xD4;  MISO: 0xFF
0.031496416666667,SPI,MOSI: 0x00;  MISO: 0xFF
0.031504416666667,SPI,MOSI: 0x00;  MISO: 0xFF
0.031534000000000,SPI,MOSI: 0x2A;  MISO: 0xFF
0.031542000000000,SPI,MOSI: 0xD4;  MISO: 0xFF
0.031551500000000,SPI,MOSI: 0x00;  MISO: 0xFF
0.031559500000000,SPI,MOSI: 0x00;  MISO: 0xFF
0.031589041666667,SPI,MOSI: 0x2A;  MISO: 0xFF
0.031597041666667,SPI,MOSI: 0xD4;  MISO: 0xFF
0.031606541666667,SPI,MOSI: 0x00;  MISO: 0xFF
0.031614541666667,SPI,MOSI: 0x00;  MISO: 0xFF
0.031675541666667,SPI,MOSI: 0x2A;  MISO: 0xFF
0.031683541666667,SPI,MOSI: 0xD4;  MISO: 0xFF
0.031693041666667,SPI,MOSI: 0x00;  MISO: 0xFF
0.031701041666667,SPI,MOSI: 0x00;  MISO: 0xFF
0.031730875000000,SPI,MOSI: 0x2A;  MISO: 0xFF
0.031738875000000,SPI,MOSI: 0xD4;  MISO: 0xFF
0.031748375000000,SPI,MOSI: 0x00;  MISO: 0xFF
0.031756375000000,SPI,MOSI: 0x00;  MISO: 0xFF
0.032014000000000,SPI,MOSI: 0x48;  MISO: 0xFF
0.032022000000000,SPI,MOSI: 0x91;  MISO: 0xFF
0.032031500000000,SPI,MOSI: 0x56;  MISO: 0xFF
0.032039500000000,SPI,MOSI: 0x00;  MISO: 0xFF
0.032049000000000,SPI,MOSI: 0x00;  MISO: 0xFF
0.032057000000000,SPI,MOSI: 0x00;  MISO: 0xFF
0.032066500000000,SPI,MOSI: 0x00;  MISO: 0xFF
0.032074500000000,SPI,MOSI: 0x00;  MISO: 0xFF
0.032084000000000,SPI,MOSI: 0x00;  MISO: 0xFF
0.032092000000000,SPI,MOSI: 0x00;  MISO: 0xFF
0.032101500000000,SPI,MOSI: 0x00;  MISO: 0xFF
0.032109500000000,SPI,MOSI: 0x00;  MISO: 0xFF
0.032119000000000,SPI,MOSI: 0x00;  MISO: 0xFF
0.032127000000000,SPI,MOSI: 0x00;  MISO: 0xFF
0.032136500000000,SPI,MOSI: 0x00;  MISO: 0xFF
0.032144500000000,SPI,MOSI: 0x00;  MISO: 0xFF
0.032154000000000,SPI,MOSI: 0x00;  MISO: 0xFF
0.032162000000000,SPI,MOSI: 0x00;  MISO: 0xFF
0.032171500000000,SPI,MOSI: 0x00;  MISO: 0xFF
0.032179500000000,SPI,MOSI: 0x00;  MISO: 0xFF
0.032189000000000,SPI,MOSI: 0x00;  MISO: 0xFF
0.032197000000000,SPI,MOSI: 0x00;  MISO: 0xFF
0.032206500000000,SPI,MOSI: 0x00;  MISO: 0xFF
0.032214500000000,SPI,MOSI: 0x00;  MISO: 0xFF
0.032224000000000,SPI,MOSI: 0x00;  MISO: 0xFF
0.032232000000000,SPI,MOSI: 0x00;  MISO: 0xFF
0.032241500000000,SPI,MOSI: 0x00;  MISO: 0xFF
0.032249500000000,SPI,MOSI: 0x00;  MISO: 0xFF
0.032259000000000,SPI,MOSI: 0x00;  MISO: 0xFF
0.032267000000000,SPI,MOSI: 0x00;  MISO: 0xFF
0.032276500000000,SPI,MOSI: 0x00;  MISO: 0xFF
0.032284500000000,SPI,MOSI: 0x00;  MISO: 0xFF
0.032294000000000,SPI,MOSI: 0x00;  MISO: 0xFF
0.032302000000000,SPI,MOSI: 0x00;  MISO: 0xFF
0.032311500000000,SPI,MOSI: 0x00;  MISO: 0xFF
0.032319500000000,SPI,MOSI: 0x00;  MISO: 0xFF
0.032329000000000,SPI,MOSI: 0x00;  MISO: 0xFF
0.032337000000000,SPI,MOSI: 0x00;  MISO: 0xFF
0.032346500000000,SPI,MOSI: 0x00;  MISO: 0xFF
0.032354500000000,SPI,MOSI: 0x00;  MISO: 0xFF
0.032364000000000,SPI,MOSI: 0x00;  MISO: 0xFF
0.032372000000000,SPI,MOSI: 0x00;  MISO: 0xFF
0.032381500000000,SPI,MOSI: 0x00;  MISO: 0xFF
0.032389500000000,SPI,MOSI: 0x00;  MISO: 0xFF
0.032399000000000,SPI,MOSI: 0x00;  MISO: 0xFF
0.032407000000000,SPI,MOSI: 0x00;  MISO: 0xFF
0.032416500000000,SPI,MOSI: 0x00;  MISO: 0xFF
0.032424500000000,SPI,MOSI: 0x00;  MISO: 0xFF
0.032434000000000,SPI,MOSI: 0x00;  MISO: 0xFF
0.032442000000000,SPI,MOSI: 0x00;  MISO: 0xFF
0.032451500000000,SPI,MOSI: 0x00;  MISO: 0xFF
0.032459500000000,SPI,MOSI: 0x00;  MISO: 0xFF
0.032469000000000,SPI,MOSI: 0x00;  MISO: 0xFF
0.032477000000000,SPI,MOSI: 0x00;  MISO: 0xFF
0.032486500000000,SPI,MOSI: 0x00;  MISO: 0xFF
0.032494500000000,SPI,MOSI: 0x00;  MISO: 0xFF
0.032504000000000,SPI,MOSI: 0x00;  MISO: 0xFF
0.032512000000000,SPI,MOSI: 0x00;  MISO: 0xFF
0.032546541666667,SPI,MOSI: 0x49;  MISO: 0xFF
0.032554541666667,SPI,MOSI: 0x91;  MISO: 0xFF
0.032564041666667,SPI,MOSI: 0xBF;  MISO: 0xFF
0.032572041666667,SPI,MOSI: 0x00;  MISO: 0x91
0.032581541666667,SPI,MOSI: 0x00;  MISO: 0xE0
0.032589541666667,SPI,MOSI: 0x00;  MISO: 0x9F
0.032599041666667,SPI,MOSI: 0x00;  MISO: 0xF3
0.032607041666667,SPI,MOSI: 0x00;  MISO: 0x9F
0.032616541666667,SPI,MOSI: 0x00;  MISO: 0x78
0.032624541666667,SPI,MOSI: 0x00;  MISO: 0x9F
0.032634041666667,SPI,MOSI: 0x00;  MISO: 0x87
0.032642041666667,SPI,MOSI: 0x00;  MISO: 0x62
0.032651541666667,SPI,MOSI: 0x00;  MISO: 0x91
0.032659541666667,SPI,MOSI: 0x00;  MISO: 0xDB
0.032669041666667,SPI,MOSI: 0x00;  MISO: 0x9F
0.032677041666667,SPI,MOSI: 0x00;  MISO: 0xDD
0.032686541666667,SPI,MOSI: 0x00;  MISO: 0x9F
0.032694541666667,SPI,MOSI: 0x00;  MISO: 0xE4
0.032704041666667,SPI,MOSI: 0x00;  MISO: 0x9F
0.032712041666667,SPI,MOSI: 0x00;  MISO: 0xB3
0.032721541666667,SPI,MOSI: 0x00;  MISO: 0x15
0.032729541666667,SPI,MOSI: 0x00;  MISO: 0xFF
0.032739041666667,SPI,MOSI: 0x00;  MISO: 0xFF
0.032747041666667,SPI,MOSI: 0x00;  MISO: 0xFF
0.032756541666667,SPI,MOSI: 0x00;  MISO: 0xFF
0.032764541666667,SPI,MOSI: 0x00;  MISO: 0xFF
0.032774041666667,SPI,MOSI: 0x00;  MISO: 0xFF
0.032782041666667,SPI,MOSI: 0x00;  MISO: 0xFF
0.032791541666667,SPI,MOSI: 0x00;  MISO: 0xFF
0.032799541666667,SPI,MOSI: 0x00;  MISO: 0xFF
0.032809041666667,SPI,MOSI: 0x00;  MISO: 0xFF
0.032817041666667,SPI,MOSI: 0x00;  MISO: 0xFF
0.032826541666667,SPI,MOSI: 0x00;  MISO: 0xFF
0.032834541666667,SPI,MOSI: 0x00;  MISO: 0xFF
0.032844041666667,SPI,MOSI: 0x00;  MISO: 0xFF
0.032852041666667,SPI,MOSI: 0x00;  MISO: 0xFF
0.032861541666667,SPI,MOSI: 0x00;  MISO: 0xFF
0.032869541666667,SPI,MOSI: 0x00;  MISO: 0xFF
0.032879041666667,SPI,MOSI: 0x00;  MISO: 0xFF
0.032887041666667,SPI,MOSI: 0x00;  MISO: 0xFF
0.032896541666667,SPI,MOSI: 0x00;  MISO: 0xFF
0.032904541666667,SPI,MOSI: 0x00;  MISO: 0xFF
0.032914041666667,SPI,MOSI: 0x00;  MISO: 0xFF
0.032922083333333,SPI,MOSI: 0x00;  MISO: 0xFF
0.032931541666667,SPI,MOSI: 0x00;  MISO: 0xFF
0.032939583333333,SPI,MOSI: 0x00;  MISO: 0xFF
0.032949083333333,SPI,MOSI: 0x00;  MISO: 0xFF
0.032957083333333,SPI,MOSI: 0x00;  MISO: 0xFF
0.032966583333333,SPI,MOSI: 0x00;  MISO: 0xFF
0.032974541666667,SPI,MOSI: 0x00;  MISO: 0xFF
0.032984083333333,SPI,MOSI: 0x00;  MISO: 0xFF
0.032992041666667,SPI,MOSI: 0x00;  MISO: 0xFF
0.033001583333333,SPI,MOSI: 0x00;  MISO: 0xFF
0.033009541666667,SPI,MOSI: 0x00;  MISO: 0xFF
0.033019083333333,SPI,MOSI: 0x00;  MISO: 0xFF
0.033027041666667,SPI,MOSI: 0x00;  MISO: 0xFF
0.033036583333333,SPI,MOSI: 0x00;  MISO: 0xFF
0.033044583333333,SPI,MOSI: 0x00;  MISO: 0xFF
0.033054083333333,SPI,MOSI: 0x00;  MISO: 0xFF
0.033062041666667,SPI,MOSI: 0x00;  MISO: 0xFF
0.033071583333333,SPI,MOSI: 0x00;  MISO: 0xFF
0.033079583333333,SPI,MOSI: 0x00;  MISO: 0xFF
0.033089083333333,SPI,MOSI: 0x00;  MISO: 0xFF
0.033097083333333,SPI,MOSI: 0x00;  MISO: 0xFF
0.033106583333333,SPI,MOSI: 0x00;  MISO: 0xFF
0.033114583333333,SPI,MOSI: 0x00;  MISO: 0xFF
0.033124083333333,SPI,MOSI: 0x00;  MISO: 0xFF
0.033132083333333,SPI,MOSI: 0x00;  MISO: 0xFF
0.033141583333333,SPI,MOSI: 0x00;  MISO: 0xFF
0.033149583333333,SPI,MOSI: 0x00;  MISO: 0xFF
0.033159083333333,SPI,MOSI: 0x00;  MISO: 0xFF
0.033167083333333,SPI,MOSI: 0x00;  MISO: 0xFF
0.033176583333333,SPI,MOSI: 0x00;  MISO: 0xFF
0.033184583333333,SPI,MOSI: 0x00;  MISO: 0xFF
0.033194083333333,SPI,MOSI: 0x00;  MISO: 0xFF
0.033202083333333,SPI,MOSI: 0x00;  MISO: 0xFF
0.033244333333333,SPI,MOSI: 0x2A;  MISO: 0xFF
0.033252333333333,SPI,MOSI: 0xD4;  MISO: 0xFF
0.033261833333333,SPI,MOSI: 0x00;  MISO: 0xFF
0.033269833333333,SPI,MOSI: 0x00;  MISO: 0xFF
0.033300083333333,SPI,MOSI: 0x2A;  MISO: 0xFF
0.033308083333333,SPI,MOSI: 0xD4;  MISO: 0xFF
0.033317583333333,SPI,MOSI: 0x00;  MISO: 0xFF
0.033325583333333,SPI,MOSI: 0x00;  MISO: 0xFF
0.033355208333333,SPI,MOSI: 0x2A;  MISO: 0xFF
0.033363208333333,SPI,MOSI: 0xD4;  MISO: 0xFF
0.033372708333333,SPI,MOSI: 0x00;  MISO: 0xFF
0.033380708333333,SPI,MOSI: 0x00;  MISO: 0xFF
0.033410333333333,SPI,MOSI: 0x2A;  MISO: 0xFF
0.033418333333333,SPI,MOSI: 0xD4;  MISO: 0xFF
0.033427833333333,SPI,MOSI: 0x00;  MISO: 0xFF
0.033435833333333,SPI,MOSI: 0x00;  MISO: 0xFF
0.033465458333333,SPI,MOSI: 0x2A;  MISO: 0xFF
0.033473458333333,SPI,MOSI: 0xD4;  MISO: 0xFF
0.033482958333333,SPI,MOSI: 0x00;  MISO: 0xFF
0.033490958333333,SPI,MOSI: 0x00;  MISO: 0xFF
0.033520625000000,SPI,MOSI: 0x2A;  MISO: 0xFF
0.033528625000000,SPI,MOSI: 0xD4;  MISO: 0xFF
0.033538125000000,SPI,MOSI: 0x00;  MISO: 0xFF
0.033546125000000,SPI,MOSI: 0x00;  MISO: 0xFF
0.033575750000000,SPI,MOSI: 0x2A;  MISO: 0xFF
0.033583750000000,SPI,MOSI: 0xD4;  MISO: 0xFF
0.033593250000000,SPI,MOSI: 0x00;  MISO: 0xFF
0.033601250000000,SPI,MOSI: 0x00;  MISO: 0xFF
0.033632708333333,SPI,MOSI: 0x49;  MISO: 0xFF
0.033640708333333,SPI,MOSI: 0x91;  MISO: 0xFF
0.033650208333333,SPI,MOSI: 0xBF;  MISO: 0xFF
0.033658208333333,SPI,MOSI: 0x00;  MISO: 0xFF
0.033667708333333,SPI,MOSI: 0x00;  MISO: 0xFF
0.033675708333333,SPI,MOSI: 0x00;  MISO: 0xFF
0.033685208333333,SPI,MOSI: 0x00;  MISO: 0xFF
0.033693208333333,SPI,MOSI: 0x00;  MISO: 0xFF
0.033702708333333,SPI,MOSI: 0x00;  MISO: 0xFF
0.033710708333333,SPI,MOSI: 0x00;  MISO: 0xFF
0.033720208333333,SPI,MOSI: 0x00;  MISO: 0xFF
0.033728250000000,SPI,MOSI: 0x00;  MISO: 0xFF
0.033737708333333,SPI,MOSI: 0x00;  MISO: 0xFF
0.033745750000000,SPI,MOSI: 0x00;  MISO: 0xFF
0.033755250000000,SPI,MOSI: 0x00;  MISO: 0xFF
0.033763250000000,SPI,MOSI: 0x00;  MISO: 0xFF
0.033772750000000,SPI,MOSI: 0x00;  MISO: 0xFF
0.033780708333333,SPI,MOSI: 0x00;  MISO: 0xFF
0.033790250000000,SPI,MOSI: 0x00;  MISO: 0xFF
0.033798250000000,SPI,MOSI: 0x00;  MISO: 0xFF
0.033807750000000,SPI,MOSI: 0x00;  MISO: 0xFF
0.033815750000000,SPI,MOSI: 0x00;  MISO: 0xFF
0.033825208333333,SPI,MOSI: 0x00;  MISO: 0xFF
0.033833250000000,SPI,MOSI: 0x00;  MISO: 0xFF
0.033842750000000,SPI,MOSI: 0x00;  MISO: 0xFF
0.033850750000000,SPI,MOSI: 0x00;  MISO: 0xFF
0.033860250000000,SPI,MOSI: 0x00;  MISO: 0xFF
0.033868250000000,SPI,MOSI: 0x00;  MISO: 0xFF
0.033877750000000,SPI,MOSI: 0x00;  MISO: 0xFF
0.033885708333333,SPI,MOSI: 0x00;  MISO: 0xFF
0.033895250000000,SPI,MOSI: 0x00;  MISO: 0xFF
0.033903250000000,SPI,MOSI: 0x00;  MISO: 0xFF
0.033912750000000,SPI,MOSI: 0x00;  MISO: 0xFF
0.033920750000000,SPI,MOSI: 0x00;  MISO: 0xFF
0.033930208333333,SPI,MOSI: 0x00;  MISO: 0xFF
0.033938250000000,SPI,MOSI: 0x00;  MISO: 0xFF
0.033947750000000,SPI,MOSI: 0x00;  MISO: 0xFF
0.033955750000000,SPI,MOSI: 0x00;  MISO: 0xFF
0.033965250000000,SPI,MOSI: 0x00;  MISO: 0xFF
0.033973208333333,SPI,MOSI: 0x00;  MISO: 0xFF
0.033982750000000,SPI,MOSI: 0x00;  MISO: 0xFF
0.033990750000000,SPI,MOSI: 0x00;  MISO: 0xFF
0.034000250000000,SPI,MOSI: 0x00;  MISO: 0xFF
0.034008250000000,SPI,MOSI: 0x00;  MISO: 0xFF
0.034017750000000,SPI,MOSI: 0x00;  MISO: 0xFF
0.034025750000000,SPI,MOSI: 0x00;  MISO: 0xFF
0.034035250000000,SPI,MOSI: 0x00;  MISO: 0xFF
0.034043250000000,SPI,MOSI: 0x00;  MISO: 0xFF
0.034052708333333,SPI,MOSI: 0x00;  MISO: 0xFF
0.034060750000000,SPI,MOSI: 0x00;  MISO: 0xFF
0.034070250000000,SPI,MOSI: 0x00;  MISO: 0xFF
0.034078250000000,SPI,MOSI: 0x00;  MISO: 0xFF
0.034087750000000,SPI,MOSI: 0x00;  MISO: 0xFF
0.034095750000000,SPI,MOSI: 0x00;  MISO: 0xFF
0.034105250000000,SPI,MOSI: 0x00;  MISO: 0xFF
0.034113250000000,SPI,MOSI: 0x00;  MISO: 0xFF
0.034122750000000,SPI,MOSI: 0x00;  MISO: 0xFF
0.034130750000000,SPI,MOSI: 0x00;  MISO: 0xFF
0.034166083333333,SPI,MOSI: 0x4A;  MISO: 0xFF
0.034174083333333,SPI,MOSI: 0x91;  MISO: 0xFF
0.034183583333333,SPI,MOSI: 0xAB;  MISO: 0xFF
0.034191583333333,SPI,MOSI: 0x00;  MISO: 0x91
0.034201083333333,SPI,MOSI: 0x00;  MISO: 0x01
0.034209083333333,SPI,MOSI: 0x00;  MISO: 0xA0
0.034218583333333,SPI,MOSI: 0x00;  MISO: 0xFB
0.034226583333333,SPI,MOSI: 0x00;  MISO: 0x9F
0.034236083333333,SPI,MOSI: 0x00;  MISO: 0xF0
0.034244083333333,SPI,MOSI: 0x00;  MISO: 0x9F
0.034253583333333,SPI,MOSI: 0x00;  MISO: 0x84
0.034261583333333,SPI,MOSI: 0x00;  MISO: 0x4B
0.034271083333333,SPI,MOSI: 0x00;  MISO: 0x91
0.034279083333333,SPI,MOSI: 0x00;  MISO: 0x8F
0.034288583333333,SPI,MOSI: 0x00;  MISO: 0x9F
0.034296583333333,SPI,MOSI: 0x00;  MISO: 0xEA
0.034306083333333,SPI,MOSI: 0x00;  MISO: 0x9F
0.034314083333333,SPI,MOSI: 0x00;  MISO: 0xF1
0.034323583333333,SPI,MOSI: 0x00;  MISO: 0x9F
0.034331583333333,SPI,MOSI: 0x00;  MISO: 0x88
0.034341083333333,SPI,MOSI: 0x00;  MISO: 0x54
0.034349083333333,SPI,MOSI: 0x00;  MISO: 0xFF
0.034358583333333,SPI,MOSI: 0x00;  MISO: 0xFF
0.034366583333333,SPI,MOSI: 0x00;  MISO: 0xFF
0.034376083333333,SPI,MOSI: 0x00;  MISO: 0xFF
0.034384083333333,SPI,MOSI: 0x00;  MISO: 0xFF
0.034393583333333,SPI,MOSI: 0x00;  MISO: 0xFF
0.034401583333333,SPI,MOSI: 0x00;  MISO: 0xFF
0.034411083333333,SPI,MOSI: 0x00;  MISO: 0xFF
0.034419083333333,SPI,MOSI: 0x00;  MISO: 0xFF
0.034428583333333,SPI,MOSI: 0x00;  MISO: 0xFF
0.034436583333333,SPI,MOSI: 0x00;  MISO: 0xFF
0.034446083333333,SPI,MOSI: 0x00;  MISO: 0xFF
0.034454083333333,SPI,MOSI: 0x00;  MISO: 0xFF
0.034463583333333,SPI,MOSI: 0x00;  MISO: 0xFF
0.034471583333333,SPI,MOSI: 0x00;  MISO: 0xFF
0.034481083333333,SPI,MOSI: 0x00;  MISO: 0xFF
0.034489083333333,SPI,MOSI: 0x00;  MISO: 0xFF
0.034498583333333,SPI,MOSI: 0x00;  MISO: 0xFF
0.034506583333333,SPI,MOSI: 0x00;  MISO: 0xFF
0.034516083333333,SPI,MOSI: 0x00;  MISO: 0xFF
0.034524083333333,SPI,MOSI: 0x00;  MISO: 0xFF
0.034533583333333,SPI,MOSI: 0x00;  MISO: 0xFF
0.034541583333333,SPI,MOSI: 0x00;  MISO: 0xFF
0.034551083333333,SPI,MOSI: 0x00;  MISO: 0xFF
0.034559083333333,SPI,MOSI: 0x00;  MISO: 0xFF
0.034568583333333,SPI,MOSI: 0x00;  MISO: 0xFF
0.034576583333333,SPI,MOSI: 0x00;  MISO: 0xFF
0.034586083333333,SPI,MOSI: 0x00;  MISO: 0xFF
0.034594083333333,SPI,MOSI: 0x00;  MISO: 0xFF
0.034603583333333,SPI,MOSI: 0x00;  MISO: 0xFF
0.034611583333333,SPI,MOSI: 0x00;  MISO: 0xFF
0.034621083333333,SPI,MOSI: 0x00;  MISO: 0xFF
0.034629083333333,SPI,MOSI: 0x00;  MISO: 0xFF
0.034638583333333,SPI,MOSI: 0x00;  MISO: 0xFF
0.034646583333333,SPI,MOSI: 0x00;  MISO: 0xFF
0.034656083333333,SPI,MOSI: 0x00;  MISO: 0xFF
0.034664083333333,SPI,MOSI: 0x00;  MISO: 0xFF
0.034673583333333,SPI,MOSI: 0x00;  MISO: 0xFF
0.034681583333333,SPI,MOSI: 0x00;  MISO: 0xFF
0.034691083333333,SPI,MOSI: 0x00;  MISO: 0xFF
0.034699083333333,SPI,MOSI: 0x00;  MISO: 0xFF
0.034708583333333,SPI,MOSI: 0x00;  MISO: 0xFF
0.034716583333333,SPI,MOSI: 0x00;  MISO: 0xFF
0.034726083333333,SPI,MOSI: 0x00;  MISO: 0xFF
0.034734083333333,SPI,MOSI: 0x00;  MISO: 0xFF
0.034743583333333,SPI,MOSI: 0x00;  MISO: 0xFF
0.034751583333333,SPI,MOSI: 0x00;  MISO: 0xFF
0.034761083333333,SPI,MOSI: 0x00;  MISO: 0xFF
0.034769083333333,SPI,MOSI: 0x00;  MISO: 0xFF
0.034778583333333,SPI,MOSI: 0x00;  MISO: 0xFF
0.034786583333333,SPI,MOSI: 0x00;  MISO: 0xFF
0.034796083333333,SPI,MOSI: 0x00;  MISO: 0xFF
0.034804083333333,SPI,MOSI: 0x00;  MISO: 0xFF
0.034813583333333,SPI,MOSI: 0x00;  MISO: 0xFF
0.034821583333333,SPI,MOSI: 0x00;  MISO: 0xFF
0.035038041666667,SPI,MOSI: 0x2A;  MISO: 0xFF
0.035046041666667,SPI,MOSI: 0xD4;  MISO: 0xFF
0.035055541666667,SPI,MOSI: 0x00;  MISO: 0xFF
0.035063541666667,SPI,MOSI: 0x00;  MISO: 0xFF
0.035139375000000,SPI,MOSI: 0x2A;  MISO: 0xFF
0.035147375000000,SPI,MOSI: 0xD4;  MISO: 0xFF
0.035156875000000,SPI,MOSI: 0x00;  MISO: 0xFF
0.035164875000000,SPI,MOSI: 0x00;  MISO: 0xFF
0.035203125000000,SPI,MOSI: 0x2A;  MISO: 0xFF
0.035211125000000,SPI,MOSI: 0xD4;  MISO: 0xFF
0.035220625000000,SPI,MOSI: 0x00;  MISO: 0xFF
0.035228625000000,SPI,MOSI: 0x00;  MISO: 0xFF
0.035258541666667,SPI,MOSI: 0x2A;  MISO: 0xFF
0.035266541666667,SPI,MOSI: 0xD4;  MISO: 0xFF
0.035276041666667,SPI,MOSI: 0x00;  MISO: 0xFF
0.035284041666667,SPI,MOSI: 0x00;  MISO: 0xFF
0.035313625000000,SPI,MOSI: 0x2A;  MISO: 0xFF
0.035321625000000,SPI,MOSI: 0xD4;  MISO: 0xFF
0.035331125000000,SPI,MOSI: 0x00;  MISO: 0xFF
0.035339125000000,SPI,MOSI: 0x00;  MISO: 0xFF
0.035368625000000,SPI,MOSI: 0x2A;  MISO: 0xFF
0.035376625000000,SPI,MOSI: 0xD4;  MISO: 0xFF
0.035386125000000,SPI,MOSI: 0x00;  MISO: 0xFF
0.035394125000000,SPI,MOSI: 0x00;  MISO: 0xFF
0.035423625000000,SPI,MOSI: 0x2A;  MISO: 0xFF
0.035431625000000,SPI,MOSI: 0xD4;  MISO: 0xFF
0.035441125000000,SPI,MOSI: 0x00;  MISO: 0xFF
0.035449125000000,SPI,MOSI: 0x00;  MISO: 0xFF
0.035480625000000,SPI,MOSI: 0x4A;  MISO: 0xFF
0.035488625000000,SPI,MOSI: 0x91;  MISO: 0xFF
0.035498125000000,SPI,MOSI: 0xAB;  MISO: 0xFF
0.035506125000000,SPI,MOSI: 0x00;  MISO: 0xFF
0.035515625000000,SPI,MOSI: 0x00;  MISO: 0xFF
0.035523625000000,SPI,MOSI: 0x00;  MISO: 0xFF
0.035533125000000,SPI,MOSI: 0x00;  MISO: 0xFF
0.035541125000000,SPI,MOSI: 0x00;  MISO: 0xFF
0.035550625000000,SPI,MOSI: 0x00;  MISO: 0xFF
0.035558625000000,SPI,MOSI: 0x00;  MISO: 0xFF
0.035568125000000,SPI,MOSI: 0x00;  MISO: 0xFF
0.035576125000000,SPI,MOSI: 0x00;  MISO: 0xFF
0.035585625000000,SPI,MOSI: 0x00;  MISO: 0xFF
0.035593625000000,SPI,MOSI: 0x00;  MISO: 0xFF
0.035603125000000,SPI,MOSI: 0x00;  MISO: 0xFF
0.035611125000000,SPI,MOSI: 0x00;  MISO: 0xFF
0.035620625000000,SPI,MOSI: 0x00;  MISO: 0xFF
0.035628625000000,SPI,MOSI: 0x00;  MISO: 0xFF
0.035638125000000,SPI,MOSI: 0x00;  MISO: 0xFF
0.035646125000000,SPI,MOSI: 0x00;  MISO: 0xFF
0.035655625000000,SPI,MOSI: 0x00;  MISO: 0xFF
0.035663625000000,SPI,MOSI: 0x00;  MISO: 0xFF
0.035673125000000,SPI,MOSI: 0x00;  MISO: 0xFF
0.035681125000000,SPI,MOSI: 0x00;  MISO: 0xFF
0.035690625000000,SPI,MOSI: 0x00;  MISO: 0xFF
0.035698666666667,SPI,MOSI: 0x00;  MISO: 0xFF
0.035708125000000,SPI,MOSI: 0x00;  MISO: 0xFF
0.035716166666667,SPI,MOSI: 0x00;  MISO: 0xFF
0.035725625000000,SPI,MOSI: 0x00;  MISO: 0xFF
0.035733666666667,SPI,MOSI: 0x00;  MISO: 0xFF
0.035743166666667,SPI,MOSI: 0x00;  MISO: 0xFF
0.035751125000000,SPI,MOSI: 0x00;  MISO: 0xFF
0.035760666666667,SPI,MOSI: 0x00;  MISO: 0xFF
0.035768625000000,SPI,MOSI: 0x00;  MISO: 0xFF
0.035778166666667,SPI,MOSI: 0x00;  MISO: 0xFF
0.035786166666667,SPI,MOSI: 0x00;  MISO: 0xFF
0.035795625000000,SPI,MOSI: 0x00;  MISO: 0xFF
0.035803666666667,SPI,MOSI: 0x00;  MISO: 0xFF
0.035813125000000,SPI,MOSI: 0x00;  MISO: 0xFF
0.035821166666667,SPI,MOSI: 0x00;  MISO: 0xFF
0.035830666666667,SPI,MOSI: 0x00;  MISO: 0xFF
0.035838666666667,SPI,MOSI: 0x00;  MISO: 0xFF
0.035848166666667,SPI,MOSI: 0x00;  MISO: 0xFF
0.035856166666667,SPI,MOSI: 0x00;  MISO: 0xFF
0.035865666666667,SPI,MOSI: 0x00;  MISO: 0xFF
0.035873625000000,SPI,MOSI: 0x00;  MISO: 0xFF
0.035883166666667,SPI,MOSI: 0x00;  MISO: 0xFF
0.035891166666667,SPI,MOSI: 0x00;  MISO: 0xFF
0.035900666666667,SPI,MOSI: 0x00;  MISO: 0xFF
0.035908666666667,SPI,MOSI: 0x00;  MISO: 0xFF
0.035918125000000,SPI,MOSI: 0x00;  MISO: 0xFF
0.035926166666667,SPI,MOSI: 0x00;  MISO: 0xFF
0.035935666666667,SPI,MOSI: 0x00;  MISO: 0xFF
0.035943666666667,SPI,MOSI: 0x00;  MISO: 0xFF
0.035953166666667,SPI,MOSI: 0x00;  MISO: 0xFF
0.035961166666667,SPI,MOSI: 0x00;  MISO: 0xFF
0.035970666666667,SPI,MOSI: 0x00;  MISO: 0xFF
0.035978666666667,SPI,MOSI: 0x00;  MISO: 0xFF
0.036032208333333,SPI,MOSI: 0x4B;  MISO: 0xFF
0.036040208333333,SPI,MOSI: 0x91;  MISO: 0xFF
0.036049708333333,SPI,MOSI: 0x42;  MISO: 0xFF
0.036057708333333,SPI,MOSI: 0x00;  MISO: 0x91
0.036067208333333,SPI,MOSI: 0x00;  MISO: 0xAC
0.036075208333333,SPI,MOSI: 0x00;  MISO: 0x9E
0.036084708333333,SPI,MOSI: 0x00;  MISO: 0x00
0.036092708333333,SPI,MOSI: 0x00;  MISO: 0x00
0.036102250000000,SPI,MOSI: 0x00;  MISO: 0x03
0.036110208333333,SPI,MOSI: 0x00;  MISO: 0x00
0.036119708333333,SPI,MOSI: 0x00;  MISO: 0x94
0.036127750000000,SPI,MOSI: 0x00;  MISO: 0x22
0.036137208333333,SPI,MOSI: 0x00;  MISO: 0x91
0.036145250000000,SPI,MOSI: 0x00;  MISO: 0x00
0.036154708333333,SPI,MOSI: 0x00;  MISO: 0x00
0.036162750000000,SPI,MOSI: 0x00;  MISO: 0x02
0.036172208333333,SPI,MOSI: 0x00;  MISO: 0x00
0.036180250000000,SPI,MOSI: 0x00;  MISO: 0x03
0.036189708333333,SPI,MOSI: 0x00;  MISO: 0x00
0.036197750000000,SPI,MOSI: 0x00;  MISO: 0xA4
0.036207208333333,SPI,MOSI: 0x00;  MISO: 0x79
0.036215250000000,SPI,MOSI: 0x00;  MISO: 0xFF
0.036224708333333,SPI,MOSI: 0x00;  MISO: 0xFF
0.036232750000000,SPI,MOSI: 0x00;  MISO: 0xFF
0.036242250000000,SPI,MOSI: 0x00;  MISO: 0xFF
0.036250250000000,SPI,MOSI: 0x00;  MISO: 0xFF
0.036259750000000,SPI,MOSI: 0x00;  MISO: 0xFF
0.036267750000000,SPI,MOSI: 0x00;  MISO: 0xFF
0.036277250000000,SPI,MOSI: 0x00;  MISO: 0xFF
0.036285250000000,SPI,MOSI: 0x00;  MISO: 0xFF
0.036294750000000,SPI,MOSI: 0x00;  MISO: 0xFF
0.036302750000000,SPI,MOSI: 0x00;  MISO: 0xFF
0.036312250000000,SPI,MOSI: 0x00;  MISO: 0xFF
0.036320250000000,SPI,MOSI: 0x00;  MISO: 0xFF
0.036329750000000,SPI,MOSI: 0x00;  MISO: 0xFF
0.036337750000000,SPI,MOSI: 0x00;  MISO: 0xFF
0.036347250000000,SPI,MOSI: 0x00;  MISO: 0xFF
0.036355250000000,SPI,MOSI: 0x00;  MISO: 0xFF
0.036364750000000,SPI,MOSI: 0x00;  MISO: 0xFF
0.036372750000000,SPI,MOSI: 0x00;  MISO: 0xFF
0.036382250000000,SPI,MOSI: 0x00;  MISO: 0xFF
0.036390250000000,SPI,MOSI: 0x00;  MISO: 0xFF
0.036399750000000,SPI,MOSI: 0x00;  MISO: 0xFF
0.036407750000000,SPI,MOSI: 0x00;  MISO: 0xFF
0.036417250000000,SPI,MOSI: 0x00;  MISO: 0xFF
0.036425250000000,SPI,MOSI: 0x00;  MISO: 0xFF
0.036434750000000,SPI,MOSI: 0x00;  MISO: 0xFF
0.036442750000000,SPI,MOSI: 0x00;  MISO: 0xFF
0.036452250000000,SPI,MOSI: 0x00;  MISO: 0xFF
0.036460250000000,SPI,MOSI: 0x00;  MISO: 0xFF
0.036469750000000,SPI,MOSI: 0x00;  MISO: 0xFF
0.036477750000000,SPI,MOSI: 0x00;  MISO: 0xFF
0.036487250000000,SPI,MOSI: 0x00;  MISO: 0xFF
0.036495250000000,SPI,MOSI: 0x00;  MISO: 0xFF
0.036504750000000,SPI,MOSI: 0x00;  MISO: 0xFF
0.036512750000000,SPI,MOSI: 0x00;  MISO: 0xFF
0.036522250000000,SPI,MOSI: 0x00;  MISO: 0xFF
0.036530250000000,SPI,MOSI: 0x00;  MISO: 0xFF
0.036539750000000,SPI,MOSI: 0x00;  MISO: 0xFF
0.036547750000000,SPI,MOSI: 0x00;  MISO: 0xFF
0.036557250000000,SPI,MOSI: 0x00;  MISO: 0xFF
0.036565250000000,SPI,MOSI: 0x00;  MISO: 0xFF
0.036574750000000,SPI,MOSI: 0x00;  MISO: 0xFF
0.036582750000000,SPI,MOSI: 0x00;  MISO: 0xFF
0.036592250000000,SPI,MOSI: 0x00;  MISO: 0xFF
0.036600250000000,SPI,MOSI: 0x00;  MISO: 0xFF
0.036609750000000,SPI,MOSI: 0x00;  MISO: 0xFF
0.036617750000000,SPI,MOSI: 0x00;  MISO: 0xFF
0.036627250000000,SPI,MOSI: 0x00;  MISO: 0xFF
0.036635250000000,SPI,MOSI: 0x00;  MISO: 0xFF
0.036644750000000,SPI,MOSI: 0x00;  MISO: 0xFF
0.036652750000000,SPI,MOSI: 0x00;  MISO: 0xFF
0.036662250000000,SPI,MOSI: 0x00;  MISO: 0xFF
0.036670250000000,SPI,MOSI: 0x00;  MISO: 0xFF
0.036679750000000,SPI,MOSI: 0x00;  MISO: 0xFF
0.036687750000000,SPI,MOSI: 0x00;  MISO: 0xFF
0.036728500000000,SPI,MOSI: 0x2A;  MISO: 0xFF
0.036736500000000,SPI,MOSI: 0xD4;  MISO: 0xFF
0.036746000000000,SPI,MOSI: 0x00;  MISO: 0xFF
0.036754000000000,SPI,MOSI: 0x00;  MISO: 0xFF
0.037016208333333,SPI,MOSI: 0x2A;  MISO: 0xFF
0.037024208333333,SPI,MOSI: 0xD4;  MISO: 0xFF
0.037033708333333,SPI,MOSI: 0x00;  MISO: 0xFF
0.037041708333333,SPI,MOSI: 0x00;  MISO: 0xFF
0.037105958333333,SPI,MOSI: 0x2A;  MISO: 0xFF
0.037113958333333,SPI,MOSI: 0xD4;  MISO: 0xFF
0.037123458333333,SPI,MOSI: 0x00;  MISO: 0xFF
0.037131458333333,SPI,MOSI: 0x00;  MISO: 0xFF
0.037161291666667,SPI,MOSI: 0x2A;  MISO: 0xFF
0.037169291666667,SPI,MOSI: 0xD4;  MISO: 0xFF
0.037178791666667,SPI,MOSI: 0x00;  MISO: 0xFF
0.037186791666667,SPI,MOSI: 0x00;  MISO: 0xFF
0.037216375000000,SPI,MOSI: 0x2A;  MISO: 0xFF
0.037224375000000,SPI,MOSI: 0xD4;  MISO: 0xFF
0.037233875000000,SPI,MOSI: 0x00;  MISO: 0xFF
0.037241875000000,SPI,MOSI: 0x00;  MISO: 0xFF
0.037271500000000,SPI,MOSI: 0x2A;  MISO: 0xFF
0.037279500000000,SPI,MOSI: 0xD4;  MISO: 0xFF
0.037288958333333,SPI,MOSI: 0x00;  MISO: 0xFF
0.037296958333333,SPI,MOSI: 0x00;  MISO: 0xFF
0.037326500000000,SPI,MOSI: 0x2A;  MISO: 0xFF
0.037334500000000,SPI,MOSI: 0xD4;  MISO: 0xFF
0.037344000000000,SPI,MOSI: 0x00;  MISO: 0xFF
0.037352000000000,SPI,MOSI: 0x00;  MISO: 0xFF
0.037383666666667,SPI,MOSI: 0x4B;  MISO: 0xFF
0.037391666666667,SPI,MOSI: 0x91;  MISO: 0xFF
0.037401166666667,SPI,MOSI: 0x42;  MISO: 0xFF
0.037409166666667,SPI,MOSI: 0x00;  MISO: 0xFF
0.037418666666667,SPI,MOSI: 0x00;  MISO: 0xFF
0.037426666666667,SPI,MOSI: 0x00;  MISO: 0xFF
0.037436166666667,SPI,MOSI: 0x00;  MISO: 0xFF
0.037444166666667,SPI,MOSI: 0x00;  MISO: 0xFF
0.037453666666667,SPI,MOSI: 0x00;  MISO: 0xFF
0.037461666666667,SPI,MOSI: 0x00;  MISO: 0xFF
0.037471166666667,SPI,MOSI: 0x00;  MISO: 0xFF
0.037479166666667,SPI,MOSI: 0x00;  MISO: 0xFF
0.037488666666667,SPI,MOSI: 0x00;  MISO: 0xFF
0.037496666666667,SPI,MOSI: 0x00;  MISO: 0xFF
0.037506166666667,SPI,MOSI: 0x00;  MISO: 0xFF
0.037514166666667,SPI,MOSI: 0x00;  MISO: 0xFF
0.037523666666667,SPI,MOSI: 0x00;  MISO: 0xFF
0.037531666666667,SPI,MOSI: 0x00;  MISO: 0xFF
0.037541166666667,SPI,MOSI: 0x00;  MISO: 0xFF
0.037549166666667,SPI,MOSI: 0x00;  MISO: 0xFF
0.037558666666667,SPI,MOSI: 0x00;  MISO: 0xFF
0.037566666666667,SPI,MOSI: 0x00;  MISO: 0xFF
0.037576166666667,SPI,MOSI: 0x00;  MISO: 0xFF
0.037584166666667,SPI,MOSI: 0x00;  MISO: 0xFF
0.037593666666667,SPI,MOSI: 0x00;  MISO: 0xFF
0.037601666666667,SPI,MOSI: 0x00;  MISO: 0xFF
0.037611166666667,SPI,MOSI: 0x00;  MISO: 0xFF
0.037619166666667,SPI,MOSI: 0x00;  MISO: 0xFF
0.037628666666667,SPI,MOSI: 0x00;  MISO: 0xFF
0.037636666666667,SPI,MOSI: 0x00;  MISO: 0xFF
0.037646166666667,SPI,MOSI: 0x00;  MISO: 0xFF
0.037654166666667,SPI,MOSI: 0x00;  MISO: 0xFF
0.037663666666667,SPI,MOSI: 0x00;  MISO: 0xFF
0.037671666666667,SPI,MOSI: 0x00;  MISO: 0xFF
0.037681166666667,SPI,MOSI: 0x00;  MISO: 0xFF
0.037689166666667,SPI,MOSI: 0x00;  MISO: 0xFF
0.037698666666667,SPI,MOSI: 0x00;  MISO: 0xFF
0.037706666666667,SPI,MOSI: 0x00;  MISO: 0xFF
0.037716166666667,SPI,MOSI: 0x00;  MISO: 0xFF
0.037724166666667,SPI,MOSI: 0x00;  MISO: 0xFF
0.037733666666667,SPI,MOSI: 0x00;  MISO: 0xFF
0.037741666666667,SPI,MOSI: 0x00;  MISO: 0xFF
0.037751166666667,SPI,MOSI: 0x00;  MISO: 0xFF
0.037759166666667,SPI,MOSI: 0x00;  MISO: 0xFF
0.037768666666667,SPI,MOSI: 0x00;  MISO: 0xFF
0.037776666666667,SPI,MOSI: 0x00;  MISO: 0xFF
0.037786166666667,SPI,MOSI: 0x00;  MISO: 0xFF
0.037794166666667,SPI,MOSI: 0x00;  MISO: 0xFF
0.037803666666667,SPI,MOSI: 0x00;  MISO: 0xFF
0.037811666666667,SPI,MOSI: 0x00;  MISO: 0xFF
0.037821166666667,SPI,MOSI: 0x00;  MISO: 0xFF
0.037829166666667,SPI,MOSI: 0x00;  MISO: 0xFF
0.037838666666667,SPI,MOSI: 0x00;  MISO: 0xFF
0.037846666666667,SPI,MOSI: 0x00;  MISO: 0xFF
0.037856166666667,SPI,MOSI: 0x00;  MISO: 0xFF
0.037864166666667,SPI,MOSI: 0x00;  MISO: 0xFF
0.037873666666667,SPI,MOSI: 0x00;  MISO: 0xFF
0.037881666666667,SPI,MOSI: 0x00;  MISO: 0xFF
0.038015041666667,SPI,MOSI: 0x4C;  MISO: 0xFF
0.038023041666667,SPI,MOSI: 0x91;  MISO: 0xFF
0.038032541666667,SPI,MOSI: 0x83;  MISO: 0xFF
0.038040541666667,SPI,MOSI: 0x00;  MISO: 0x91
0.038050041666667,SPI,MOSI: 0x00;  MISO: 0x02
0.038058041666667,SPI,MOSI: 0x00;  MISO: 0x00
0.038067541666667,SPI,MOSI: 0x00;  MISO: 0x93
0.038075541666667,SPI,MOSI: 0x00;  MISO: 0x81
0.038085041666667,SPI,MOSI: 0x00;  MISO: 0x9B
0.038093041666667,SPI,MOSI: 0x00;  MISO: 0x8E
0.038102541666667,SPI,MOSI: 0x00;  MISO: 0x91
0.038110541666667,SPI,MOSI: 0x00;  MISO: 0x02
0.038120041666667,SPI,MOSI: 0x00;  MISO: 0x00
0.038128041666667,SPI,MOSI: 0x00;  MISO: 0xC7
0.038137541666667,SPI,MOSI: 0x00;  MISO: 0x77
0.038145541666667,SPI,MOSI: 0x00;  MISO: 0x9B
0.038155041666667,SPI,MOSI: 0x00;  MISO: 0xB3
0.038163041666667,SPI,MOSI: 0x00;  MISO: 0xFF
0.038172541666667,SPI,MOSI: 0x00;  MISO: 0xFF
0.038180541666667,SPI,MOSI: 0x00;  MISO: 0xFF
0.038190041666667,SPI,MOSI: 0x00;  MISO: 0xFF
0.038198041666667,SPI,MOSI: 0x00;  MISO: 0xFF
0.038207541666667,SPI,MOSI: 0x00;  MISO: 0xFF
0.038215541666667,SPI,MOSI: 0x00;  MISO: 0xFF
0.038225041666667,SPI,MOSI: 0x00;  MISO: 0xFF
0.038233041666667,SPI,MOSI: 0x00;  MISO: 0xFF
0.038242541666667,SPI,MOSI: 0x00;  MISO: 0xFF
0.038250541666667,SPI,MOSI: 0x00;  MISO: 0xFF
0.038260041666667,SPI,MOSI: 0x00;  MISO: 0xFF
0.038268041666667,SPI,MOSI: 0x00;  MISO: 0xFF
0.038277541666667,SPI,MOSI: 0x00;  MISO: 0xFF
0.038285541666667,SPI,MOSI: 0x00;  MISO: 0xFF
0.038295041666667,SPI,MOSI: 0x00;  MISO: 0xFF
0.038303041666667,SPI,MOSI: 0x00;  MISO: 0xFF
0.038312541666667,SPI,MOSI: 0x00;  MISO: 0xFF
0.038320541666667,SPI,MOSI: 0x00;  MISO: 0xFF
0.038330041666667,SPI,MOSI: 0x00;  MISO: 0xFF
0.038338041666667,SPI,MOSI: 0x00;  MISO: 0xFF
0.038347541666667,SPI,MOSI: 0x00;  MISO: 0xFF
0.038355541666667,SPI,MOSI: 0x00;  MISO: 0xFF
0.038365041666667,SPI,MOSI: 0x00;  MISO: 0xFF
0.038373041666667,SPI,MOSI: 0x00;  MISO: 0xFF
0.038382541666667,SPI,MOSI: 0x00;  MISO: 0xFF
0.038390541666667,SPI,MOSI: 0x00;  MISO: 0xFF
0.038400041666667,SPI,MOSI: 0x00;  MISO: 0xFF
0.038408041666667,SPI,MOSI: 0x00;  MISO: 0xFF
0.038417541666667,SPI,MOSI: 0x00;  MISO: 0xFF
0.038425541666667,SPI,MOSI: 0x00;  MISO: 0xFF
0.038435041666667,SPI,MOSI: 0x00;  MISO: 0xFF
0.038443041666667,SPI,MOSI: 0x00;  MISO: 0xFF
0.038452541666667,SPI,MOSI: 0x00;  MISO: 0xFF
0.038460541666667,SPI,MOSI: 0x00;  MISO: 0xFF
0.038470041666667,SPI,MOSI: 0x00;  MISO: 0xFF
0.038478041666667,SPI,MOSI: 0x00;  MISO: 0xFF
0.038487541666667,SPI,MOSI: 0x00;  MISO: 0xFF
0.038495541666667,SPI,MOSI: 0x00;  MISO: 0xFF
0.038505041666667,SPI,MOSI: 0x00;  MISO: 0xFF
0.038513041666667,SPI,MOSI: 0x00;  MISO: 0xFF
0.038522541666667,SPI,MOSI: 0x00;  MISO: 0xFF
0.038530541666667,SPI,MOSI: 0x00;  MISO: 0xFF
0.038570458333333,SPI,MOSI: 0x2A;  MISO: 0xFF
0.038578458333333,SPI,MOSI: 0xD4;  MISO: 0xFF
0.038587958333333,SPI,MOSI: 0x00;  MISO: 0xFF
0.038595958333333,SPI,MOSI: 0x00;  MISO: 0xFF
0.038626333333333,SPI,MOSI: 0x2A;  MISO: 0xFF
0.038634333333333,SPI,MOSI: 0xD4;  MISO: 0xFF
0.038643833333333,SPI,MOSI: 0x00;  MISO: 0xFF
0.038651833333333,SPI,MOSI: 0x00;  MISO: 0xFF
0.038681583333333,SPI,MOSI: 0x2A;  MISO: 0xFF
0.038689583333333,SPI,MOSI: 0xD4;  MISO: 0xFF
0.038699083333333,SPI,MOSI: 0x00;  MISO: 0xFF
0.038707083333333,SPI,MOSI: 0x00;  MISO: 0xFF
0.038736750000000,SPI,MOSI: 0x2A;  MISO: 0xFF
0.038744750000000,SPI,MOSI: 0xD4;  MISO: 0xFF
0.038754250000000,SPI,MOSI: 0x00;  MISO: 0xFF
0.038762250000000,SPI,MOSI: 0x00;  MISO: 0xFF
0.039418416666667,SPI,MOSI: 0x2A;  MISO: 0xFF
0.039426416666667,SPI,MOSI: 0xD4;  MISO: 0xFF
0.039435916666667,SPI,MOSI: 0x00;  MISO: 0xFF
0.039443916666667,SPI,MOSI: 0x00;  MISO: 0xFF
0.039497833333333,SPI,MOSI: 0x2A;  MISO: 0xFF
0.039505833333333,SPI,MOSI: 0xD4;  MISO: 0xFF
0.039515333333333,SPI,MOSI: 0x00;  MISO: 0xFF
0.039523333333333,SPI,MOSI: 0x00;  MISO: 0xFF
0.039553208333333,SPI,MOSI: 0x2A;  MISO: 0xFF
0.039561208333333,SPI,MOSI: 0xD4;  MISO: 0xFF
0.039570708333333,SPI,MOSI: 0x00;  MISO: 0xFF
0.039578708333333,SPI,MOSI: 0x00;  MISO: 0xFF
0.039610375000000,SPI,MOSI: 0x4C;  MISO: 0xFF
0.039618375000000,SPI,MOSI: 0x91;  MISO: 0xFF
0.039627875000000,SPI,MOSI: 0x83;  MISO: 0xFF
0.039635875000000,SPI,MOSI: 0x00;  MISO: 0xFF
0.039645375000000,SPI,MOSI: 0x00;  MISO: 0xFF
0.039653375000000,SPI,MOSI: 0x00;  MISO: 0xFF
0.039662875000000,SPI,MOSI: 0x00;  MISO: 0xFF
0.039670875000000,SPI,MOSI: 0x00;  MISO: 0xFF
0.039680375000000,SPI,MOSI: 0x00;  MISO: 0xFF
0.039688375000000,SPI,MOSI: 0x00;  MISO: 0xFF
0.039697875000000,SPI,MOSI: 0x00;  MISO: 0xFF
0.039705875000000,SPI,MOSI: 0x00;  MISO: 0xFF
0.039715375000000,SPI,MOSI: 0x00;  MISO: 0xFF
0.039723375000000,SPI,MOSI: 0x00;  MISO: 0xFF
0.039732875000000,SPI,MOSI: 0x00;  MISO: 0xFF
0.039740875000000,SPI,MOSI: 0x00;  MISO: 0xFF
0.039750375000000,SPI,MOSI: 0x00;  MISO: 0xFF
0.039758375000000,SPI,MOSI: 0x00;  MISO: 0xFF
0.039767875000000,SPI,MOSI: 0x00;  MISO: 0xFF
0.039775875000000,SPI,MOSI: 0x00;  MISO: 0xFF
0.039785375000000,SPI,MOSI: 0x00;  MISO: 0xFF
0.039793375000000,SPI,MOSI: 0x00;  MISO: 0xFF
0.039802875000000,SPI,MOSI: 0x00;  MISO: 0xFF
0.039810875000000,SPI,MOSI: 0x00;  MISO: 0xFF
0.039820375000000,SPI,MOSI: 0x00;  MISO: 0xFF
0.039828375000000,SPI,MOSI: 0x00;  MISO: 0xFF
0.039837875000000,SPI,MOSI: 0x00;  MISO: 0xFF
0.039845875000000,SPI,MOSI: 0x00;  MISO: 0xFF
0.039855375000000,SPI,MOSI: 0x00;  MISO: 0xFF
0.039863375000000,SPI,MOSI: 0x00;  MISO: 0xFF
0.039872875000000,SPI,MOSI: 0x00;  MISO: 0xFF
0.039880875000000,SPI,MOSI: 0x00;  MISO: 0xFF
0.039890375000000,SPI,MOSI: 0x00;  MISO: 0xFF
0.039898375000000,SPI,MOSI: 0x00;  MISO: 0xFF
0.039907875000000,SPI,MOSI: 0x00;  MISO: 0xFF
0.039915875000000,SPI,MOSI: 0x00;  MISO: 0xFF
0.039925375000000,SPI,MOSI: 0x00;  MISO: 0xFF
0.039933375000000,SPI,MOSI: 0x00;  MISO: 0xFF
0.039942875000000,SPI,MOSI: 0x00;  MISO: 0xFF
0.039950875000000,SPI,MOSI: 0x00;  MISO: 0xFF
0.039960375000000,SPI,MOSI: 0x00;  MISO: 0xFF
0.039968375000000,SPI,MOSI: 0x00;  MISO: 0xFF
0.039977875000000,SPI,MOSI: 0x00;  MISO: 0xFF
0.039985875000000,SPI,MOSI: 0x00;  MISO: 0xFF
0.039995375000000,SPI,MOSI: 0x00;  MISO: 0xFF
0.040003375000000,SPI,MOSI: 0x00;  MISO: 0xFF
0.040053500000000,SPI,MOSI: 0x14;  MISO: 0xFF
0.040061500000000,SPI,MOSI: 0xBC;  MISO: 0xFF
0.040071000000000,SPI,MOSI: 0xFF;  MISO: 0xFF
0.040079000000000,SPI,MOSI: 0xFF;  MISO: 0xFF
0.040088500000000,SPI,MOSI: 0xFF;  MISO: 0xFF
0.040096500000000,SPI,MOSI: 0xFF;  MISO: 0xFF
0.040106000000000,SPI,MOSI: 0x00;  MISO: 0xFF
0.040114000000000,SPI,MOSI: 0xFF;  MISO: 0xFF
0.040123500000000,SPI,MOSI: 0xFF;  MISO: 0xFF
0.040131500000000,SPI,MOSI: 0xFF;  MISO: 0xFF
0.040141000000000,SPI,MOSI: 0xFF;  MISO: 0xFF
0.040149000000000,SPI,MOSI: 0xFF;  MISO: 0xFF
0.040158500000000,SPI,MOSI: 0x00;  MISO: 0xFF
0.040166500000000,SPI,MOSI: 0xFF;  MISO: 0xFF
0.040176000000000,SPI,MOSI: 0xFF;  MISO: 0xFF
