Time [s], Analyzer Name, Decoded Protocol Result
0.025149583333333,SPI,MOSI: 0x2A;  MISO: 0xFF
0.025157583333333,SPI,MOSI: 0xD4;  MISO: 0xFF
0.025167083333333,SPI,MOSI: 0x00;  MISO: 0xFF
0.025175083333333,SPI,MOSI: 0x00;  MISO: 0xFF
0.025206541666667,SPI,MOSI: 0x2A;  MISO: 0xFF
0.025214541666667,SPI,MOSI: 0xD4;  MISO: 0xFF
0.025224041666667,SPI,MOSI: 0x00;  MISO: 0x3F
0.025232041666667,SPI,MOSI: 0x00;  MISO: 0xFF
0.025261791666667,SPI,MOSI: 0x2A;  MISO: 0xFF
0.025269791666667,SPI,MOSI: 0xD4;  MISO: 0xFF
0.025279291666667,SPI,MOSI: 0x00;  MISO: 0x0F
0.025287291666667,SPI,MOSI: 0x00;  MISO: 0xFF
0.025354666666667,SPI,MOSI: 0x2A;  MISO: 0xFF
0.025362666666667,SPI,MOSI: 0xD4;  MISO: 0xFF
0.025372166666667,SPI,MOSI: 0x00;  MISO: 0x0F
0.025380166666667,SPI,MOSI: 0x00;  MISO: 0xFF
0.025628875000000,SPI,MOSI: 0x2A;  MISO: 0xFF
0.025636833333333,SPI,MOSI: 0xD4;  MISO: 0xFF
0.025646375000000,SPI,MOSI: 0x00;  MISO: 0x0F
0.025654375000000,SPI,MOSI: 0x00;  MISO: 0xFF
0.025685166666667,SPI,MOSI: 0x2A;  MISO: 0xFF
0.025693166666667,SPI,MOSI: 0xD4;  MISO: 0xFF
0.025702666666667,SPI,MOSI: 0x00;  MISO: 0x0F
0.025710666666667,SPI,MOSI: 0x00;  MISO: 0xFF
0.025752166666667,SPI,MOSI: 0x2A;  MISO: 0xFF
0.025760208333333,SPI,MOSI: 0xD4;  MISO: 0xFF
0.025769666666667,SPI,MOSI: 0x00;  MISO: 0x0F
0.025777708333333,SPI,MOSI: 0x00;  MISO: 0xFF
0.025808125000000,SPI,MOSI: 0x2A;  MISO: 0xFF
0.025816125000000,SPI,MOSI: 0xD4;  MISO: 0xFF
0.025825625000000,SPI,MOSI: 0x00;  MISO: 0x0F
0.025833625000000,SPI,MOSI: 0x00;  MISO: 0xFF
0.025863666666667,SPI,MOSI: 0x2A;  MISO: 0xFF
0.025871666666667,SPI,MOSI: 0xD4;  MISO: 0xFF
0.025881166666667,SPI,MOSI: 0x00;  MISO: 0x0F
0.025889166666667,SPI,MOSI: 0x00;  MISO: 0xFF
0.025920791666667,SPI,MOSI: 0x2A;  MISO: 0xFF
0.025928791666667,SPI,MOSI: 0xD4;  MISO: 0xFF
0.025938291666667,SPI,MOSI: 0x00;  MISO: 0xFF
0.025946291666667,SPI,MOSI: 0x00;  MISO: 0xFF
0.025987333333333,SPI,MOSI: 0x2A;  MISO: 0xFF
0.025995333333333,SPI,MOSI: 0xD4;  MISO: 0xFF
0.026004833333333,SPI,MOSI: 0x00;  MISO: 0xFF
0.026012833333333,SPI,MOSI: 0x00;  MISO: 0xFF
0.026042958333333,SPI,MOSI: 0x2A;  MISO: 0xFF
0.026050958333333,SPI,MOSI: 0xD4;  MISO: 0xFF
0.026060458333333,SPI,MOSI: 0x00;  MISO: 0xFF
0.026068458333333,SPI,MOSI: 0x00;  MISO: 0xFF
0.026098250000000,SPI,MOSI: 0x2A;  MISO: 0xFF
0.026106250000000,SPI,MOSI: 0xD4;  MISO: 0xFF
0.026115750000000,SPI,MOSI: 0x00;  MISO: 0xFF
0.026123750000000,SPI,MOSI: 0x00;  MISO: 0xFF
0.026153583333333,SPI,MOSI: 0x2A;  MISO: 0xFF
0.026161583333333,SPI,MOSI: 0xD4;  MISO: 0xFF
0.026171083333333,SPI,MOSI: 0x00;  MISO: 0xFF
0.026179083333333,SPI,MOSI: 0x00;  MISO: 0xFF
0.026208958333333,SPI,MOSI: 0x2A;  MISO: 0xFF
0.026216958333333,SPI,MOSI: 0xD4;  MISO: 0xFF
0.026226458333333,SPI,MOSI: 0x00;  MISO: 0xFF
0.026234458333333,SPI,MOSI: 0x00;  MISO: 0xFF
0.026264208333333,SPI,MOSI: 0x2A;  MISO: 0xFF
0.026272208333333,SPI,MOSI: 0xD4;  MISO: 0xFF
0.026281708333333,SPI,MOSI: 0x00;  MISO: 0xFF
0.026289708333333,SPI,MOSI: 0x00;  MISO: 0xFF
0.026319458333333,SPI,MOSI: 0x2A;  MISO: 0xFF
0.026327458333333,SPI,MOSI: 0xD4;  MISO: 0xFF
0.026336958333333,SPI,MOSI: 0x00;  MISO: 0xFF
0.026344958333333,SPI,MOSI: 0x00;  MISO: 0xFF
0.026374833333333,SPI,MOSI: 0x2A;  MISO: 0xFF
0.026382833333333,SPI,MOSI: 0xD4;  MISO: 0xFF
0.026392333333333,SPI,MOSI: 0x00;  MISO: 0xFF
0.026400333333333,SPI,MOSI: 0x00;  MISO: 0xFF
0.026664125000000,SPI,MOSI: 0x21;  MISO: 0xFF
0.026672125000000,SPI,MOSI: 0xF2;  MISO: 0xFF
0.026702916666667,SPI,MOSI: 0x21;  MISO: 0xFF
0.026710916666667,SPI,MOSI: 0xF2;  MISO: 0xFF
0.026743416666667,SPI,MOSI: 0x4D;  MISO: 0xFF
0.026751416666667,SPI,MOSI: 0xC0;  MISO: 0xFF
0.026760916666667,SPI,MOSI: 0x0D;  MISO: 0xFF
0.026768916666667,SPI,MOSI: 0x00;  MISO: 0xFF
0.026778416666667,SPI,MOSI: 0x00;  MISO: 0xFF
0.026786416666667,SPI,MOSI: 0x00;  MISO: 0xFF
0.026795916666667,SPI,MOSI: 0x00;  MISO: 0xFF
0.026803916666667,SPI,MOSI: 0x00;  MISO: 0xFF
0.026813416666667,SPI,MOSI: 0x00;  MISO: 0xFF
0.026821416666667,SPI,MOSI: 0x00;  MISO: 0xFF
0.026830916666667,SPI,MOSI: 0x00;  MISO: 0xFF
0.026838916666667,SPI,MOSI: 0x00;  MISO: 0xFF
0.026848416666667,SPI,MOSI: 0x00;  MISO: 0xFF
0.026856416666667,SPI,MOSI: 0x00;  MISO: 0xFF
0.026865916666667,SPI,MOSI: 0x00;  MISO: 0xFF
0.026873916666667,SPI,MOSI: 0x00;  MISO: 0xFF
0.026883416666667,SPI,MOSI: 0x00;  MISO: 0xFF
0.026891416666667,SPI,MOSI: 0x00;  MISO: 0xFF
0.026900916666667,SPI,MOSI: 0x00;  MISO: 0xFF
0.026908916666667,SPI,MOSI: 0x00;  MISO: 0xFF
0.026918416666667,SPI,MOSI: 0x00;  MISO: 0xFF
0.026926416666667,SPI,MOSI: 0x00;  MISO: 0xFF
0.026935916666667,SPI,MOSI: 0x00;  MISO: 0xFF
0.026943916666667,SPI,MOSI: 0x00;  MISO: 0xFF
0.026953416666667,SPI,MOSI: 0x00;  MISO: 0xFF
0.026961416666667,SPI,MOSI: 0x00;  MISO: 0xFF
0.026970916666667,SPI,MOSI: 0x00;  MISO: 0xFF
0.026978916666667,SPI,MOSI: 0x00;  MISO: 0xFF
0.026988416666667,SPI,MOSI: 0x00;  MISO: 0xFF
0.026996416666667,SPI,MOSI: 0x00;  MISO: 0xFF
0.027005916666667,SPI,MOSI: 0x00;  MISO: 0xFF
0.027013916666667,SPI,MOSI: 0x00;  MISO: 0xFF
0.027023416666667,SPI,MOSI: 0x00;  MISO: 0xFF
0.027031416666667,SPI,MOSI: 0x00;  MISO: 0xFF
0.027040916666667,SPI,MOSI: 0x00;  MISO: 0xFF
0.027048916666667,SPI,MOSI: 0x00;  MISO: 0xFF
0.027058416666667,SPI,MOSI: 0x00;  MISO: 0xFF
0.027066416666667,SPI,MOSI: 0x00;  MISO: 0xFF
0.027075916666667,SPI,MOSI: 0x00;  MISO: 0xFF
0.027083916666667,SPI,MOSI: 0x00;  MISO: 0xFF
0.027093416666667,SPI,MOSI: 0x00;  MISO: 0xFF
0.027101416666667,SPI,MOSI: 0x00;  MISO: 0xFF
0.027110916666667,SPI,MOSI: 0x00;  MISO: 0xFF
0.027118916666667,SPI,MOSI: 0x00;  MISO: 0xFF
0.027128416666667,SPI,MOSI: 0x00;  MISO: 0xFF
0.027136416666667,SPI,MOSI: 0x00;  MISO: 0xFF
0.027145916666667,SPI,MOSI: 0x00;  MISO: 0xFF
0.027153916666667,SPI,MOSI: 0x00;  MISO: 0xFF
0.027163416666667,SPI,MOSI: 0x00;  MISO: 0xFF
0.027171416666667,SPI,MOSI: 0x00;  MISO: 0xFF
0.027180916666667,SPI,MOSI: 0x00;  MISO: 0xFF
0.027188916666667,SPI,MOSI: 0x00;  MISO: 0xFF
0.027198416666667,SPI,MOSI: 0x00;  MISO: 0xFF
0.027206416666667,SPI,MOSI: 0x00;  MISO: 0xFF
0.027215916666667,SPI,MOSI: 0x00;  MISO: 0xFF
0.027223916666667,SPI,MOSI: 0x00;  MISO: 0xFF
0.027233416666667,SPI,MOSI: 0x00;  MISO: 0xFF
0.027241416666667,SPI,MOSI: 0x00;  MISO: 0xFF
0.027250916666667,SPI,MOSI: 0x00;  MISO: 0xFF
0.027258916666667,SPI,MOSI: 0x00;  MISO: 0xFF
0.027268416666667,SPI,MOSI: 0x00;  MISO: 0xFF
0.027276416666667,SPI,MOSI: 0x00;  MISO: 0xFF
0.027285916666667,SPI,MOSI: 0x00;  MISO: 0xFF
0.027293916666667,SPI,MOSI: 0x00;  MISO: 0xFF
0.027303416666667,SPI,MOSI: 0x00;  MISO: 0xFF
0.027311416666667,SPI,MOSI: 0x00;  MISO: 0xFF
0.027320916666667,SPI,MOSI: 0x00;  MISO: 0xFF
0.027328916666667,SPI,MOSI: 0x00;  MISO: 0xFF
0.027338416666667,SPI,MOSI: 0x00;  MISO: 0xFF
0.027346416666667,SPI,MOSI: 0x00;  MISO: 0xFF
0.027355916666667,SPI,MOSI: 0x00;  MISO: 0xFF
0.027363916666667,SPI,MOSI: 0x00;  MISO: 0xFF
0.027373416666667,SPI,MOSI: 0x00;  MISO: 0xFF
0.027381416666667,SPI,MOSI: 0x00;  MISO: 0xFF
0.027390916666667,SPI,MOSI: 0x00;  MISO: 0xFF
0.027398916666667,SPI,MOSI: 0x00;  MISO: 0xFF
0.027651041666667,SPI,MOSI: 0x2A;  MISO: 0xFF
0.027659041666667,SPI,MOSI: 0xD4;  MISO: 0xFF
0.027668541666667,SPI,MOSI: 0x00;  MISO: 0x0F
0.027676541666667,SPI,MOSI: 0x00;  MISO: 0xFF
0.027707750000000,SPI,MOSI: 0x2A;  MISO: 0xFF
0.027715750000000,SPI,MOSI: 0xD4;  MISO: 0xFF
0.027725208333333,SPI,MOSI: 0x00;  MISO: 0x0F
0.027733250000000,SPI,MOSI: 0x00;  MISO: 0xFF
0.027763458333333,SPI,MOSI: 0x2A;  MISO: 0xFF
0.027771458333333,SPI,MOSI: 0xD4;  MISO: 0xFF
0.027780958333333,SPI,MOSI: 0x00;  MISO: 0x0F
0.027788958333333,SPI,MOSI: 0x00;  MISO: 0xFF
0.027847375000000,SPI,MOSI: 0x2A;  MISO: 0xFF
0.027855375000000,SPI,MOSI: 0xD4;  MISO: 0xFF
0.027864875000000,SPI,MOSI: 0x00;  MISO: 0x0F
0.027872875000000,SPI,MOSI: 0x00;  MISO: 0xFF
0.027903500000000,SPI,MOSI: 0x2A;  MISO: 0xFF
0.027911500000000,SPI,MOSI: 0xD4;  MISO: 0xFF
0.027921000000000,SPI,MOSI: 0x00;  MISO: 0x0F
0.027929000000000,SPI,MOSI: 0x00;  MISO: 0xFF
0.027959208333333,SPI,MOSI: 0x2A;  MISO: 0xFF
0.027967208333333,SPI,MOSI: 0xD4;  MISO: 0xFF
0.027976708333333,SPI,MOSI: 0x00;  MISO: 0x0F
0.027984708333333,SPI,MOSI: 0x00;  MISO: 0xFF
0.028014750000000,SPI,MOSI: 0x2A;  MISO: 0xFF
0.028022750000000,SPI,MOSI: 0xD4;  MISO: 0xFF
0.028032250000000,SPI,MOSI: 0x00;  MISO: 0x0F
0.028040250000000,SPI,MOSI: 0x00;  MISO: 0xFF
0.028070250000000,SPI,MOSI: 0x2A;  MISO: 0xFF
0.028078250000000,SPI,MOSI: 0xD4;  MISO: 0xFF
0.028087750000000,SPI,MOSI: 0x00;  MISO: 0x0F
0.028095750000000,SPI,MOSI: 0x00;  MISO: 0xFF
0.028126000000000,SPI,MOSI: 0x2A;  MISO: 0xFF
0.028134000000000,SPI,MOSI: 0xD4;  MISO: 0xFF
0.028143500000000,SPI,MOSI: 0x00;  MISO: 0x0F
0.028151500000000,SPI,MOSI: 0x00;  MISO: 0xFF
0.028185250000000,SPI,MOSI: 0x4D;  MISO: 0xFF
0.028193250000000,SPI,MOSI: 0xC0;  MISO: 0xFF
0.028202750000000,SPI,MOSI: 0x0D;  MISO: 0xFF
0.028210750000000,SPI,MOSI: 0x00;  MISO: 0xC0
0.028220250000000,SPI,MOSI: 0x00;  MISO: 0xD9
0.028228250000000,SPI,MOSI: 0x00;  MISO: 0x15
0.028237750000000,SPI,MOSI: 0x00;  MISO: 0x77
0.028245750000000,SPI,MOSI: 0x00;  MISO: 0xF7
0.028255250000000,SPI,MOSI: 0x00;  MISO: 0x9B
0.028263250000000,SPI,MOSI: 0x00;  MISO: 0x14
0.028272750000000,SPI,MOSI: 0x00;  MISO: 0x0A
0.028280750000000,SPI,MOSI: 0x00;  MISO: 0x86
0.028290250000000,SPI,MOSI: 0x00;  MISO: 0xC0
0.028298250000000,SPI,MOSI: 0x00;  MISO: 0x94
0.028307750000000,SPI,MOSI: 0x00;  MISO: 0x14
0.028315750000000,SPI,MOSI: 0x00;  MISO: 0x73
0.028325250000000,SPI,MOSI: 0x00;  MISO: 0xF4
0.028333250000000,SPI,MOSI: 0x00;  MISO: 0xE4
0.028342750000000,SPI,MOSI: 0x00;  MISO: 0x14
0.028350750000000,SPI,MOSI: 0x00;  MISO: 0x01
0.028360250000000,SPI,MOSI: 0x00;  MISO: 0x4E
0.028368250000000,SPI,MOSI: 0x00;  MISO: 0xFF
0.028377750000000,SPI,MOSI: 0x00;  MISO: 0xFF
0.028385750000000,SPI,MOSI: 0x00;  MISO: 0xFF
0.028395250000000,SPI,MOSI: 0x00;  MISO: 0xFF
0.028403250000000,SPI,MOSI: 0x00;  MISO: 0xFF
0.028412750000000,SPI,MOSI: 0x00;  MISO: 0xFF
0.028420750000000,SPI,MOSI: 0x00;  MISO: 0xFF
0.028430250000000,SPI,MOSI: 0x00;  MISO: 0xFF
0.028438250000000,SPI,MOSI: 0x00;  MISO: 0xFF
0.028447750000000,SPI,MOSI: 0x00;  MISO: 0xFF
0.028455750000000,SPI,MOSI: 0x00;  MISO: 0xFF
0.028465250000000,SPI,MOSI: 0x00;  MISO: 0xFF
0.028473250000000,SPI,MOSI: 0x00;  MISO: 0xFF
0.028482750000000,SPI,MOSI: 0x00;  MISO: 0xFF
0.028490750000000,SPI,MOSI: 0x00;  MISO: 0xFF
0.028500250000000,SPI,MOSI: 0x00;  MISO: 0xFF
0.028508250000000,SPI,MOSI: 0x00;  MISO: 0xFF
0.028517750000000,SPI,MOSI: 0x00;  MISO: 0xFF
0.028525750000000,SPI,MOSI: 0x00;  MISO: 0xFF
0.028535250000000,SPI,MOSI: 0x00;  MISO: 0xFF
0.028543250000000,SPI,MOSI: 0x00;  MISO: 0xFF
0.028552750000000,SPI,MOSI: 0x00;  MISO: 0xFF
0.028560750000000,SPI,MOSI: 0x00;  MISO: 0xFF
0.028570250000000,SPI,MOSI: 0x00;  MISO: 0xFF
0.028578250000000,SPI,MOSI: 0x00;  MISO: 0xFF
0.028587750000000,SPI,MOSI: 0x00;  MISO: 0xFF
0.028595750000000,SPI,MOSI: 0x00;  MISO: 0xFF
0.028605250000000,SPI,MOSI: 0x00;  MISO: 0xFF
0.028613250000000,SPI,MOSI: 0x00;  MISO: 0xFF
0.028622750000000,SPI,MOSI: 0x00;  MISO: 0xFF
0.028630750000000,SPI,MOSI: 0x00;  MISO: 0xFF
0.028640250000000,SPI,MOSI: 0x00;  MISO: 0xFF
0.028648250000000,SPI,MOSI: 0x00;  MISO: 0xFF
0.028657750000000,SPI,MOSI: 0x00;  MISO: 0xFF
0.028665750000000,SPI,MOSI: 0x00;  MISO: 0xFF
0.028675250000000,SPI,MOSI: 0x00;  MISO: 0xFF
0.028683250000000,SPI,MOSI: 0x00;  MISO: 0xFF
0.028692750000000,SPI,MOSI: 0x00;  MISO: 0xFF
0.028700750000000,SPI,MOSI: 0x00;  MISO: 0xFF
0.028710250000000,SPI,MOSI: 0x00;  MISO: 0xFF
0.028718250000000,SPI,MOSI: 0x00;  MISO: 0xFF
0.028727750000000,SPI,MOSI: 0x00;  MISO: 0xFF
0.028735750000000,SPI,MOSI: 0x00;  MISO: 0xFF
0.028745250000000,SPI,MOSI: 0x00;  MISO: 0xFF
0.028753250000000,SPI,MOSI: 0x00;  MISO: 0xFF
0.028762750000000,SPI,MOSI: 0x00;  MISO: 0xFF
0.028770750000000,SPI,MOSI: 0x00;  MISO: 0xFF
0.028780250000000,SPI,MOSI: 0x00;  MISO: 0xFF
0.028788250000000,SPI,MOSI: 0x00;  MISO: 0xFF
0.028797750000000,SPI,MOSI: 0x00;  MISO: 0xFF
0.028805750000000,SPI,MOSI: 0x00;  MISO: 0xFF
0.028815250000000,SPI,MOSI: 0x00;  MISO: 0xFF
0.028823250000000,SPI,MOSI: 0x00;  MISO: 0xFF
0.028832750000000,SPI,MOSI: 0x00;  MISO: 0xFF
0.028840750000000,SPI,MOSI: 0x00;  MISO: 0xFF
0.028911500000000,SPI,MOSI: 0x4E;  MISO: 0xFF
0.028919500000000,SPI,MOSI: 0xC0;  MISO: 0xFF
0.028929000000000,SPI,MOSI: 0x19;  MISO: 0xFF
0.028937000000000,SPI,MOSI: 0x00;  MISO: 0xFF
0.028946500000000,SPI,MOSI: 0x00;  MISO: 0xFF
0.028954500000000,SPI,MOSI: 0x00;  MISO: 0xFF
0.028964000000000,SPI,MOSI: 0x00;  MISO: 0xFF
0.028972000000000,SPI,MOSI: 0x00;  MISO: 0xFF
0.028981500000000,SPI,MOSI: 0x00;  MISO: 0xFF
0.028989500000000,SPI,MOSI: 0x00;  MISO: 0xFF
0.028999000000000,SPI,MOSI: 0x00;  MISO: 0xFF
0.029007000000000,SPI,MOSI: 0x00;  MISO: 0xFF
0.029016500000000,SPI,MOSI: 0x00;  MISO: 0xFF
0.029024500000000,SPI,MOSI: 0x00;  MISO: 0xFF
0.029034000000000,SPI,MOSI: 0x00;  MISO: 0xFF
0.029042000000000,SPI,MOSI: 0x00;  MISO: 0xFF
0.029051500000000,SPI,MOSI: 0x00;  MISO: 0xFF
0.029059500000000,SPI,MOSI: 0x00;  MISO: 0xFF
0.029069000000000,SPI,MOSI: 0x00;  MISO: 0xFF
0.029077000000000,SPI,MOSI: 0x00;  MISO: 0xFF
0.029086500000000,SPI,MOSI: 0x00;  MISO: 0xFF
0.029094500000000,SPI,MOSI: 0x00;  MISO: 0xFF
0.029104000000000,SPI,MOSI: 0x00;  MISO: 0xFF
0.029112000000000,SPI,MOSI: 0x00;  MISO: 0xFF
0.029121500000000,SPI,MOSI: 0x00;  MISO: 0xFF
0.029129500000000,SPI,MOSI: 0x00;  MISO: 0xFF
0.029139000000000,SPI,MOSI: 0x00;  MISO: 0xFF
0.029147000000000,SPI,MOSI: 0x00;  MISO: 0xFF
0.029156500000000,SPI,MOSI: 0x00;  MISO: 0xFF
0.029164500000000,SPI,MOSI: 0x00;  MISO: 0xFF
0.029174000000000,SPI,MOSI: 0x00;  MISO: 0xFF
0.029182000000000,SPI,MOSI: 0x00;  MISO: 0xFF
0.029191500000000,SPI,MOSI: 0x00;  MISO: 0xFF
0.029199500000000,SPI,MOSI: 0x00;  MISO: 0xFF
0.029209000000000,SPI,MOSI: 0x00;  MISO: 0xFF
0.029217000000000,SPI,MOSI: 0x00;  MISO: 0xFF
0.029226500000000,SPI,MOSI: 0x00;  MISO: 0xFF
0.029234500000000,SPI,MOSI: 0x00;  MISO: 0xFF
0.029244000000000,SPI,MOSI: 0x00;  MISO: 0xFF
0.029252000000000,SPI,MOSI: 0x00;  MISO: 0xFF
0.029261500000000,SPI,MOSI: 0x00;  MISO: 0xFF
0.029269500000000,SPI,MOSI: 0x00;  MISO: 0xFF
0.029279000000000,SPI,MOSI: 0x00;  MISO: 0xFF
0.029287000000000,SPI,MOSI: 0x00;  MISO: 0xFF
0.029296500000000,SPI,MOSI: 0x00;  MISO: 0xFF
0.029304500000000,SPI,MOSI: 0x00;  MISO: 0xFF
0.029314000000000,SPI,MOSI: 0x00;  MISO: 0xFF
0.029322000000000,SPI,MOSI: 0x00;  MISO: 0xFF
0.029331500000000,SPI,MOSI: 0x00;  MISO: 0xFF
0.029339500000000,SPI,MOSI: 0x00;  MISO: 0xFF
0.029349000000000,SPI,MOSI: 0x00;  MISO: 0xFF
0.029357000000000,SPI,MOSI: 0x00;  MISO: 0xFF
0.029366500000000,SPI,MOSI: 0x00;  MISO: 0xFF
0.029374500000000,SPI,MOSI: 0x00;  MISO: 0xFF
0.029384000000000,SPI,MOSI: 0x00;  MISO: 0xFF
0.029392000000000,SPI,MOSI: 0x00;  MISO: 0xFF
0.029401500000000,SPI,MOSI: 0x00;  MISO: 0xFF
0.029409500000000,SPI,MOSI: 0x00;  MISO: 0xFF
0.029419000000000,SPI,MOSI: 0x00;  MISO: 0xFF
0.029427000000000,SPI,MOSI: 0x00;  MISO: 0xFF
0.029436500000000,SPI,MOSI: 0x00;  MISO: 0xFF
0.029444500000000,SPI,MOSI: 0x00;  MISO: 0xFF
0.029454000000000,SPI,MOSI: 0x00;  MISO: 0xFF
0.029462000000000,SPI,MOSI: 0x00;  MISO: 0xFF
0.029471500000000,SPI,MOSI: 0x00;  MISO: 0xFF
0.029479500000000,SPI,MOSI: 0x00;  MISO: 0xFF
0.029489000000000,SPI,MOSI: 0x00;  MISO: 0xFF
0.029497000000000,SPI,MOSI: 0x00;  MISO: 0xFF
0.029506500000000,SPI,MOSI: 0x00;  MISO: 0xFF
0.029514500000000,SPI,MOSI: 0x00;  MISO: 0xFF
0.029524000000000,SPI,MOSI: 0x00;  MISO: 0xFF
0.029532000000000,SPI,MOSI: 0x00;  MISO: 0xFF
0.029541500000000,SPI,MOSI: 0x00;  MISO: 0xFF
0.029549500000000,SPI,MOSI: 0x00;  MISO: 0xFF
0.029559000000000,SPI,MOSI: 0x00;  MISO: 0xFF
0.029567000000000,SPI,MOSI: 0x00;  MISO: 0xFF
0.029632541666667,SPI,MOSI: 0x2A;  MISO: 0xFF
0.029640541666667,SPI,MOSI: 0xD4;  MISO: 0xFF
0.029650041666667,SPI,MOSI: 0x00;  MISO: 0x0F
0.029658041666667,SPI,MOSI: 0x00;  MISO: 0xFF
0.029716833333333,SPI,MOSI: 0x2A;  MISO: 0xFF
0.029724833333333,SPI,MOSI: 0xD4;  MISO: 0xFF
0.029734333333333,SPI,MOSI: 0x00;  MISO: 0x0F
0.029742333333333,SPI,MOSI: 0x00;  MISO: 0xFF
0.029772708333333,SPI,MOSI: 0x2A;  MISO: 0xFF
0.029780708333333,SPI,MOSI: 0xD4;  MISO: 0xFF
0.029790208333333,SPI,MOSI: 0x00;  MISO: 0x0F
0.029798208333333,SPI,MOSI: 0x00;  MISO: 0xFF
0.029827916666667,SPI,MOSI: 0x2A;  MISO: 0xFF
0.029835916666667,SPI,MOSI: 0xD4;  MISO: 0xFF
0.029845416666667,SPI,MOSI: 0x00;  MISO: 0x0F
0.029853416666667,SPI,MOSI: 0x00;  MISO: 0xFF
0.029883208333333,SPI,MOSI: 0x2A;  MISO: 0xFF
0.029891208333333,SPI,MOSI: 0xD4;  MISO: 0xFF
0.029900708333333,SPI,MOSI: 0x00;  MISO: 0x0F
0.029908708333333,SPI,MOSI: 0x00;  MISO: 0xFF
0.029969333333333,SPI,MOSI: 0x2A;  MISO: 0xFF
0.029977333333333,SPI,MOSI: 0xD4;  MISO: 0xFF
0.029986833333333,SPI,MOSI: 0x00;  MISO: 0x0F
0.029994833333333,SPI,MOSI: 0x00;  MISO: 0xFF
0.030024916666667,SPI,MOSI: 0x2A;  MISO: 0xFF
0.030032916666667,SPI,MOSI: 0xD4;  MISO: 0xFF
0.030042416666667,SPI,MOSI: 0x00;  MISO: 0x0F
0.030050416666667,SPI,MOSI: 0x00;  MISO: 0xFF
0.030080000000000,SPI,MOSI: 0x2A;  MISO: 0xFF
0.030088000000000,SPI,MOSI: 0xD4;  MISO: 0xFF
0.030097500000000,SPI,MOSI: 0x00;  MISO: 0x0F
0.030105500000000,SPI,MOSI: 0x00;  MISO: 0xFF
0.030135375000000,SPI,MOSI: 0x2A;  MISO: 0xFF
0.030143375000000,SPI,MOSI: 0xD4;  MISO: 0xFF
0.030152875000000,SPI,MOSI: 0x00;  MISO: 0x0F
0.030160875000000,SPI,MOSI: 0x00;  MISO: 0xFF
0.030192333333333,SPI,MOSI: 0x4E;  MISO: 0xFF
0.030200333333333,SPI,MOSI: 0xC0;  MISO: 0xFF
0.030209833333333,SPI,MOSI: 0x19;  MISO: 0xFF
0.030217833333333,SPI,MOSI: 0x00;  MISO: 0xC0
0.030227333333333,SPI,MOSI: 0x00;  MISO: 0x86
0.030235333333333,SPI,MOSI: 0x00;  MISO: 0x93
0.030244833333333,SPI,MOSI: 0x00;  MISO: 0x4C
0.030252833333333,SPI,MOSI: 0x00;  MISO: 0x05
0.030262333333333,SPI,MOSI: 0x00;  MISO: 0x7E
0.030270333333333,SPI,MOSI: 0x00;  MISO: 0xF5
0.030279833333333,SPI,MOSI: 0x00;  MISO: 0x24
0.030287833333333,SPI,MOSI: 0x00;  MISO: 0x64
0.030297333333333,SPI,MOSI: 0x00;  MISO: 0xC0
0.030305333333333,SPI,MOSI: 0x00;  MISO: 0x51
0.030314833333333,SPI,MOSI: 0x00;  MISO: 0x93
0.030322833333333,SPI,MOSI: 0x00;  MISO: 0x44
0.030332333333333,SPI,MOSI: 0x00;  MISO: 0x05
0.030340333333333,SPI,MOSI: 0x00;  MISO: 0x14
0.030349833333333,SPI,MOSI: 0x00;  MISO: 0xF3
0.030357833333333,SPI,MOSI: 0x00;  MISO: 0x27
0.030367333333333,SPI,MOSI: 0x00;  MISO: 0xE0
0.030375333333333,SPI,MOSI: 0x00;  MISO: 0xFF
0.030384833333333,SPI,MOSI: 0x00;  MISO: 0xFF
0.030392833333333,SPI,MOSI: 0x00;  MISO: 0xFF
0.030402333333333,SPI,MOSI: 0x00;  MISO: 0xFF
0.030410333333333,SPI,MOSI: 0x00;  MISO: 0xFF
0.030419833333333,SPI,MOSI: 0x00;  MISO: 0xFF
0.030427833333333,SPI,MOSI: 0x00;  MISO: 0xFF
0.030437333333333,SPI,MOSI: 0x00;  MISO: 0xFF
0.030445333333333,SPI,MOSI: 0x00;  MISO: 0xFF
0.030454833333333,SPI,MOSI: 0x00;  MISO: 0xFF
0.030462833333333,SPI,MOSI: 0x00;  MISO: 0xFF
0.030472333333333,SPI,MOSI: 0x00;  MISO: 0xFF
0.030480333333333,SPI,MOSI: 0x00;  MISO: 0xFF
0.030489833333333,SPI,MOSI: 0x00;  MISO: 0xFF
0.030497833333333,SPI,MOSI: 0x00;  MISO: 0xFF
0.030507333333333,SPI,MOSI: 0x00;  MISO: 0xFF
0.030515333333333,SPI,MOSI: 0x00;  MISO: 0xFF
0.030524833333333,SPI,MOSI: 0x00;  MISO: 0xFF
0.030532833333333,SPI,MOSI: 0x00;  MISO: 0xFF
0.030542333333333,SPI,MOSI: 0x00;  MISO: 0xFF
0.030550333333333,SPI,MOSI: 0x00;  MISO: 0xFF
0.030559833333333,SPI,MOSI: 0x00;  MISO: 0xFF
0.030567833333333,SPI,MOSI: 0x00;  MISO: 0xFF
0.030577333333333,SPI,MOSI: 0x00;  MISO: 0xFF
0.030585333333333,SPI,MOSI: 0x00;  MISO: 0xFF
0.030594833333333,SPI,MOSI: 0x00;  MISO: 0xFF
0.030602833333333,SPI,MOSI: 0x00;  MISO: 0xFF
0.030612333333333,SPI,MOSI: 0x00;  MISO: 0xFF
0.030620333333333,SPI,MOSI: 0x00;  MISO: 0xFF
0.030629833333333,SPI,MOSI: 0x00;  MISO: 0xFF
0.030637833333333,SPI,MOSI: 0x00;  MISO: 0xFF
0.030647333333333,SPI,MOSI: 0x00;  MISO: 0xFF
0.030655333333333,SPI,MOSI: 0x00;  MISO: 0xFF
0.030664833333333,SPI,MOSI: 0x00;  MISO: 0xFF
0.030672833333333,SPI,MOSI: 0x00;  MISO: 0xFF
0.030682333333333,SPI,MOSI: 0x00;  MISO: 0xFF
0.030690333333333,SPI,MOSI: 0x00;  MISO: 0xFF
0.030699833333333,SPI,MOSI: 0x00;  MISO: 0xFF
0.030707833333333,SPI,MOSI: 0x00;  MISO: 0xFF
0.030717333333333,SPI,MOSI: 0x00;  MISO: 0xFF
0.030725333333333,SPI,MOSI: 0x00;  MISO: 0xFF
0.030734833333333,SPI,MOSI: 0x00;  MISO: 0xFF
0.030742833333333,SPI,MOSI: 0x00;  MISO: 0xFF
0.030752333333333,SPI,MOSI: 0x00;  MISO: 0xFF
0.030760333333333,SPI,MOSI: 0x00;  MISO: 0xFF
0.030769833333333,SPI,MOSI: 0x00;  MISO: 0xFF
0.030777833333333,SPI,MOSI: 0x00;  MISO: 0xFF
0.030787333333333,SPI,MOSI: 0x00;  MISO: 0xFF
0.030795333333333,SPI,MOSI: 0x00;  MISO: 0xFF
0.030804833333333,SPI,MOSI: 0x00;  MISO: 0xFF
0.030812833333333,SPI,MOSI: 0x00;  MISO: 0xFF
0.030822333333333,SPI,MOSI: 0x00;  MISO: 0xFF
0.030830333333333,SPI,MOSI: 0x00;  MISO: 0xFF
0.030839833333333,SPI,MOSI: 0x00;  MISO: 0xFF
0.030847833333333,SPI,MOSI: 0x00;  MISO: 0xFF
0.030890833333333,SPI,MOSI: 0x50;  MISO: 0xFF
0.030898833333333,SPI,MOSI: 0xC0;  MISO: 0xFF
0.030908333333333,SPI,MOSI: 0x91;  MISO: 0xFF
0.030916333333333,SPI,MOSI: 0x00;  MISO: 0xFF
0.030925833333333,SPI,MOSI: 0x00;  MISO: 0xFF
0.030933833333333,SPI,MOSI: 0x00;  MISO: 0xFF
0.030943333333333,SPI,MOSI: 0x00;  MISO: 0xFF
0.030951333333333,SPI,MOSI: 0x00;  MISO: 0xFF
0.030960833333333,SPI,MOSI: 0x00;  MISO: 0xFF
0.030968833333333,SPI,MOSI: 0x00;  MISO: 0xFF
0.030978333333333,SPI,MOSI: 0x00;  MISO: 0xFF
0.030986333333333,SPI,MOSI: 0x00;  MISO: 0xFF
0.030995833333333,SPI,MOSI: 0x00;  MISO: 0xFF
0.031003833333333,SPI,MOSI: 0x00;  MISO: 0xFF
0.031013333333333,SPI,MOSI: 0x00;  MISO: 0xFF
0.031021333333333,SPI,MOSI: 0x00;  MISO: 0xFF
0.031030833333333,SPI,MOSI: 0x00;  MISO: 0xFF
0.031038833333333,SPI,MOSI: 0x00;  MISO: 0xFF
0.031048333333333,SPI,MOSI: 0x00;  MISO: 0xFF
0.031056333333333,SPI,MOSI: 0x00;  MISO: 0xFF
0.031065833333333,SPI,MOSI: 0x00;  MISO: 0xFF
0.031073833333333,SPI,MOSI: 0x00;  MISO: 0xFF
0.031083333333333,SPI,MOSI: 0x00;  MISO: 0xFF
0.031091333333333,SPI,MOSI: 0x00;  MISO: 0xFF
0.031100833333333,SPI,MOSI: 0x00;  MISO: 0xFF
0.031108833333333,SPI,MOSI: 0x00;  MISO: 0xFF
0.031118333333333,SPI,MOSI: 0x00;  MISO: 0xFF
0.031126333333333,SPI,MOSI: 0x00;  MISO: 0xFF
0.031135833333333,SPI,MOSI: 0x00;  MISO: 0xFF
0.031143833333333,SPI,MOSI: 0x00;  MISO: 0xFF
0.031153333333333,SPI,MOSI: 0x00;  MISO: 0xFF
0.031161333333333,SPI,MOSI: 0x00;  MISO: 0xFF
0.031170833333333,SPI,MOSI: 0x00;  MISO: 0xFF
0.031178833333333,SPI,MOSI: 0x00;  MISO: 0xFF
0.031188333333333,SPI,MOSI: 0x00;  MISO: 0xFF
0.031196333333333,SPI,MOSI: 0x00;  MISO: 0xFF
0.031205833333333,SPI,MOSI: 0x00;  MISO: 0xFF
0.031213833333333,SPI,MOSI: 0x00;  MISO: 0xFF
0.031223333333333,SPI,MOSI: 0x00;  MISO: 0xFF
0.031231333333333,SPI,MOSI: 0x00;  MISO: 0xFF
0.031240833333333,SPI,MOSI: 0x00;  MISO: 0xFF
0.031248833333333,SPI,MOSI: 0x00;  MISO: 0xFF
0.031258333333333,SPI,MOSI: 0x00;  MISO: 0xFF
0.031266333333333,SPI,MOSI: 0x00;  MISO: 0xFF
0.031275833333333,SPI,MOSI: 0x00;  MISO: 0xFF
0.031283833333333,SPI,MOSI: 0x00;  MISO: 0xFF
0.031293333333333,SPI,MOSI: 0x00;  MISO: 0xFF
0.031301333333333,SPI,MOSI: 0x00;  MISO: 0xFF
0.031310833333333,SPI,MOSI: 0x00;  MISO: 0xFF
0.031318833333333,SPI,MOSI: 0x00;  MISO: 0xFF
0.031328333333333,SPI,MOSI: 0x00;  MISO: 0xFF
0.031336333333333,SPI,MOSI: 0x00;  MISO: 0xFF
0.031345833333333,SPI,MOSI: 0x00;  MISO: 0xFF
0.031353833333333,SPI,MOSI: 0x00;  MISO: 0xFF
0.031363333333333,SPI,MOSI: 0x00;  MISO: 0xFF
0.031371333333333,SPI,MOSI: 0x00;  MISO: 0xFF
0.031380833333333,SPI,MOSI: 0x00;  MISO: 0xFF
0.031388833333333,SPI,MOSI: 0x00;  MISO: 0xFF
0.031398333333333,SPI,MOSI: 0x00;  MISO: 0xFF
0.031406333333333,SPI,MOSI: 0x00;  MISO: 0xFF
0.031637500000000,SPI,MOSI: 0x2A;  MISO: 0xFF
0.031645500000000,SPI,MOSI: 0xD4;  MISO: 0xFF
0.031655000000000,SPI,MOSI: 0x00;  MISO: 0x0F
0.031663000000000,SPI,MOSI: 0x00;  MISO: 0xFF
0.031694375000000,SPI,MOSI: 0x2A;  MISO: 0xFF
0.031702375000000,SPI,MOSI: 0xD4;  MISO: 0xFF
0.031711875000000,SPI,MOSI: 0x00;  MISO: 0x0F
0.031719875000000,SPI,MOSI: 0x00;  MISO: 0xFF
0.031749666666667,SPI,MOSI: 0x2A;  MISO: 0xFF
0.031757666666667,SPI,MOSI: 0xD4;  MISO: 0xFF
0.031767166666667,SPI,MOSI: 0x00;  MISO: 0x0F
0.031775166666667,SPI,MOSI: 0x00;  MISO: 0xFF
0.031836875000000,SPI,MOSI: 0x2A;  MISO: 0xFF
0.031844875000000,SPI,MOSI: 0xD4;  MISO: 0xFF
0.031854375000000,SPI,MOSI: 0x00;  MISO: 0x0F
0.031862375000000,SPI,MOSI: 0x00;  MISO: 0xFF
0.031894583333333,SPI,MOSI: 0x2A;  MISO: 0xFF
0.031902583333333,SPI,MOSI: 0xD4;  MISO: 0xFF
0.031912083333333,SPI,MOSI: 0x00;  MISO: 0x0F
0.031920083333333,SPI,MOSI: 0x00;  MISO: 0xFF
0.031949875000000,SPI,MOSI: 0x2A;  MISO: 0xFF
0.031957875000000,SPI,MOSI: 0xD4;  MISO: 0xFF
0.031967375000000,SPI,MOSI: 0x00;  MISO: 0x0F
0.031975375000000,SPI,MOSI: 0x00;  MISO: 0xFF
0.032005041666667,SPI,MOSI: 0x2A;  MISO: 0xFF
0.032013041666667,SPI,MOSI: 0xD4;  MISO: 0xFF
0.032022541666667,SPI,MOSI: 0x00;  MISO: 0x0F
0.032030541666667,SPI,MOSI: 0x00;  MISO: 0xFF
0.032060333333333,SPI,MOSI: 0x2A;  MISO: 0xFF
0.032068333333333,SPI,MOSI: 0xD4;  MISO: 0xFF
0.032077833333333,SPI,MOSI: 0x00;  MISO: 0x0F
0.032085833333333,SPI,MOSI: 0x00;  MISO: 0xFF
0.032115583333333,SPI,MOSI: 0x2A;  MISO: 0xFF
0.032123583333333,SPI,MOSI: 0xD4;  MISO: 0xFF
0.032133083333333,SPI,MOSI: 0x00;  MISO: 0x0F
0.032141083333333,SPI,MOSI: 0x00;  MISO: 0xFF
0.032172625000000,SPI,MOSI: 0x50;  MISO: 0xFF
0.032180625000000,SPI,MOSI: 0xC0;  MISO: 0xFF
0.032190125000000,SPI,MOSI: 0x91;  MISO: 0xFF
0.032198125000000,SPI,MOSI: 0x00;  MISO: 0xC0
0.032207625000000,SPI,MOSI: 0x00;  MISO: 0xF3
0.032215625000000,SPI,MOSI: 0x00;  MISO: 0x00
0.032225125000000,SPI,MOSI: 0x00;  MISO: 0x00
0.032233125000000,SPI,MOSI: 0x00;  MISO: 0x00
0.032242625000000,SPI,MOSI: 0x00;  MISO: 0x00
0.032250625000000,SPI,MOSI: 0x00;  MISO: 0xDF
0.032260125000000,SPI,MOSI: 0x00;  MISO: 0xC0
0.032268125000000,SPI,MOSI: 0x00;  MISO: 0xF3
0.032277625000000,SPI,MOSI: 0x00;  MISO: 0x00
0.032285625000000,SPI,MOSI: 0x00;  MISO: 0x00
0.032295125000000,SPI,MOSI: 0x00;  MISO: 0x00
0.032303125000000,SPI,MOSI: 0x00;  MISO: 0x00
0.032312625000000,SPI,MOSI: 0x00;  MISO: 0xDF
0.032320625000000,SPI,MOSI: 0x00;  MISO: 0xFF
0.032330125000000,SPI,MOSI: 0x00;  MISO: 0xFF
0.032338125000000,SPI,MOSI: 0x00;  MISO: 0xFF
0.032347625000000,SPI,MOSI: 0x00;  MISO: 0xFF
0.032355625000000,SPI,MOSI: 0x00;  MISO: 0xFF
0.032365125000000,SPI,MOSI: 0x00;  MISO: 0xFF
0.032373125000000,SPI,MOSI: 0x00;  MISO: 0xFF
0.032382625000000,SPI,MOSI: 0x00;  MISO: 0xFF
0.032390625000000,SPI,MOSI: 0x00;  MISO: 0xFF
0.032400125000000,SPI,MOSI: 0x00;  MISO: 0xFF
0.032408125000000,SPI,MOSI: 0x00;  MISO: 0xFF
0.032417625000000,SPI,MOSI: 0x00;  MISO: 0xFF
0.032425625000000,SPI,MOSI: 0x00;  MISO: 0xFF
0.032435125000000,SPI,MOSI: 0x00;  MISO: 0xFF
0.032443125000000,SPI,MOSI: 0x00;  MISO: 0xFF
0.032452625000000,SPI,MOSI: 0x00;  MISO: 0xFF
0.032460625000000,SPI,MOSI: 0x00;  MISO: 0xFF
0.032470125000000,SPI,MOSI: 0x00;  MISO: 0xFF
0.032478125000000,SPI,MOSI: 0x00;  MISO: 0xFF
0.032487625000000,SPI,MOSI: 0x00;  MISO: 0xFF
0.032495625000000,SPI,MOSI: 0x00;  MISO: 0xFF
0.032505125000000,SPI,MOSI: 0x00;  MISO: 0xFF
0.032513125000000,SPI,MOSI: 0x00;  MISO: 0xFF
0.032522625000000,SPI,MOSI: 0x00;  MISO: 0xFF
0.032530625000000,SPI,MOSI: 0x00;  MISO: 0xFF
0.032540125000000,SPI,MOSI: 0x00;  MISO: 0xFF
0.032548125000000,SPI,MOSI: 0x00;  MISO: 0xFF
0.032557625000000,SPI,MOSI: 0x00;  MISO: 0xFF
0.032565625000000,SPI,MOSI: 0x00;  MISO: 0xFF
0.032575125000000,SPI,MOSI: 0x00;  MISO: 0xFF
0.032583125000000,SPI,MOSI: 0x00;  MISO: 0xFF
0.032592625000000,SPI,MOSI: 0x00;  MISO: 0xFF
0.032600625000000,SPI,MOSI: 0x00;  MISO: 0xFF
0.032610125000000,SPI,MOSI: 0x00;  MISO: 0xFF
0.032618125000000,SPI,MOSI: 0x00;  MISO: 0xFF
0.032627625000000,SPI,MOSI: 0x00;  MISO: 0xFF
0.032635625000000,SPI,MOSI: 0x00;  MISO: 0xFF
0.032645125000000,SPI,MOSI: 0x00;  MISO: 0xFF
0.032653125000000,SPI,MOSI: 0x00;  MISO: 0xFF
0.032662625000000,SPI,MOSI: 0x00;  MISO: 0xFF
0.032670625000000,SPI,MOSI: 0x00;  MISO: 0xFF
0.032680125000000,SPI,MOSI: 0x00;  MISO: 0xFF
0.032688125000000,SPI,MOSI: 0x00;  MISO: 0xFF
0.032728958333333,SPI,MOSI: 0x2B;  MISO: 0xFF
0.032736958333333,SPI,MOSI: 0xFB;  MISO: 0xFF
0.032767250000000,SPI,MOSI: 0x2B;  MISO: 0xFF
0.032775250000000,SPI,MOSI: 0xFB;  MISO: 0xFF
0.032807708333333,SPI,MOSI: 0x4F;  MISO: 0xFF
0.032815708333333,SPI,MOSI: 0xC0;  MISO: 0xFF
0.032825208333333,SPI,MOSI: 0xF0;  MISO: 0xFF
0.032833208333333,SPI,MOSI: 0x00;  MISO: 0xFF
0.032842708333333,SPI,MOSI: 0x00;  MISO: 0xFF
0.032850708333333,SPI,MOSI: 0x00;  MISO: 0xFF
0.032860208333333,SPI,MOSI: 0x00;  MISO: 0xFF
0.032868166666667,SPI,MOSI: 0x00;  MISO: 0xFF
0.032877708333333,SPI,MOSI: 0x00;  MISO: 0xFF
0.032885666666667,SPI,MOSI: 0x00;  MISO: 0xFF
0.032895208333333,SPI,MOSI: 0x00;  MISO: 0xFF
0.032903166666667,SPI,MOSI: 0x00;  MISO: 0xFF
0.032912708333333,SPI,MOSI: 0x00;  MISO: 0xFF
0.032920666666667,SPI,MOSI: 0x00;  MISO: 0xFF
0.032930208333333,SPI,MOSI: 0x00;  MISO: 0xFF
0.032938166666667,SPI,MOSI: 0x00;  MISO: 0xFF
0.032947708333333,SPI,MOSI: 0x00;  MISO: 0xFF
0.032955708333333,SPI,MOSI: 0x00;  MISO: 0xFF
0.032965208333333,SPI,MOSI: 0x00;  MISO: 0xFF
0.032973208333333,SPI,MOSI: 0x00;  MISO: 0xFF
0.032982708333333,SPI,MOSI: 0x00;  MISO: 0xFF
0.032990708333333,SPI,MOSI: 0x00;  MISO: 0xFF
0.033000208333333,SPI,MOSI: 0x00;  MISO: 0xFF
0.033008208333333,SPI,MOSI: 0x00;  MISO: 0xFF
0.033017708333333,SPI,MOSI: 0x00;  MISO: 0xFF
0.033025708333333,SPI,MOSI: 0x00;  MISO: 0xFF
0.033035208333333,SPI,MOSI: 0x00;  MISO: 0xFF
0.033043208333333,SPI,MOSI: 0x00;  MISO: 0xFF
0.033052708333333,SPI,MOSI: 0x00;  MISO: 0xFF
0.033060708333333,SPI,MOSI: 0x00;  MISO: 0xFF
0.033070208333333,SPI,MOSI: 0x00;  MISO: 0xFF
0.033078208333333,SPI,MOSI: 0x00;  MISO: 0xFF
0.033087708333333,SPI,MOSI: 0x00;  MISO: 0xFF
0.033095708333333,SPI,MOSI: 0x00;  MISO: 0xFF
0.033105208333333,SPI,MOSI: 0x00;  MISO: 0xFF
0.033113208333333,SPI,MOSI: 0x00;  MISO: 0xFF
0.033122708333333,SPI,MOSI: 0x00;  MISO: 0xFF
0.033130708333333,SPI,MOSI: 0x00;  MISO: 0xFF
0.033140208333333,SPI,MOSI: 0x00;  MISO: 0xFF
0.033148208333333,SPI,MOSI: 0x00;  MISO: 0xFF
0.033157708333333,SPI,MOSI: 0x00;  MISO: 0xFF
0.033165708333333,SPI,MOSI: 0x00;  MISO: 0xFF
0.033175208333333,SPI,MOSI: 0x00;  MISO: 0xFF
0.033183208333333,SPI,MOSI: 0x00;  MISO: 0xFF
0.033192708333333,SPI,MOSI: 0x00;  MISO: 0xFF
0.033200708333333,SPI,MOSI: 0x00;  MISO: 0xFF
0.033210208333333,SPI,MOSI: 0x00;  MISO: 0xFF
0.033218208333333,SPI,MOSI: 0x00;  MISO: 0xFF
0.033227708333333,SPI,MOSI: 0x00;  MISO: 0xFF
0.033235708333333,SPI,MOSI: 0x00;  MISO: 0xFF
0.033245208333333,SPI,MOSI: 0x00;  MISO: 0xFF
0.033253208333333,SPI,MOSI: 0x00;  MISO: 0xFF
0.033262708333333,SPI,MOSI: 0x00;  MISO: 0xFF
0.033270708333333,SPI,MOSI: 0x00;  MISO: 0xFF
0.033280208333333,SPI,MOSI: 0x00;  MISO: 0xFF
0.033288208333333,SPI,MOSI: 0x00;  MISO: 0xFF
0.033297708333333,SPI,MOSI: 0x00;  MISO: 0xFF
0.033305708333333,SPI,MOSI: 0x00;  MISO: 0xFF
0.033315208333333,SPI,MOSI: 0x00;  MISO: 0xFF
0.033323208333333,SPI,MOSI: 0x00;  MISO: 0xFF
0.033355833333333,SPI,MOSI: 0x2A;  MISO: 0xFF
0.033363875000000,SPI,MOSI: 0xD4;  MISO: 0xFF
0.033373333333333,SPI,MOSI: 0x00;  MISO: 0x0F
0.033381375000000,SPI,MOSI: 0x00;  MISO: 0xFF
0.033634625000000,SPI,MOSI: 0x2A;  MISO: 0xFF
0.033642625000000,SPI,MOSI: 0xD4;  MISO: 0xFF
0.033652125000000,SPI,MOSI: 0x00;  MISO: 0x0F
0.033660125000000,SPI,MOSI: 0x00;  MISO: 0xFF
0.033691500000000,SPI,MOSI: 0x2A;  MISO: 0xFF
0.033699500000000,SPI,MOSI: 0xD4;  MISO: 0xFF
0.033709000000000,SPI,MOSI: 0x00;  MISO: 0x0F
0.033717000000000,SPI,MOSI: 0x00;  MISO: 0xFF
0.033746750000000,SPI,MOSI: 0x2A;  MISO: 0xFF
0.033754750000000,SPI,MOSI: 0xD4;  MISO: 0xFF
0.033764250000000,SPI,MOSI: 0x00;  MISO: 0x0F
0.033772250000000,SPI,MOSI: 0x00;  MISO: 0xFF
0.033802000000000,SPI,MOSI: 0x2A;  MISO: 0xFF
0.033810000000000,SPI,MOSI: 0xD4;  MISO: 0xFF
0.033819500000000,SPI,MOSI: 0x00;  MISO: 0x0F
0.033827500000000,SPI,MOSI: 0x00;  MISO: 0xFF
0.033874625000000,SPI,MOSI: 0x2A;  MISO: 0xFF
0.033882625000000,SPI,MOSI: 0xD4;  MISO: 0xFF
0.033892125000000,SPI,MOSI: 0x00;  MISO: 0x0F
0.033900125000000,SPI,MOSI: 0x00;  MISO: 0xFF
0.033930083333333,SPI,MOSI: 0x2A;  MISO: 0xFF
0.033938083333333,SPI,MOSI: 0xD4;  MISO: 0xFF
0.033947541666667,SPI,MOSI: 0x00;  MISO: 0x0F
0.033955583333333,SPI,MOSI: 0x00;  MISO: 0xFF
0.033985250000000,SPI,MOSI: 0x2A;  MISO: 0xFF
0.033993250000000,SPI,MOSI: 0xD4;  MISO: 0xFF
0.034002750000000,SPI,MOSI: 0x00;  MISO: 0x0F
0.034010750000000,SPI,MOSI: 0x00;  MISO: 0xFF
0.034040333333333,SPI,MOSI: 0x2A;  MISO: 0xFF
0.034048333333333,SPI,MOSI: 0xD4;  MISO: 0xFF
0.034057833333333,SPI,MOSI: 0x00;  MISO: 0x0F
0.034065833333333,SPI,MOSI: 0x00;  MISO: 0xFF
0.034097375000000,SPI,MOSI: 0x4F;  MISO: 0xFF
0.034105375000000,SPI,MOSI: 0xC0;  MISO: 0xFF
0.034114875000000,SPI,MOSI: 0xF0;  MISO: 0xFF
0.034122875000000,SPI,MOSI: 0x00;  MISO: 0xC0
0.034132375000000,SPI,MOSI: 0x00;  MISO: 0xFF
0.034140375000000,SPI,MOSI: 0x00;  MISO: 0x40
0.034149875000000,SPI,MOSI: 0x00;  MISO: 0xC0
0.034157875000000,SPI,MOSI: 0x00;  MISO: 0x8A
0.034167375000000,SPI,MOSI: 0x00;  MISO: 0x3F
0.034175375000000,SPI,MOSI: 0x00;  MISO: 0x8D
0.034184875000000,SPI,MOSI: 0x00;  MISO: 0xC0
0.034192916666667,SPI,MOSI: 0x00;  MISO: 0xFF
0.034202375000000,SPI,MOSI: 0x00;  MISO: 0x40
0.034210416666667,SPI,MOSI: 0x00;  MISO: 0xC0
0.034219875000000,SPI,MOSI: 0x00;  MISO: 0x58
0.034227916666667,SPI,MOSI: 0x00;  MISO: 0x23
0.034237375000000,SPI,MOSI: 0x00;  MISO: 0xA6
0.034245416666667,SPI,MOSI: 0x00;  MISO: 0xFF
0.034254916666667,SPI,MOSI: 0x00;  MISO: 0xFF
0.034262916666667,SPI,MOSI: 0x00;  MISO: 0xFF
0.034272416666667,SPI,MOSI: 0x00;  MISO: 0xFF
0.034280416666667,SPI,MOSI: 0x00;  MISO: 0xFF
0.034289916666667,SPI,MOSI: 0x00;  MISO: 0xFF
0.034297916666667,SPI,MOSI: 0x00;  MISO: 0xFF
0.034307416666667,SPI,MOSI: 0x00;  MISO: 0xFF
0.034315416666667,SPI,MOSI: 0x00;  MISO: 0xFF
0.034324916666667,SPI,MOSI: 0x00;  MISO: 0xFF
0.034332916666667,SPI,MOSI: 0x00;  MISO: 0xFF
0.034342416666667,SPI,MOSI: 0x00;  MISO: 0xFF
0.034350416666667,SPI,MOSI: 0x00;  MISO: 0xFF
0.034359916666667,SPI,MOSI: 0x00;  MISO: 0xFF
0.034367916666667,SPI,MOSI: 0x00;  MISO: 0xFF
0.034377416666667,SPI,MOSI: 0x00;  MISO: 0xFF
0.034385416666667,SPI,MOSI: 0x00;  MISO: 0xFF
0.034394916666667,SPI,MOSI: 0x00;  MISO: 0xFF
0.034402875000000,SPI,MOSI: 0x00;  MISO: 0xFF
0.034412416666667,SPI,MOSI: 0x00;  MISO: 0xFF
0.034420375000000,SPI,MOSI: 0x00;  MISO: 0xFF
0.034429916666667,SPI,MOSI: 0x00;  MISO: 0xFF
0.034437916666667,SPI,MOSI: 0x00;  MISO: 0xFF
0.034447416666667,SPI,MOSI: 0x00;  MISO: 0xFF
0.034455416666667,SPI,MOSI: 0x00;  MISO: 0xFF
0.034464875000000,SPI,MOSI: 0x00;  MISO: 0xFF
0.034472916666667,SPI,MOSI: 0x00;  MISO: 0xFF
0.034482416666667,SPI,MOSI: 0x00;  MISO: 0xFF
0.034490416666667,SPI,MOSI: 0x00;  MISO: 0xFF
0.034499916666667,SPI,MOSI: 0x00;  MISO: 0xFF
0.034507916666667,SPI,MOSI: 0x00;  MISO: 0xFF
0.034517416666667,SPI,MOSI: 0x00;  MISO: 0xFF
0.034525416666667,SPI,MOSI: 0x00;  MISO: 0xFF
0.034534916666667,SPI,MOSI: 0x00;  MISO: 0xFF
0.034542916666667,SPI,MOSI: 0x00;  MISO: 0xFF
0.034552416666667,SPI,MOSI: 0x00;  MISO: 0xFF
0.034560416666667,SPI,MOSI: 0x00;  MISO: 0xFF
0.034569916666667,SPI,MOSI: 0x00;  MISO: 0xFF
0.034577916666667,SPI,MOSI: 0x00;  MISO: 0xFF
0.034587416666667,SPI,MOSI: 0x00;  MISO: 0xFF
0.034595416666667,SPI,MOSI: 0x00;  MISO: 0xFF
0.034604916666667,SPI,MOSI: 0x00;  MISO: 0xFF
0.034612916666667,SPI,MOSI: 0x00;  MISO: 0xFF
0.035088833333333,SPI,MOSI: 0x47;  MISO: 0xFF
0.035096833333333,SPI,MOSI: 0xC0;  MISO: 0xFF
0.035106333333333,SPI,MOSI: 0x75;  MISO: 0xFF
0.035114333333333,SPI,MOSI: 0x00;  MISO: 0xFF
0.035123833333333,SPI,MOSI: 0x00;  MISO: 0xFF
0.035131833333333,SPI,MOSI: 0x00;  MISO: 0xFF
0.035141333333333,SPI,MOSI: 0x00;  MISO: 0xFF
0.035149333333333,SPI,MOSI: 0x00;  MISO: 0xFF
0.035158833333333,SPI,MOSI: 0x00;  MISO: 0xFF
0.035166833333333,SPI,MOSI: 0x00;  MISO: 0xFF
0.035176333333333,SPI,MOSI: 0x00;  MISO: 0xFF
0.035184333333333,SPI,MOSI: 0x00;  MISO: 0xFF
0.035193833333333,SPI,MOSI: 0x00;  MISO: 0xFF
0.035201833333333,SPI,MOSI: 0x00;  MISO: 0xFF
0.035211333333333,SPI,MOSI: 0x00;  MISO: 0xFF
0.035219333333333,SPI,MOSI: 0x00;  MISO: 0xFF
0.035228833333333,SPI,MOSI: 0x00;  MISO: 0xFF
0.035236833333333,SPI,MOSI: 0x00;  MISO: 0xFF
0.035246333333333,SPI,MOSI: 0x00;  MISO: 0xFF
0.035254333333333,SPI,MOSI: 0x00;  MISO: 0xFF
0.035263833333333,SPI,MOSI: 0x00;  MISO: 0xFF
0.035271833333333,SPI,MOSI: 0x00;  MISO: 0xFF
0.035281333333333,SPI,MOSI: 0x00;  MISO: 0xFF
0.035289333333333,SPI,MOSI: 0x00;  MISO: 0xFF
0.035298833333333,SPI,MOSI: 0x00;  MISO: 0xFF
0.035306833333333,SPI,MOSI: 0x00;  MISO: 0xFF
0.035316333333333,SPI,MOSI: 0x00;  MISO: 0xFF
0.035324333333333,SPI,MOSI: 0x00;  MISO: 0xFF
0.035333833333333,SPI,MOSI: 0x00;  MISO: 0xFF
0.035341833333333,SPI,MOSI: 0x00;  MISO: 0xFF
0.035351333333333,SPI,MOSI: 0x00;  MISO: 0xFF
0.035359333333333,SPI,MOSI: 0x00;  MISO: 0xFF
0.035368833333333,SPI,MOSI: 0x00;  MISO: 0xFF
0.035376833333333,SPI,MOSI: 0x00;  MISO: 0xFF
0.035386333333333,SPI,MOSI: 0x00;  MISO: 0xFF
0.035394333333333,SPI,MOSI: 0x00;  MISO: 0xFF
0.035403833333333,SPI,MOSI: 0x00;  MISO: 0xFF
0.035411833333333,SPI,MOSI: 0x00;  MISO: 0xFF
0.035421333333333,SPI,MOSI: 0x00;  MISO: 0xFF
0.035429333333333,SPI,MOSI: 0x00;  MISO: 0xFF
0.035438833333333,SPI,MOSI: 0x00;  MISO: 0xFF
0.035446833333333,SPI,MOSI: 0x00;  MISO: 0xFF
0.035456333333333,SPI,MOSI: 0x00;  MISO: 0xFF
0.035464333333333,SPI,MOSI: 0x00;  MISO: 0xFF
0.035473833333333,SPI,MOSI: 0x00;  MISO: 0xFF
0.035481833333333,SPI,MOSI: 0x00;  MISO: 0xFF
0.035491333333333,SPI,MOSI: 0x00;  MISO: 0xFF
0.035499333333333,SPI,MOSI: 0x00;  MISO: 0xFF
0.035508833333333,SPI,MOSI: 0x00;  MISO: 0xFF
0.035516833333333,SPI,MOSI: 0x00;  MISO: 0xFF
0.035526333333333,SPI,MOSI: 0x00;  MISO: 0xFF
0.035534333333333,SPI,MOSI: 0x00;  MISO: 0xFF
0.035543833333333,SPI,MOSI: 0x00;  MISO: 0xFF
0.035551833333333,SPI,MOSI: 0x00;  MISO: 0xFF
0.035561333333333,SPI,MOSI: 0x00;  MISO: 0xFF
0.035569333333333,SPI,MOSI: 0x00;  MISO: 0xFF
0.035578833333333,SPI,MOSI: 0x00;  MISO: 0xFF
0.035586833333333,SPI,MOSI: 0x00;  MISO: 0xFF
0.035596333333333,SPI,MOSI: 0x00;  MISO: 0xFF
0.035604333333333,SPI,MOSI: 0x00;  MISO: 0xFF
0.035613833333333,SPI,MOSI: 0x00;  MISO: 0xFF
0.035621833333333,SPI,MOSI: 0x00;  MISO: 0xFF
0.035631333333333,SPI,MOSI: 0x00;  MISO: 0xFF
0.035639333333333,SPI,MOSI: 0x00;  MISO: 0xFF
0.035648833333333,SPI,MOSI: 0x00;  MISO: 0xFF
0.035656833333333,SPI,MOSI: 0x00;  MISO: 0xFF
0.035666333333333,SPI,MOSI: 0x00;  MISO: 0xFF
0.035674333333333,SPI,MOSI: 0x00;  MISO: 0xFF
0.035683833333333,SPI,MOSI: 0x00;  MISO: 0xFF
0.035691833333333,SPI,MOSI: 0x00;  MISO: 0xFF
0.035701333333333,SPI,MOSI: 0x00;  MISO: 0xFF
0.035709333333333,SPI,MOSI: 0x00;  MISO: 0xFF
0.035718833333333,SPI,MOSI: 0x00;  MISO: 0xFF
0.035726833333333,SPI,MOSI: 0x00;  MISO: 0xFF
0.035736333333333,SPI,MOSI: 0x00;  MISO: 0xFF
0.035744333333333,SPI,MOSI: 0x00;  MISO: 0xFF
0.035779041666667,SPI,MOSI: 0x2A;  MISO: 0xFF
0.035787041666667,SPI,MOSI: 0xD4;  MISO: 0xFF
0.035796541666667,SPI,MOSI: 0x00;  MISO: 0x0F
0.035804541666667,SPI,MOSI: 0x00;  MISO: 0xFF
0.035834791666667,SPI,MOSI: 0x2A;  MISO: 0xFF
0.035842791666667,SPI,MOSI: 0xD4;  MISO: 0xFF
0.035852291666667,SPI,MOSI: 0x00;  MISO: 0x0F
0.035860291666667,SPI,MOSI: 0x00;  MISO: 0xFF
0.035890041666667,SPI,MOSI: 0x2A;  MISO: 0xFF
0.035898041666667,SPI,MOSI: 0xD4;  MISO: 0xFF
0.035907541666667,SPI,MOSI: 0x00;  MISO: 0x0F
0.035915541666667,SPI,MOSI: 0x00;  MISO: 0xFF
0.035945125000000,SPI,MOSI: 0x2A;  MISO: 0xFF
0.035953125000000,SPI,MOSI: 0xD4;  MISO: 0xFF
0.035962625000000,SPI,MOSI: 0x00;  MISO: 0x0F
0.035970625000000,SPI,MOSI: 0x00;  MISO: 0xFF
0.036000250000000,SPI,MOSI: 0x2A;  MISO: 0xFF
0.036008250000000,SPI,MOSI: 0xD4;  MISO: 0xFF
0.036017750000000,SPI,MOSI: 0x00;  MISO: 0x0F
0.036025750000000,SPI,MOSI: 0x00;  MISO: 0xFF
0.036055375000000,SPI,MOSI: 0x2A;  MISO: 0xFF
0.036063375000000,SPI,MOSI: 0xD4;  MISO: 0xFF
0.036072875000000,SPI,MOSI: 0x00;  MISO: 0x0F
0.036080875000000,SPI,MOSI: 0x00;  MISO: 0xFF
0.036110666666667,SPI,MOSI: 0x2A;  MISO: 0xFF
0.036118666666667,SPI,MOSI: 0xD4;  MISO: 0xFF
0.036128166666667,SPI,MOSI: 0x00;  MISO: 0x0F
0.036136166666667,SPI,MOSI: 0x00;  MISO: 0xFF
0.036165750000000,SPI,MOSI: 0x2A;  MISO: 0xFF
0.036173750000000,SPI,MOSI: 0xD4;  MISO: 0xFF
0.036183250000000,SPI,MOSI: 0x00;  MISO: 0x0F
0.036191250000000,SPI,MOSI: 0x00;  MISO: 0xFF
0.036220875000000,SPI,MOSI: 0x2A;  MISO: 0xFF
0.036228875000000,SPI,MOSI: 0xD4;  MISO: 0xFF
0.036238375000000,SPI,MOSI: 0x00;  MISO: 0x0F
0.036246375000000,SPI,MOSI: 0x00;  MISO: 0xFF
0.036277916666667,SPI,MOSI: 0x47;  MISO: 0xFF
0.036285958333333,SPI,MOSI: 0xC0;  MISO: 0xFF
0.036295458333333,SPI,MOSI: 0x75;  MISO: 0xFF
0.036303458333333,SPI,MOSI: 0x00;  MISO: 0xC0
0.036312958333333,SPI,MOSI: 0x00;  MISO: 0x6B
0.036320958333333,SPI,MOSI: 0x00;  MISO: 0x9F
0.036330458333333,SPI,MOSI: 0x00;  MISO: 0xBC
0.036338416666667,SPI,MOSI: 0x00;  MISO: 0x9F
0.036347958333333,SPI,MOSI: 0x00;  MISO: 0xC6
0.036355958333333,SPI,MOSI: 0x00;  MISO: 0x9F
0.036365458333333,SPI,MOSI: 0x00;  MISO: 0x2F
0.036373458333333,SPI,MOSI: 0x00;  MISO: 0x65
0.036382958333333,SPI,MOSI: 0x00;  MISO: 0xC0
0.036390958333333,SPI,MOSI: 0x00;  MISO: 0x71
0.036400458333333,SPI,MOSI: 0x00;  MISO: 0x12
0.036408458333333,SPI,MOSI: 0x00;  MISO: 0xFF
0.036417958333333,SPI,MOSI: 0x00;  MISO: 0xFF
0.036425958333333,SPI,MOSI: 0x00;  MISO: 0xCA
0.036435458333333,SPI,MOSI: 0x00;  MISO: 0x9F
0.036443458333333,SPI,MOSI: 0x00;  MISO: 0x34
0.036452958333333,SPI,MOSI: 0x00;  MISO: 0x20
0.036460958333333,SPI,MOSI: 0x00;  MISO: 0xFF
0.036470458333333,SPI,MOSI: 0x00;  MISO: 0xFF
0.036478458333333,SPI,MOSI: 0x00;  MISO: 0xFF
0.036487958333333,SPI,MOSI: 0x00;  MISO: 0xFF
0.036495958333333,SPI,MOSI: 0x00;  MISO: 0xFF
0.036505458333333,SPI,MOSI: 0x00;  MISO: 0xFF
0.036513458333333,SPI,MOSI: 0x00;  MISO: 0xFF
0.036522958333333,SPI,MOSI: 0x00;  MISO: 0xFF
0.036530958333333,SPI,MOSI: 0x00;  MISO: 0xFF
0.036540458333333,SPI,MOSI: 0x00;  MISO: 0xFF
0.036548458333333,SPI,MOSI: 0x00;  MISO: 0xFF
0.036557958333333,SPI,MOSI: 0x00;  MISO: 0xFF
0.036565958333333,SPI,MOSI: 0x00;  MISO: 0xFF
0.036575458333333,SPI,MOSI: 0x00;  MISO: 0xFF
0.036583458333333,SPI,MOSI: 0x00;  MISO: 0xFF
0.036592958333333,SPI,MOSI: 0x00;  MISO: 0xFF
0.036600958333333,SPI,MOSI: 0x00;  MISO: 0xFF
0.036610458333333,SPI,MOSI: 0x00;  MISO: 0xFF
0.036618458333333,SPI,MOSI: 0x00;  MISO: 0xFF
0.036627958333333,SPI,MOSI: 0x00;  MISO: 0xFF
0.036635958333333,SPI,MOSI: 0x00;  MISO: 0xFF
0.036645458333333,SPI,MOSI: 0x00;  MISO: 0xFF
0.036653458333333,SPI,MOSI: 0x00;  MISO: 0xFF
0.036662958333333,SPI,MOSI: 0x00;  MISO: 0xFF
0.036670958333333,SPI,MOSI: 0x00;  MISO: 0xFF
0.036680458333333,SPI,MOSI: 0x00;  MISO: 0xFF
0.036688458333333,SPI,MOSI: 0x00;  MISO: 0xFF
0.036697958333333,SPI,MOSI: 0x00;  MISO: 0xFF
0.036705958333333,SPI,MOSI: 0x00;  MISO: 0xFF
0.036715458333333,SPI,MOSI: 0x00;  MISO: 0xFF
0.036723458333333,SPI,MOSI: 0x00;  MISO: 0xFF
0.036732958333333,SPI,MOSI: 0x00;  MISO: 0xFF
0.036740958333333,SPI,MOSI: 0x00;  MISO: 0xFF
0.036750458333333,SPI,MOSI: 0x00;  MISO: 0xFF
0.036758458333333,SPI,MOSI: 0x00;  MISO: 0xFF
0.036767958333333,SPI,MOSI: 0x00;  MISO: 0xFF
0.036775958333333,SPI,MOSI: 0x00;  MISO: 0xFF
0.036785458333333,SPI,MOSI: 0x00;  MISO: 0xFF
0.036793458333333,SPI,MOSI: 0x00;  MISO: 0xFF
0.036802958333333,SPI,MOSI: 0x00;  MISO: 0xFF
0.036810958333333,SPI,MOSI: 0x00;  MISO: 0xFF
0.036820458333333,SPI,MOSI: 0x00;  MISO: 0xFF
0.036828458333333,SPI,MOSI: 0x00;  MISO: 0xFF
0.036837958333333,SPI,MOSI: 0x00;  MISO: 0xFF
0.036845958333333,SPI,MOSI: 0x00;  MISO: 0xFF
0.036855458333333,SPI,MOSI: 0x00;  MISO: 0xFF
0.036863458333333,SPI,MOSI: 0x00;  MISO: 0xFF
0.036872958333333,SPI,MOSI: 0x00;  MISO: 0xFF
0.036880958333333,SPI,MOSI: 0x00;  MISO: 0xFF
0.036890458333333,SPI,MOSI: 0x00;  MISO: 0xFF
0.036898458333333,SPI,MOSI: 0x00;  MISO: 0xFF
0.036907958333333,SPI,MOSI: 0x00;  MISO: 0xFF
0.036915958333333,SPI,MOSI: 0x00;  MISO: 0xFF
0.036925458333333,SPI,MOSI: 0x00;  MISO: 0xFF
0.036933458333333,SPI,MOSI: 0x00;  MISO: 0xFF
0.036977458333333,SPI,MOSI: 0x48;  MISO: 0xFF
0.036985458333333,SPI,MOSI: 0xC0;  MISO: 0xFF
0.036994958333333,SPI,MOSI: 0x31;  MISO: 0xFF
0.037002958333333,SPI,MOSI: 0x00;  MISO: 0xFF
0.037012458333333,SPI,MOSI: 0x00;  MISO: 0xFF
0.037020458333333,SPI,MOSI: 0x00;  MISO: 0xFF
0.037029958333333,SPI,MOSI: 0x00;  MISO: 0xFF
0.037037958333333,SPI,MOSI: 0x00;  MISO: 0xFF
0.037047458333333,SPI,MOSI: 0x00;  MISO: 0xFF
0.037055458333333,SPI,MOSI: 0x00;  MISO: 0xFF
0.037064958333333,SPI,MOSI: 0x00;  MISO: 0xFF
0.037072958333333,SPI,MOSI: 0x00;  MISO: 0xFF
0.037082458333333,SPI,MOSI: 0x00;  MISO: 0xFF
0.037090458333333,SPI,MOSI: 0x00;  MISO: 0xFF
0.037099958333333,SPI,MOSI: 0x00;  MISO: 0xFF
0.037107958333333,SPI,MOSI: 0x00;  MISO: 0xFF
0.037117458333333,SPI,MOSI: 0x00;  MISO: 0xFF
0.037125458333333,SPI,MOSI: 0x00;  MISO: 0xFF
0.037134958333333,SPI,MOSI: 0x00;  MISO: 0xFF
0.037142958333333,SPI,MOSI: 0x00;  MISO: 0xFF
0.037152458333333,SPI,MOSI: 0x00;  MISO: 0xFF
0.037160458333333,SPI,MOSI: 0x00;  MISO: 0xFF
0.037169958333333,SPI,MOSI: 0x00;  MISO: 0xFF
0.037177958333333,SPI,MOSI: 0x00;  MISO: 0xFF
0.037187458333333,SPI,MOSI: 0x00;  MISO: 0xFF
0.037195458333333,SPI,MOSI: 0x00;  MISO: 0xFF
0.037204958333333,SPI,MOSI: 0x00;  MISO: 0xFF
0.037212958333333,SPI,MOSI: 0x00;  MISO: 0xFF
0.037222458333333,SPI,MOSI: 0x00;  MISO: 0xFF
0.037230458333333,SPI,MOSI: 0x00;  MISO: 0xFF
0.037239958333333,SPI,MOSI: 0x00;  MISO: 0xFF
0.037247958333333,SPI,MOSI: 0x00;  MISO: 0xFF
0.037257458333333,SPI,MOSI: 0x00;  MISO: 0xFF
0.037265458333333,SPI,MOSI: 0x00;  MISO: 0xFF
0.037274958333333,SPI,MOSI: 0x00;  MISO: 0xFF
0.037282958333333,SPI,MOSI: 0x00;  MISO: 0xFF
0.037292458333333,SPI,MOSI: 0x00;  MISO: 0xFF
0.037300458333333,SPI,MOSI: 0x00;  MISO: 0xFF
0.037309958333333,SPI,MOSI: 0x00;  MISO: 0xFF
0.037317958333333,SPI,MOSI: 0x00;  MISO: 0xFF
0.037327458333333,SPI,MOSI: 0x00;  MISO: 0xFF
0.037335458333333,SPI,MOSI: 0x00;  MISO: 0xFF
0.037344958333333,SPI,MOSI: 0x00;  MISO: 0xFF
0.037352958333333,SPI,MOSI: 0x00;  MISO: 0xFF
0.037362458333333,SPI,MOSI: 0x00;  MISO: 0xFF
0.037370458333333,SPI,MOSI: 0x00;  MISO: 0xFF
0.037379958333333,SPI,MOSI: 0x00;  MISO: 0xFF
0.037387958333333,SPI,MOSI: 0x00;  MISO: 0xFF
0.037397458333333,SPI,MOSI: 0x00;  MISO: 0xFF
0.037405458333333,SPI,MOSI: 0x00;  MISO: 0xFF
0.037414958333333,SPI,MOSI: 0x00;  MISO: 0xFF
0.037422958333333,SPI,MOSI: 0x00;  MISO: 0xFF
0.037432458333333,SPI,MOSI: 0x00;  MISO: 0xFF
0.037440458333333,SPI,MOSI: 0x00;  MISO: 0xFF
0.037449958333333,SPI,MOSI: 0x00;  MISO: 0xFF
0.037457958333333,SPI,MOSI: 0x00;  MISO: 0xFF
0.037467458333333,SPI,MOSI: 0x00;  MISO: 0xFF
0.037475458333333,SPI,MOSI: 0x00;  MISO: 0xFF
0.037484958333333,SPI,MOSI: 0x00;  MISO: 0xFF
0.037492958333333,SPI,MOSI: 0x00;  MISO: 0xFF
0.037502458333333,SPI,MOSI: 0x00;  MISO: 0xFF
0.037510458333333,SPI,MOSI: 0x00;  MISO: 0xFF
0.037519958333333,SPI,MOSI: 0x00;  MISO: 0xFF
0.037527958333333,SPI,MOSI: 0x00;  MISO: 0xFF
0.037537458333333,SPI,MOSI: 0x00;  MISO: 0xFF
0.037545458333333,SPI,MOSI: 0x00;  MISO: 0xFF
0.037554958333333,SPI,MOSI: 0x00;  MISO: 0xFF
0.037562958333333,SPI,MOSI: 0x00;  MISO: 0xFF
0.037572458333333,SPI,MOSI: 0x00;  MISO: 0xFF
0.037580458333333,SPI,MOSI: 0x00;  MISO: 0xFF
0.037589958333333,SPI,MOSI: 0x00;  MISO: 0xFF
0.037597958333333,SPI,MOSI: 0x00;  MISO: 0xFF
0.037607458333333,SPI,MOSI: 0x00;  MISO: 0xFF
0.037615458333333,SPI,MOSI: 0x00;  MISO: 0xFF
0.037624958333333,SPI,MOSI: 0x00;  MISO: 0xFF
0.037632958333333,SPI,MOSI: 0x00;  MISO: 0xFF
0.037667583333333,SPI,MOSI: 0x2A;  MISO: 0xFF
0.037675583333333,SPI,MOSI: 0xD4;  MISO: 0xFF
0.037685083333333,SPI,MOSI: 0x00;  MISO: 0x0F
0.037693083333333,SPI,MOSI: 0x00;  MISO: 0xFF
0.037723208333333,SPI,MOSI: 0x2A;  MISO: 0xFF
0.037731208333333,SPI,MOSI: 0xD4;  MISO: 0xFF
0.037740708333333,SPI,MOSI: 0x00;  MISO: 0x0F
0.037748708333333,SPI,MOSI: 0x00;  MISO: 0xFF
0.037778250000000,SPI,MOSI: 0x2A;  MISO: 0xFF
0.037786291666667,SPI,MOSI: 0xD4;  MISO: 0xFF
0.037795791666667,SPI,MOSI: 0x00;  MISO: 0x0F
0.037803791666667,SPI,MOSI: 0x00;  MISO: 0xFF
0.037857791666667,SPI,MOSI: 0x2A;  MISO: 0xFF
0.037865791666667,SPI,MOSI: 0xD4;  MISO: 0xFF
0.037875291666667,SPI,MOSI: 0x00;  MISO: 0x0F
0.037883291666667,SPI,MOSI: 0x00;  MISO: 0xFF
0.037913375000000,SPI,MOSI: 0x2A;  MISO: 0xFF
0.037921375000000,SPI,MOSI: 0xD4;  MISO: 0xFF
0.037930875000000,SPI,MOSI: 0x00;  MISO: 0x0F
0.037938875000000,SPI,MOSI: 0x00;  MISO: 0xFF
0.037968500000000,SPI,MOSI: 0x2A;  MISO: 0xFF
0.037976500000000,SPI,MOSI: 0xD4;  MISO: 0xFF
0.037986000000000,SPI,MOSI: 0x00;  MISO: 0x0F
0.037994000000000,SPI,MOSI: 0x00;  MISO: 0xFF
0.038023750000000,SPI,MOSI: 0x2A;  MISO: 0xFF
0.038031750000000,SPI,MOSI: 0xD4;  MISO: 0xFF
0.038041250000000,SPI,MOSI: 0x00;  MISO: 0x0F
0.038049250000000,SPI,MOSI: 0x00;  MISO: 0xFF
0.038078791666667,SPI,MOSI: 0x2A;  MISO: 0xFF
0.038086791666667,SPI,MOSI: 0xD4;  MISO: 0xFF
0.038096291666667,SPI,MOSI: 0x00;  MISO: 0x0F
0.038104291666667,SPI,MOSI: 0x00;  MISO: 0xFF
0.038133791666667,SPI,MOSI: 0x2A;  MISO: 0xFF
0.038141791666667,SPI,MOSI: 0xD4;  MISO: 0xFF
0.038151291666667,SPI,MOSI: 0x00;  MISO: 0x0F
0.038159291666667,SPI,MOSI: 0x00;  MISO: 0xFF
0.038190916666667,SPI,MOSI: 0x48;  MISO: 0xFF
0.038198916666667,SPI,MOSI: 0xC0;  MISO: 0xFF
0.038208416666667,SPI,MOSI: 0x31;  MISO: 0xFF
0.038216416666667,SPI,MOSI: 0x00;  MISO: 0xC0
0.038225916666667,SPI,MOSI: 0x00;  MISO: 0xE8
0.038233916666667,SPI,MOSI: 0x00;  MISO: 0x9F
0.038243416666667,SPI,MOSI: 0x00;  MISO: 0xBF
0.038251416666667,SPI,MOSI: 0x00;  MISO: 0x9F
0.038260916666667,SPI,MOSI: 0x00;  MISO: 0xE6
0.038268916666667,SPI,MOSI: 0x00;  MISO: 0x9F
0.038278416666667,SPI,MOSI: 0x00;  MISO: 0x10
0.038286416666667,SPI,MOSI: 0x00;  MISO: 0x94
0.038295916666667,SPI,MOSI: 0x00;  MISO: 0xC0
0.038303916666667,SPI,MOSI: 0x00;  MISO: 0xC8
0.038313416666667,SPI,MOSI: 0x00;  MISO: 0x9F
0.038321416666667,SPI,MOSI: 0x00;  MISO: 0xBA
0.038330916666667,SPI,MOSI: 0x00;  MISO: 0x9F
0.038338916666667,SPI,MOSI: 0x00;  MISO: 0xD8
0.038348416666667,SPI,MOSI: 0x00;  MISO: 0x9F
0.038356416666667,SPI,MOSI: 0x00;  MISO: 0x12
0.038365916666667,SPI,MOSI: 0x00;  MISO: 0xE4
0.038373916666667,SPI,MOSI: 0x00;  MISO: 0xFF
0.038383416666667,SPI,MOSI: 0x00;  MISO: 0xFF
0.038391416666667,SPI,MOSI: 0x00;  MISO: 0xFF
0.038400916666667,SPI,MOSI: 0x00;  MISO: 0xFF
0.038408916666667,SPI,MOSI: 0x00;  MISO: 0xFF
0.038418416666667,SPI,MOSI: 0x00;  MISO: 0xFF
0.038426416666667,SPI,MOSI: 0x00;  MISO: 0xFF
0.038435916666667,SPI,MOSI: 0x00;  MISO: 0xFF
0.038443916666667,SPI,MOSI: 0x00;  MISO: 0xFF
0.038453416666667,SPI,MOSI: 0x00;  MISO: 0xFF
0.038461416666667,SPI,MOSI: 0x00;  MISO: 0xFF
0.038470916666667,SPI,MOSI: 0x00;  MISO: 0xFF
0.038478916666667,SPI,MOSI: 0x00;  MISO: 0xFF
0.038488416666667,SPI,MOSI: 0x00;  MISO: 0xFF
0.038496416666667,SPI,MOSI: 0x00;  MISO: 0xFF
0.038505916666667,SPI,MOSI: 0x00;  MISO: 0xFF
0.038513916666667,SPI,MOSI: 0x00;  MISO: 0xFF
0.038523416666667,SPI,MOSI: 0x00;  MISO: 0xFF
0.038531416666667,SPI,MOSI: 0x00;  MISO: 0xFF
0.038540916666667,SPI,MOSI: 0x00;  MISO: 0xFF
0.038548916666667,SPI,MOSI: 0x00;  MISO: 0xFF
0.038558416666667,SPI,MOSI: 0x00;  MISO: 0xFF
0.038566416666667,SPI,MOSI: 0x00;  MISO: 0xFF
0.038575916666667,SPI,MOSI: 0x00;  MISO: 0xFF
0.038583916666667,SPI,MOSI: 0x00;  MISO: 0xFF
0.038593416666667,SPI,MOSI: 0x00;  MISO: 0xFF
0.038601416666667,SPI,MOSI: 0x00;  MISO: 0xFF
0.038610916666667,SPI,MOSI: 0x00;  MISO: 0xFF
0.038618916666667,SPI,MOSI: 0x00;  MISO: 0xFF
0.038628416666667,SPI,MOSI: 0x00;  MISO: 0xFF
0.038636416666667,SPI,MOSI: 0x00;  MISO: 0xFF
0.038645916666667,SPI,MOSI: 0x00;  MISO: 0xFF
0.038653916666667,SPI,MOSI: 0x00;  MISO: 0xFF
0.038663416666667,SPI,MOSI: 0x00;  MISO: 0xFF
0.038671416666667,SPI,MOSI: 0x00;  MISO: 0xFF
0.038680916666667,SPI,MOSI: 0x00;  MISO: 0xFF
0.038688916666667,SPI,MOSI: 0x00;  MISO: 0xFF
0.038698416666667,SPI,MOSI: 0x00;  MISO: 0xFF
0.038706416666667,SPI,MOSI: 0x00;  MISO: 0xFF
0.038715916666667,SPI,MOSI: 0x00;  MISO: 0xFF
0.038723916666667,SPI,MOSI: 0x00;  MISO: 0xFF
0.038733416666667,SPI,MOSI: 0x00;  MISO: 0xFF
0.038741416666667,SPI,MOSI: 0x00;  MISO: 0xFF
0.038750916666667,SPI,MOSI: 0x00;  MISO: 0xFF
0.038758916666667,SPI,MOSI: 0x00;  MISO: 0xFF
0.038768416666667,SPI,MOSI: 0x00;  MISO: 0xFF
0.038776416666667,SPI,MOSI: 0x00;  MISO: 0xFF
0.038785916666667,SPI,MOSI: 0x00;  MISO: 0xFF
0.038793916666667,SPI,MOSI: 0x00;  MISO: 0xFF
0.038803416666667,SPI,MOSI: 0x00;  MISO: 0xFF
0.038811416666667,SPI,MOSI: 0x00;  MISO: 0xFF
0.038820916666667,SPI,MOSI: 0x00;  MISO: 0xFF
0.038828916666667,SPI,MOSI: 0x00;  MISO: 0xFF
0.038838416666667,SPI,MOSI: 0x00;  MISO: 0xFF
0.038846416666667,SPI,MOSI: 0x00;  MISO: 0xFF
0.038909541666667,SPI,MOSI: 0x49;  MISO: 0xFF
0.038917541666667,SPI,MOSI: 0xC0;  MISO: 0xFF
0.038927041666667,SPI,MOSI: 0xD8;  MISO: 0xFF
0.038935041666667,SPI,MOSI: 0x00;  MISO: 0xFF
0.038944541666667,SPI,MOSI: 0x00;  MISO: 0xFF
0.038952541666667,SPI,MOSI: 0x00;  MISO: 0xFF
0.038962041666667,SPI,MOSI: 0x00;  MISO: 0xFF
0.038970041666667,SPI,MOSI: 0x00;  MISO: 0xFF
0.038979541666667,SPI,MOSI: 0x00;  MISO: 0xFF
0.038987541666667,SPI,MOSI: 0x00;  MISO: 0xFF
0.038997041666667,SPI,MOSI: 0x00;  MISO: 0xFF
0.039005041666667,SPI,MOSI: 0x00;  MISO: 0xFF
0.039014541666667,SPI,MOSI: 0x00;  MISO: 0xFF
0.039022541666667,SPI,MOSI: 0x00;  MISO: 0xFF
0.039032041666667,SPI,MOSI: 0x00;  MISO: 0xFF
0.039040041666667,SPI,MOSI: 0x00;  MISO: 0xFF
0.039049541666667,SPI,MOSI: 0x00;  MISO: 0xFF
0.039057541666667,SPI,MOSI: 0x00;  MISO: 0xFF
0.039067041666667,SPI,MOSI: 0x00;  MISO: 0xFF
0.039075041666667,SPI,MOSI: 0x00;  MISO: 0xFF
0.039084541666667,SPI,MOSI: 0x00;  MISO: 0xFF
0.039092541666667,SPI,MOSI: 0x00;  MISO: 0xFF
0.039102041666667,SPI,MOSI: 0x00;  MISO: 0xFF
0.039110041666667,SPI,MOSI: 0x00;  MISO: 0xFF
0.039119541666667,SPI,MOSI: 0x00;  MISO: 0xFF
0.039127541666667,SPI,MOSI: 0x00;  MISO: 0xFF
0.039137041666667,SPI,MOSI: 0x00;  MISO: 0xFF
0.039145041666667,SPI,MOSI: 0x00;  MISO: 0xFF
0.039154541666667,SPI,MOSI: 0x00;  MISO: 0xFF
0.039162541666667,SPI,MOSI: 0x00;  MISO: 0xFF
0.039172041666667,SPI,MOSI: 0x00;  MISO: 0xFF
0.039180041666667,SPI,MOSI: 0x00;  MISO: 0xFF
0.039189541666667,SPI,MOSI: 0x00;  MISO: 0xFF
0.039197541666667,SPI,MOSI: 0x00;  MISO: 0xFF
0.039207041666667,SPI,MOSI: 0x00;  MISO: 0xFF
0.039215041666667,SPI,MOSI: 0x00;  MISO: 0xFF
0.039224541666667,SPI,MOSI: 0x00;  MISO: 0xFF
0.039232541666667,SPI,MOSI: 0x00;  MISO: 0xFF
0.039242041666667,SPI,MOSI: 0x00;  MISO: 0xFF
0.039250041666667,SPI,MOSI: 0x00;  MISO: 0xFF
0.039259541666667,SPI,MOSI: 0x00;  MISO: 0xFF
0.039267541666667,SPI,MOSI: 0x00;  MISO: 0xFF
0.039277041666667,SPI,MOSI: 0x00;  MISO: 0xFF
0.039285041666667,SPI,MOSI: 0x00;  MISO: 0xFF
0.039294541666667,SPI,MOSI: 0x00;  MISO: 0xFF
0.039302541666667,SPI,MOSI: 0x00;  MISO: 0xFF
0.039312041666667,SPI,MOSI: 0x00;  MISO: 0xFF
0.039320041666667,SPI,MOSI: 0x00;  MISO: 0xFF
0.039329541666667,SPI,MOSI: 0x00;  MISO: 0xFF
0.039337541666667,SPI,MOSI: 0x00;  MISO: 0xFF
0.039347041666667,SPI,MOSI: 0x00;  MISO: 0xFF
0.039355041666667,SPI,MOSI: 0x00;  MISO: 0xFF
0.039364541666667,SPI,MOSI: 0x00;  MISO: 0xFF
0.039372541666667,SPI,MOSI: 0x00;  MISO: 0xFF
0.039382041666667,SPI,MOSI: 0x00;  MISO: 0xFF
0.039390041666667,SPI,MOSI: 0x00;  MISO: 0xFF
0.039399541666667,SPI,MOSI: 0x00;  MISO: 0xFF
0.039407541666667,SPI,MOSI: 0x00;  MISO: 0xFF
0.039417041666667,SPI,MOSI: 0x00;  MISO: 0xFF
0.039425041666667,SPI,MOSI: 0x00;  MISO: 0xFF
0.039434541666667,SPI,MOSI: 0x00;  MISO: 0xFF
0.039442541666667,SPI,MOSI: 0x00;  MISO: 0xFF
0.039452041666667,SPI,MOSI: 0x00;  MISO: 0xFF
0.039460041666667,SPI,MOSI: 0x00;  MISO: 0xFF
0.039469541666667,SPI,MOSI: 0x00;  MISO: 0xFF
0.039477541666667,SPI,MOSI: 0x00;  MISO: 0xFF
0.039487041666667,SPI,MOSI: 0x00;  MISO: 0xFF
0.039495041666667,SPI,MOSI: 0x00;  MISO: 0xFF
0.039504541666667,SPI,MOSI: 0x00;  MISO: 0xFF
0.039512541666667,SPI,MOSI: 0x00;  MISO: 0xFF
0.039522041666667,SPI,MOSI: 0x00;  MISO: 0xFF
0.039530041666667,SPI,MOSI: 0x00;  MISO: 0xFF
0.039539541666667,SPI,MOSI: 0x00;  MISO: 0xFF
0.039547541666667,SPI,MOSI: 0x00;  MISO: 0xFF
0.039557041666667,SPI,MOSI: 0x00;  MISO: 0xFF
0.039565041666667,SPI,MOSI: 0x00;  MISO: 0xFF
0.039669083333333,SPI,MOSI: 0x2A;  MISO: 0xFF
0.039677083333333,SPI,MOSI: 0xD4;  MISO: 0xFF
0.039686541666667,SPI,MOSI: 0x00;  MISO: 0x0F
0.039694583333333,SPI,MOSI: 0x00;  MISO: 0xFF
0.039724958333333,SPI,MOSI: 0x2A;  MISO: 0xFF
0.039732958333333,SPI,MOSI: 0xD4;  MISO: 0xFF
0.039742458333333,SPI,MOSI: 0x00;  MISO: 0x0F
0.039750458333333,SPI,MOSI: 0x00;  MISO: 0xFF
0.039780291666667,SPI,MOSI: 0x2A;  MISO: 0xFF
0.039788291666667,SPI,MOSI: 0xD4;  MISO: 0xFF
0.039797791666667,SPI,MOSI: 0x00;  MISO: 0x0F
0.039805791666667,SPI,MOSI: 0x00;  MISO: 0xFF
0.039848500000000,SPI,MOSI: 0x2A;  MISO: 0xFF
0.039856500000000,SPI,MOSI: 0xD4;  MISO: 0xFF
0.039866000000000,SPI,MOSI: 0x00;  MISO: 0x0F
0.039874000000000,SPI,MOSI: 0x00;  MISO: 0xFF
0.039904750000000,SPI,MOSI: 0x2A;  MISO: 0xFF
0.039912750000000,SPI,MOSI: 0xD4;  MISO: 0xFF
0.039922250000000,SPI,MOSI: 0x00;  MISO: 0x0F
0.039930250000000,SPI,MOSI: 0x00;  MISO: 0xFF
0.039960000000000,SPI,MOSI: 0x2A;  MISO: 0xFF
0.039968041666667,SPI,MOSI: 0xD4;  MISO: 0xFF
0.039977500000000,SPI,MOSI: 0x00;  MISO: 0x0F
0.039985541666667,SPI,MOSI: 0x00;  MISO: 0xFF
0.040015083333333,SPI,MOSI: 0x2A;  MISO: 0xFF
0.040023083333333,SPI,MOSI: 0xD4;  MISO: 0xFF
0.040032583333333,SPI,MOSI: 0x00;  MISO: 0x0F
0.040040583333333,SPI,MOSI: 0x00;  MISO: 0xFF
0.040070291666667,SPI,MOSI: 0x2A;  MISO: 0xFF
0.040078291666667,SPI,MOSI: 0xD4;  MISO: 0xFF
0.040087791666667,SPI,MOSI: 0x00;  MISO: 0x0F
0.040095791666667,SPI,MOSI: 0x00;  MISO: 0xFF
0.040125333333333,SPI,MOSI: 0x2A;  MISO: 0xFF
0.040133333333333,SPI,MOSI: 0xD4;  MISO: 0xFF
0.040142833333333,SPI,MOSI: 0x00;  MISO: 0x0F
0.040150833333333,SPI,MOSI: 0x00;  MISO: 0xFF
0.040182458333333,SPI,MOSI: 0x49;  MISO: 0xFF
0.040190458333333,SPI,MOSI: 0xC0;  MISO: 0xFF
0.040199958333333,SPI,MOSI: 0xD8;  MISO: 0xFF
0.040207958333333,SPI,MOSI: 0x00;  MISO: 0xC0
0.040217458333333,SPI,MOSI: 0x00;  MISO: 0xCB
0.040225458333333,SPI,MOSI: 0x00;  MISO: 0x9F
0.040234958333333,SPI,MOSI: 0x00;  MISO: 0xDE
0.040242958333333,SPI,MOSI: 0x00;  MISO: 0x9F
0.040252458333333,SPI,MOSI: 0x00;  MISO: 0x5E
0.040260458333333,SPI,MOSI: 0x00;  MISO: 0x9F
0.040269958333333,SPI,MOSI: 0x00;  MISO: 0x02
0.040277958333333,SPI,MOSI: 0x00;  MISO: 0x99
0.040287458333333,SPI,MOSI: 0x00;  MISO: 0xC0
0.040295458333333,SPI,MOSI: 0x00;  MISO: 0xC6
0.040304958333333,SPI,MOSI: 0x00;  MISO: 0x9F
0.040312958333333,SPI,MOSI: 0x00;  MISO: 0xC8
0.040322500000000,SPI,MOSI: 0x00;  MISO: 0x9F
0.040330458333333,SPI,MOSI: 0x00;  MISO: 0xCE
0.040340000000000,SPI,MOSI: 0x00;  MISO: 0x9F
0.040347958333333,SPI,MOSI: 0x00;  MISO: 0x0E
0.040357500000000,SPI,MOSI: 0x00;  MISO: 0x87
0.040365500000000,SPI,MOSI: 0x00;  MISO: 0xFF
0.040375000000000,SPI,MOSI: 0x00;  MISO: 0xFF
0.040383000000000,SPI,MOSI: 0x00;  MISO: 0xFF
0.040392500000000,SPI,MOSI: 0x00;  MISO: 0xFF
0.040400500000000,SPI,MOSI: 0x00;  MISO: 0xFF
0.040409958333333,SPI,MOSI: 0x00;  MISO: 0xFF
0.040418000000000,SPI,MOSI: 0x00;  MISO: 0xFF
0.040427458333333,SPI,MOSI: 0x00;  MISO: 0xFF
0.040435500000000,SPI,MOSI: 0x00;  MISO: 0xFF
0.040445000000000,SPI,MOSI: 0x00;  MISO: 0xFF
0.040453000000000,SPI,MOSI: 0x00;  MISO: 0xFF
0.040462500000000,SPI,MOSI: 0x00;  MISO: 0xFF
0.040470500000000,SPI,MOSI: 0x00;  MISO: 0xFF
0.040480000000000,SPI,MOSI: 0x00;  MISO: 0xFF
0.040488000000000,SPI,MOSI: 0x00;  MISO: 0xFF
0.040497500000000,SPI,MOSI: 0x00;  MISO: 0xFF
0.040505500000000,SPI,MOSI: 0x00;  MISO: 0xFF
0.040515000000000,SPI,MOSI: 0x00;  MISO: 0xFF
0.040523000000000,SPI,MOSI: 0x00;  MISO: 0xFF
0.040532500000000,SPI,MOSI: 0x00;  MISO: 0xFF
0.040540500000000,SPI,MOSI: 0x00;  MISO: 0xFF
0.040550000000000,SPI,MOSI: 0x00;  MISO: 0xFF
0.040558000000000,SPI,MOSI: 0x00;  MISO: 0xFF
0.040567500000000,SPI,MOSI: 0x00;  MISO: 0xFF
0.040575458333333,SPI,MOSI: 0x00;  MISO: 0xFF
0.040585000000000,SPI,MOSI: 0x00;  MISO: 0xFF
0.040593000000000,SPI,MOSI: 0x00;  MISO: 0xFF
0.040602500000000,SPI,MOSI: 0x00;  MISO: 0xFF
0.040610500000000,SPI,MOSI: 0x00;  MISO: 0xFF
0.040619958333333,SPI,MOSI: 0x00;  MISO: 0xFF
0.040628000000000,SPI,MOSI: 0x00;  MISO: 0xFF
0.040637500000000,SPI,MOSI: 0x00;  MISO: 0xFF
0.040645500000000,SPI,MOSI: 0x00;  MISO: 0xFF
0.040655000000000,SPI,MOSI: 0x00;  MISO: 0xFF
0.040663000000000,SPI,MOSI: 0x00;  MISO: 0xFF
0.040672500000000,SPI,MOSI: 0x00;  MISO: 0xFF
0.040680500000000,SPI,MOSI: 0x00;  MISO: 0xFF
0.040690000000000,SPI,MOSI: 0x00;  MISO: 0xFF
0.040698000000000,SPI,MOSI: 0x00;  MISO: 0xFF
0.040707500000000,SPI,MOSI: 0x00;  MISO: 0xFF
0.040715500000000,SPI,MOSI: 0x00;  MISO: 0xFF
0.040725000000000,SPI,MOSI: 0x00;  MISO: 0xFF
0.040733000000000,SPI,MOSI: 0x00;  MISO: 0xFF
0.040742500000000,SPI,MOSI: 0x00;  MISO: 0xFF
0.040750500000000,SPI,MOSI: 0x00;  MISO: 0xFF
0.040760000000000,SPI,MOSI: 0x00;  MISO: 0xFF
0.040768000000000,SPI,MOSI: 0x00;  MISO: 0xFF
0.040777500000000,SPI,MOSI: 0x00;  MISO: 0xFF
0.040785500000000,SPI,MOSI: 0x00;  MISO: 0xFF
0.040795000000000,SPI,MOSI: 0x00;  MISO: 0xFF
0.040803000000000,SPI,MOSI: 0x00;  MISO: 0xFF
0.040812500000000,SPI,MOSI: 0x00;  MISO: 0xFF
0.040820500000000,SPI,MOSI: 0x00;  MISO: 0xFF
0.040830000000000,SPI,MOSI: 0x00;  MISO: 0xFF
0.040838000000000,SPI,MOSI: 0x00;  MISO: 0xFF
0.040881583333333,SPI,MOSI: 0x4A;  MISO: 0xFF
0.040889583333333,SPI,MOSI: 0xC0;  MISO: 0xFF
0.040899083333333,SPI,MOSI: 0xCC;  MISO: 0xFF
0.040907083333333,SPI,MOSI: 0x00;  MISO: 0xFF
0.040916583333333,SPI,MOSI: 0x00;  MISO: 0xFF
0.040924583333333,SPI,MOSI: 0x00;  MISO: 0xFF
0.040934083333333,SPI,MOSI: 0x00;  MISO: 0xFF
0.040942083333333,SPI,MOSI: 0x00;  MISO: 0xFF
0.040951583333333,SPI,MOSI: 0x00;  MISO: 0xFF
0.040959583333333,SPI,MOSI: 0x00;  MISO: 0xFF
0.040969083333333,SPI,MOSI: 0x00;  MISO: 0xFF
0.040977083333333,SPI,MOSI: 0x00;  MISO: 0xFF
0.040986583333333,SPI,MOSI: 0x00;  MISO: 0xFF
0.040994583333333,SPI,MOSI: 0x00;  MISO: 0xFF
0.041004083333333,SPI,MOSI: 0x00;  MISO: 0xFF
0.041012083333333,SPI,MOSI: 0x00;  MISO: 0xFF
0.041021583333333,SPI,MOSI: 0x00;  MISO: 0xFF
0.041029583333333,SPI,MOSI: 0x00;  MISO: 0xFF
0.041039083333333,SPI,MOSI: 0x00;  MISO: 0xFF
0.041047083333333,SPI,MOSI: 0x00;  MISO: 0xFF
0.041056583333333,SPI,MOSI: 0x00;  MISO: 0xFF
0.041064583333333,SPI,MOSI: 0x00;  MISO: 0xFF
0.041074083333333,SPI,MOSI: 0x00;  MISO: 0xFF
0.041082083333333,SPI,MOSI: 0x00;  MISO: 0xFF
0.041091583333333,SPI,MOSI: 0x00;  MISO: 0xFF
0.041099583333333,SPI,MOSI: 0x00;  MISO: 0xFF
0.041109083333333,SPI,MOSI: 0x00;  MISO: 0xFF
0.041117083333333,SPI,MOSI: 0x00;  MISO: 0xFF
0.041126583333333,SPI,MOSI: 0x00;  MISO: 0xFF
0.041134583333333,SPI,MOSI: 0x00;  MISO: 0xFF
0.041144083333333,SPI,MOSI: 0x00;  MISO: 0xFF
0.041152083333333,SPI,MOSI: 0x00;  MISO: 0xFF
0.041161583333333,SPI,MOSI: 0x00;  MISO: 0xFF
0.041169583333333,SPI,MOSI: 0x00;  MISO: 0xFF
0.041179083333333,SPI,MOSI: 0x00;  MISO: 0xFF
0.041187083333333,SPI,MOSI: 0x00;  MISO: 0xFF
0.041196583333333,SPI,MOSI: 0x00;  MISO: 0xFF
0.041204583333333,SPI,MOSI: 0x00;  MISO: 0xFF
0.041214083333333,SPI,MOSI: 0x00;  MISO: 0xFF
0.041222083333333,SPI,MOSI: 0x00;  MISO: 0xFF
0.041231583333333,SPI,MOSI: 0x00;  MISO: 0xFF
0.041239583333333,SPI,MOSI: 0x00;  MISO: 0xFF
0.041249083333333,SPI,MOSI: 0x00;  MISO: 0xFF
0.041257083333333,SPI,MOSI: 0x00;  MISO: 0xFF
0.041266583333333,SPI,MOSI: 0x00;  MISO: 0xFF
0.041274583333333,SPI,MOSI: 0x00;  MISO: 0xFF
0.041284083333333,SPI,MOSI: 0x00;  MISO: 0xFF
0.041292083333333,SPI,MOSI: 0x00;  MISO: 0xFF
0.041301583333333,SPI,MOSI: 0x00;  MISO: 0xFF
0.041309583333333,SPI,MOSI: 0x00;  MISO: 0xFF
0.041319083333333,SPI,MOSI: 0x00;  MISO: 0xFF
0.041327083333333,SPI,MOSI: 0x00;  MISO: 0xFF
0.041336583333333,SPI,MOSI: 0x00;  MISO: 0xFF
0.041344583333333,SPI,MOSI: 0x00;  MISO: 0xFF
0.041354083333333,SPI,MOSI: 0x00;  MISO: 0xFF
0.041362083333333,SPI,MOSI: 0x00;  MISO: 0xFF
0.041371583333333,SPI,MOSI: 0x00;  MISO: 0xFF
0.041379583333333,SPI,MOSI: 0x00;  MISO: 0xFF
0.041389083333333,SPI,MOSI: 0x00;  MISO: 0xFF
0.041397083333333,SPI,MOSI: 0x00;  MISO: 0xFF
0.041406583333333,SPI,MOSI: 0x00;  MISO: 0xFF
0.041414583333333,SPI,MOSI: 0x00;  MISO: 0xFF
0.041424083333333,SPI,MOSI: 0x00;  MISO: 0xFF
0.041432083333333,SPI,MOSI: 0x00;  MISO: 0xFF
0.041441583333333,SPI,MOSI: 0x00;  MISO: 0xFF
0.041449583333333,SPI,MOSI: 0x00;  MISO: 0xFF
0.041459083333333,SPI,MOSI: 0x00;  MISO: 0xFF
0.041467083333333,SPI,MOSI: 0x00;  MISO: 0xFF
0.041476583333333,SPI,MOSI: 0x00;  MISO: 0xFF
0.041484583333333,SPI,MOSI: 0x00;  MISO: 0xFF
0.041494083333333,SPI,MOSI: 0x00;  MISO: 0xFF
0.041502083333333,SPI,MOSI: 0x00;  MISO: 0xFF
0.041511583333333,SPI,MOSI: 0x00;  MISO: 0xFF
0.041519583333333,SPI,MOSI: 0x00;  MISO: 0xFF
0.041529083333333,SPI,MOSI: 0x00;  MISO: 0xFF
0.041537083333333,SPI,MOSI: 0x00;  MISO: 0xFF
0.041648916666667,SPI,MOSI: 0x2A;  MISO: 0xFF
0.041656916666667,SPI,MOSI: 0xD4;  MISO: 0xFF
0.041666416666667,SPI,MOSI: 0x00;  MISO: 0x0F
0.041674416666667,SPI,MOSI: 0x00;  MISO: 0xFF
0.041705000000000,SPI,MOSI: 0x2A;  MISO: 0xFF
0.041713000000000,SPI,MOSI: 0xD4;  MISO: 0xFF
0.041722500000000,SPI,MOSI: 0x00;  MISO: 0x0F
0.041730500000000,SPI,MOSI: 0x00;  MISO: 0xFF
0.041760291666667,SPI,MOSI: 0x2A;  MISO: 0xFF
0.041768291666667,SPI,MOSI: 0xD4;  MISO: 0xFF
0.041777791666667,SPI,MOSI: 0x00;  MISO: 0x0F
0.041785791666667,SPI,MOSI: 0x00;  MISO: 0xFF
0.041847916666667,SPI,MOSI: 0x2A;  MISO: 0xFF
0.041855958333333,SPI,MOSI: 0xD4;  MISO: 0xFF
0.041865416666667,SPI,MOSI: 0x00;  MISO: 0x0F
0.041873458333333,SPI,MOSI: 0x00;  MISO: 0xFF
0.041903375000000,SPI,MOSI: 0x2A;  MISO: 0xFF
0.041911375000000,SPI,MOSI: 0xD4;  MISO: 0xFF
0.041920875000000,SPI,MOSI: 0x00;  MISO: 0x0F
0.041928875000000,SPI,MOSI: 0x00;  MISO: 0xFF
0.041958458333333,SPI,MOSI: 0x2A;  MISO: 0xFF
0.041966458333333,SPI,MOSI: 0xD4;  MISO: 0xFF
0.041975958333333,SPI,MOSI: 0x00;  MISO: 0x0F
0.041983958333333,SPI,MOSI: 0x00;  MISO: 0xFF
0.042013375000000,SPI,MOSI: 0x2A;  MISO: 0xFF
0.042021375000000,SPI,MOSI: 0xD4;  MISO: 0xFF
0.042030875000000,SPI,MOSI: 0x00;  MISO: 0x0F
0.042038875000000,SPI,MOSI: 0x00;  MISO: 0xFF
0.042068458333333,SPI,MOSI: 0x2A;  MISO: 0xFF
0.042076416666667,SPI,MOSI: 0xD4;  MISO: 0xFF
0.042085958333333,SPI,MOSI: 0x00;  MISO: 0x0F
0.042093916666667,SPI,MOSI: 0x00;  MISO: 0xFF
0.042123500000000,SPI,MOSI: 0x2A;  MISO: 0xFF
0.042131500000000,SPI,MOSI: 0xD4;  MISO: 0xFF
0.042141000000000,SPI,MOSI: 0x00;  MISO: 0x0F
0.042149000000000,SPI,MOSI: 0x00;  MISO: 0xFF
0.042180625000000,SPI,MOSI: 0x4A;  MISO: 0xFF
0.042188625000000,SPI,MOSI: 0xC0;  MISO: 0xFF
0.042198125000000,SPI,MOSI: 0xCC;  MISO: 0xFF
0.042206125000000,SPI,MOSI: 0x00;  MISO: 0xC0
0.042215625000000,SPI,MOSI: 0x00;  MISO: 0xEE
0.042223625000000,SPI,MOSI: 0x00;  MISO: 0x9F
0.042233125000000,SPI,MOSI: 0x00;  MISO: 0xE6
0.042241125000000,SPI,MOSI: 0x00;  MISO: 0x9F
0.042250625000000,SPI,MOSI: 0x00;  MISO: 0xDC
0.042258625000000,SPI,MOSI: 0x00;  MISO: 0x9F
0.042268125000000,SPI,MOSI: 0x00;  MISO: 0x01
0.042276125000000,SPI,MOSI: 0x00;  MISO: 0x9D
0.042285625000000,SPI,MOSI: 0x00;  MISO: 0xC0
0.042293625000000,SPI,MOSI: 0x00;  MISO: 0x78
0.042303125000000,SPI,MOSI: 0x00;  MISO: 0x9F
0.042311125000000,SPI,MOSI: 0x00;  MISO: 0xD6
0.042320625000000,SPI,MOSI: 0x00;  MISO: 0x9F
0.042328625000000,SPI,MOSI: 0x00;  MISO: 0xDC
0.042338125000000,SPI,MOSI: 0x00;  MISO: 0x9F
0.042346125000000,SPI,MOSI: 0x00;  MISO: 0x20
0.042355625000000,SPI,MOSI: 0x00;  MISO: 0x1F
0.042363625000000,SPI,MOSI: 0x00;  MISO: 0xFF
0.042373125000000,SPI,MOSI: 0x00;  MISO: 0xFF
0.042381125000000,SPI,MOSI: 0x00;  MISO: 0xFF
0.042390625000000,SPI,MOSI: 0x00;  MISO: 0xFF
0.042398625000000,SPI,MOSI: 0x00;  MISO: 0xFF
0.042408125000000,SPI,MOSI: 0x00;  MISO: 0xFF
0.042416125000000,SPI,MOSI: 0x00;  MISO: 0xFF
0.042425625000000,SPI,MOSI: 0x00;  MISO: 0xFF
0.042433625000000,SPI,MOSI: 0x00;  MISO: 0xFF
0.042443125000000,SPI,MOSI: 0x00;  MISO: 0xFF
0.042451125000000,SPI,MOSI: 0x00;  MISO: 0xFF
0.042460625000000,SPI,MOSI: 0x00;  MISO: 0xFF
0.042468625000000,SPI,MOSI: 0x00;  MISO: 0xFF
0.042478125000000,SPI,MOSI: 0x00;  MISO: 0xFF
0.042486125000000,SPI,MOSI: 0x00;  MISO: 0xFF
0.042495625000000,SPI,MOSI: 0x00;  MISO: 0xFF
0.042503625000000,SPI,MOSI: 0x00;  MISO: 0xFF
0.042513125000000,SPI,MOSI: 0x00;  MISO: 0xFF
0.042521125000000,SPI,MOSI: 0x00;  MISO: 0xFF
0.042530625000000,SPI,MOSI: 0x00;  MISO: 0xFF
0.042538625000000,SPI,MOSI: 0x00;  MISO: 0xFF
0.042548125000000,SPI,MOSI: 0x00;  MISO: 0xFF
0.042556125000000,SPI,MOSI: 0x00;  MISO: 0xFF
0.042565625000000,SPI,MOSI: 0x00;  MISO: 0xFF
0.042573625000000,SPI,MOSI: 0x00;  MISO: 0xFF
0.042583125000000,SPI,MOSI: 0x00;  MISO: 0xFF
0.042591125000000,SPI,MOSI: 0x00;  MISO: 0xFF
0.042600625000000,SPI,MOSI: 0x00;  MISO: 0xFF
0.042608625000000,SPI,MOSI: 0x00;  MISO: 0xFF
0.042618125000000,SPI,MOSI: 0x00;  MISO: 0xFF
0.042626125000000,SPI,MOSI: 0x00;  MISO: 0xFF
0.042635625000000,SPI,MOSI: 0x00;  MISO: 0xFF
0.042643625000000,SPI,MOSI: 0x00;  MISO: 0xFF
0.042653125000000,SPI,MOSI: 0x00;  MISO: 0xFF
0.042661125000000,SPI,MOSI: 0x00;  MISO: 0xFF
0.042670625000000,SPI,MOSI: 0x00;  MISO: 0xFF
0.042678625000000,SPI,MOSI: 0x00;  MISO: 0xFF
0.042688125000000,SPI,MOSI: 0x00;  MISO: 0xFF
0.042696125000000,SPI,MOSI: 0x00;  MISO: 0xFF
0.042705625000000,SPI,MOSI: 0x00;  MISO: 0xFF
0.042713625000000,SPI,MOSI: 0x00;  MISO: 0xFF
0.042723125000000,SPI,MOSI: 0x00;  MISO: 0xFF
0.042731125000000,SPI,MOSI: 0x00;  MISO: 0xFF
0.042740625000000,SPI,MOSI: 0x00;  MISO: 0xFF
0.042748625000000,SPI,MOSI: 0x00;  MISO: 0xFF
0.042758125000000,SPI,MOSI: 0x00;  MISO: 0xFF
0.042766125000000,SPI,MOSI: 0x00;  MISO: 0xFF
0.042775625000000,SPI,MOSI: 0x00;  MISO: 0xFF
0.042783625000000,SPI,MOSI: 0x00;  MISO: 0xFF
0.042793125000000,SPI,MOSI: 0x00;  MISO: 0xFF
0.042801125000000,SPI,MOSI: 0x00;  MISO: 0xFF
0.042810625000000,SPI,MOSI: 0x00;  MISO: 0xFF
0.042818625000000,SPI,MOSI: 0x00;  MISO: 0xFF
0.042828125000000,SPI,MOSI: 0x00;  MISO: 0xFF
0.042836125000000,SPI,MOSI: 0x00;  MISO: 0xFF
0.042890375000000,SPI,MOSI: 0x4B;  MISO: 0xFF
0.042898375000000,SPI,MOSI: 0xC0;  MISO: 0xFF
0.042907875000000,SPI,MOSI: 0x25;  MISO: 0xFF
0.042915875000000,SPI,MOSI: 0x00;  MISO: 0xFF
0.042925375000000,SPI,MOSI: 0x00;  MISO: 0xFF
0.042933375000000,SPI,MOSI: 0x00;  MISO: 0xFF
0.042942875000000,SPI,MOSI: 0x00;  MISO: 0xFF
0.042950875000000,SPI,MOSI: 0x00;  MISO: 0xFF
0.042960375000000,SPI,MOSI: 0x00;  MISO: 0xFF
0.042968375000000,SPI,MOSI: 0x00;  MISO: 0xFF
0.042977875000000,SPI,MOSI: 0x00;  MISO: 0xFF
0.042985875000000,SPI,MOSI: 0x00;  MISO: 0xFF
0.042995375000000,SPI,MOSI: 0x00;  MISO: 0xFF
0.043003375000000,SPI,MOSI: 0x00;  MISO: 0xFF
0.043012875000000,SPI,MOSI: 0x00;  MISO: 0xFF
0.043020875000000,SPI,MOSI: 0x00;  MISO: 0xFF
0.043030375000000,SPI,MOSI: 0x00;  MISO: 0xFF
0.043038375000000,SPI,MOSI: 0x00;  MISO: 0xFF
0.043047875000000,SPI,MOSI: 0x00;  MISO: 0xFF
0.043055875000000,SPI,MOSI: 0x00;  MISO: 0xFF
0.043065375000000,SPI,MOSI: 0x00;  MISO: 0xFF
0.043073375000000,SPI,MOSI: 0x00;  MISO: 0xFF
0.043082875000000,SPI,MOSI: 0x00;  MISO: 0xFF
0.043090875000000,SPI,MOSI: 0x00;  MISO: 0xFF
0.043100375000000,SPI,MOSI: 0x00;  MISO: 0xFF
0.043108375000000,SPI,MOSI: 0x00;  MISO: 0xFF
0.043117875000000,SPI,MOSI: 0x00;  MISO: 0xFF
0.043125875000000,SPI,MOSI: 0x00;  MISO: 0xFF
0.043135375000000,SPI,MOSI: 0x00;  MISO: 0xFF
0.043143375000000,SPI,MOSI: 0x00;  MISO: 0xFF
0.043152875000000,SPI,MOSI: 0x00;  MISO: 0xFF
0.043160875000000,SPI,MOSI: 0x00;  MISO: 0xFF
0.043170375000000,SPI,MOSI: 0x00;  MISO: 0xFF
0.043178375000000,SPI,MOSI: 0x00;  MISO: 0xFF
0.043187875000000,SPI,MOSI: 0x00;  MISO: 0xFF
0.043195875000000,SPI,MOSI: 0x00;  MISO: 0xFF
0.043205375000000,SPI,MOSI: 0x00;  MISO: 0xFF
0.043213375000000,SPI,MOSI: 0x00;  MISO: 0xFF
0.043222875000000,SPI,MOSI: 0x00;  MISO: 0xFF
0.043230875000000,SPI,MOSI: 0x00;  MISO: 0xFF
0.043240375000000,SPI,MOSI: 0x00;  MISO: 0xFF
0.043248375000000,SPI,MOSI: 0x00;  MISO: 0xFF
0.043257875000000,SPI,MOSI: 0x00;  MISO: 0xFF
0.043265875000000,SPI,MOSI: 0x00;  MISO: 0xFF
0.043275375000000,SPI,MOSI: 0x00;  MISO: 0xFF
0.043283375000000,SPI,MOSI: 0x00;  MISO: 0xFF
0.043292875000000,SPI,MOSI: 0x00;  MISO: 0xFF
0.043300875000000,SPI,MOSI: 0x00;  MISO: 0xFF
0.043310375000000,SPI,MOSI: 0x00;  MISO: 0xFF
0.043318375000000,SPI,MOSI: 0x00;  MISO: 0xFF
0.043327875000000,SPI,MOSI: 0x00;  MISO: 0xFF
0.043335875000000,SPI,MOSI: 0x00;  MISO: 0xFF
0.043345375000000,SPI,MOSI: 0x00;  MISO: 0xFF
0.043353375000000,SPI,MOSI: 0x00;  MISO: 0xFF
0.043362875000000,SPI,MOSI: 0x00;  MISO: 0xFF
0.043370875000000,SPI,MOSI: 0x00;  MISO: 0xFF
0.043380416666667,SPI,MOSI: 0x00;  MISO: 0xFF
0.043388375000000,SPI,MOSI: 0x00;  MISO: 0xFF
0.043397916666667,SPI,MOSI: 0x00;  MISO: 0xFF
0.043405916666667,SPI,MOSI: 0x00;  MISO: 0xFF
0.043415375000000,SPI,MOSI: 0x00;  MISO: 0xFF
0.043423416666667,SPI,MOSI: 0x00;  MISO: 0xFF
0.043432875000000,SPI,MOSI: 0x00;  MISO: 0xFF
0.043440916666667,SPI,MOSI: 0x00;  MISO: 0xFF
0.043450416666667,SPI,MOSI: 0x00;  MISO: 0xFF
0.043458416666667,SPI,MOSI: 0x00;  MISO: 0xFF
0.043467916666667,SPI,MOSI: 0x00;  MISO: 0xFF
0.043475916666667,SPI,MOSI: 0x00;  MISO: 0xFF
0.043485416666667,SPI,MOSI: 0x00;  MISO: 0xFF
0.043493375000000,SPI,MOSI: 0x00;  MISO: 0xFF
0.043502916666667,SPI,MOSI: 0x00;  MISO: 0xFF
0.043510916666667,SPI,MOSI: 0x00;  MISO: 0xFF
0.043520416666667,SPI,MOSI: 0x00;  MISO: 0xFF
0.043528416666667,SPI,MOSI: 0x00;  MISO: 0xFF
0.043537875000000,SPI,MOSI: 0x00;  MISO: 0xFF
0.043545916666667,SPI,MOSI: 0x00;  MISO: 0xFF
0.043657333333333,SPI,MOSI: 0x2A;  MISO: 0xFF
0.043665333333333,SPI,MOSI: 0xD4;  MISO: 0xFF
0.043674833333333,SPI,MOSI: 0x00;  MISO: 0x0F
0.043682833333333,SPI,MOSI: 0x00;  MISO: 0xFF
0.043713458333333,SPI,MOSI: 0x2A;  MISO: 0xFF
0.043721458333333,SPI,MOSI: 0xD4;  MISO: 0xFF
0.043730958333333,SPI,MOSI: 0x00;  MISO: 0x0F
0.043738958333333,SPI,MOSI: 0x00;  MISO: 0xFF
0.043768583333333,SPI,MOSI: 0x2A;  MISO: 0xFF
0.043776625000000,SPI,MOSI: 0xD4;  MISO: 0xFF
0.043786083333333,SPI,MOSI: 0x00;  MISO: 0x0F
0.043794125000000,SPI,MOSI: 0x00;  MISO: 0xFF
0.043855625000000,SPI,MOSI: 0x2A;  MISO: 0xFF
0.043863583333333,SPI,MOSI: 0xD4;  MISO: 0xFF
0.043873125000000,SPI,MOSI: 0x00;  MISO: 0x0F
0.043881083333333,SPI,MOSI: 0x00;  MISO: 0xFF
0.043930041666667,SPI,MOSI: 0x2A;  MISO: 0xFF
0.043938041666667,SPI,MOSI: 0xD4;  MISO: 0xFF
0.043947541666667,SPI,MOSI: 0x00;  MISO: 0x0F
0.043955541666667,SPI,MOSI: 0x00;  MISO: 0xFF
0.043985708333333,SPI,MOSI: 0x2A;  MISO: 0xFF
0.043993708333333,SPI,MOSI: 0xD4;  MISO: 0xFF
0.044003208333333,SPI,MOSI: 0x00;  MISO: 0x0F
0.044011208333333,SPI,MOSI: 0x00;  MISO: 0xFF
0.044043291666667,SPI,MOSI: 0x2A;  MISO: 0xFF
0.044051291666667,SPI,MOSI: 0xD4;  MISO: 0xFF
0.044060791666667,SPI,MOSI: 0x00;  MISO: 0x0F
0.044068791666667,SPI,MOSI: 0x00;  MISO: 0xFF
0.044098500000000,SPI,MOSI: 0x2A;  MISO: 0xFF
0.044106500000000,SPI,MOSI: 0xD4;  MISO: 0xFF
0.044116000000000,SPI,MOSI: 0x00;  MISO: 0x0F
0.044124000000000,SPI,MOSI: 0x00;  MISO: 0xFF
0.044153750000000,SPI,MOSI: 0x2A;  MISO: 0xFF
0.044161750000000,SPI,MOSI: 0xD4;  MISO: 0xFF
0.044171250000000,SPI,MOSI: 0x00;  MISO: 0x0F
0.044179250000000,SPI,MOSI: 0x00;  MISO: 0xFF
0.044211916666667,SPI,MOSI: 0x4B;  MISO: 0xFF
0.044219916666667,SPI,MOSI: 0xC0;  MISO: 0xFF
0.044229416666667,SPI,MOSI: 0x25;  MISO: 0xFF
0.044237416666667,SPI,MOSI: 0x00;  MISO: 0xC0
0.044246916666667,SPI,MOSI: 0x00;  MISO: 0x87
0.044254916666667,SPI,MOSI: 0x00;  MISO: 0x9E
0.044264416666667,SPI,MOSI: 0x00;  MISO: 0x00
0.044272416666667,SPI,MOSI: 0x00;  MISO: 0x00
0.044281916666667,SPI,MOSI: 0x00;  MISO: 0x02
0.044289916666667,SPI,MOSI: 0x00;  MISO: 0x00
0.044299416666667,SPI,MOSI: 0x00;  MISO: 0x2B
0.044307416666667,SPI,MOSI: 0x00;  MISO: 0x06
0.044316916666667,SPI,MOSI: 0x00;  MISO: 0xC0
0.044324916666667,SPI,MOSI: 0x00;  MISO: 0x00
0.044334416666667,SPI,MOSI: 0x00;  MISO: 0x00
0.044342416666667,SPI,MOSI: 0x00;  MISO: 0x02
0.044351916666667,SPI,MOSI: 0x00;  MISO: 0x00
0.044359916666667,SPI,MOSI: 0x00;  MISO: 0x02
0.044369416666667,SPI,MOSI: 0x00;  MISO: 0x00
0.044377416666667,SPI,MOSI: 0x00;  MISO: 0x38
0.044386916666667,SPI,MOSI: 0x00;  MISO: 0x74
0.044394916666667,SPI,MOSI: 0x00;  MISO: 0xFF
0.044404416666667,SPI,MOSI: 0x00;  MISO: 0xFF
0.044412416666667,SPI,MOSI: 0x00;  MISO: 0xFF
0.044421916666667,SPI,MOSI: 0x00;  MISO: 0xFF
0.044429916666667,SPI,MOSI: 0x00;  MISO: 0xFF
0.044439416666667,SPI,MOSI: 0x00;  MISO: 0xFF
0.044447416666667,SPI,MOSI: 0x00;  MISO: 0xFF
0.044456916666667,SPI,MOSI: 0x00;  MISO: 0xFF
0.044464916666667,SPI,MOSI: 0x00;  MISO: 0xFF
0.044474416666667,SPI,MOSI: 0x00;  MISO: 0xFF
0.044482416666667,SPI,MOSI: 0x00;  MISO: 0xFF
0.044491916666667,SPI,MOSI: 0x00;  MISO: 0xFF
0.044499916666667,SPI,MOSI: 0x00;  MISO: 0xFF
0.044509416666667,SPI,MOSI: 0x00;  MISO: 0xFF
0.044517416666667,SPI,MOSI: 0x00;  MISO: 0xFF
0.044526916666667,SPI,MOSI: 0x00;  MISO: 0xFF
0.044534916666667,SPI,MOSI: 0x00;  MISO: 0xFF
0.044544416666667,SPI,MOSI: 0x00;  MISO: 0xFF
0.044552416666667,SPI,MOSI: 0x00;  MISO: 0xFF
0.044561916666667,SPI,MOSI: 0x00;  MISO: 0xFF
0.044569916666667,SPI,MOSI: 0x00;  MISO: 0xFF
0.044579416666667,SPI,MOSI: 0x00;  MISO: 0xFF
0.044587416666667,SPI,MOSI: 0x00;  MISO: 0xFF
0.044596916666667,SPI,MOSI: 0x00;  MISO: 0xFF
0.044604916666667,SPI,MOSI: 0x00;  MISO: 0xFF
0.044614416666667,SPI,MOSI: 0x00;  MISO: 0xFF
0.044622416666667,SPI,MOSI: 0x00;  MISO: 0xFF
0.044631916666667,SPI,MOSI: 0x00;  MISO: 0xFF
0.044639916666667,SPI,MOSI: 0x00;  MISO: 0xFF
0.044649416666667,SPI,MOSI: 0x00;  MISO: 0xFF
0.044657416666667,SPI,MOSI: 0x00;  MISO: 0xFF
0.044666916666667,SPI,MOSI: 0x00;  MISO: 0xFF
0.044674916666667,SPI,MOSI: 0x00;  MISO: 0xFF
0.044684416666667,SPI,MOSI: 0x00;  MISO: 0xFF
0.044692416666667,SPI,MOSI: 0x00;  MISO: 0xFF
0.044701916666667,SPI,MOSI: 0x00;  MISO: 0xFF
0.044709916666667,SPI,MOSI: 0x00;  MISO: 0xFF
0.044719416666667,SPI,MOSI: 0x00;  MISO: 0xFF
0.044727416666667,SPI,MOSI: 0x00;  MISO: 0xFF
0.044736916666667,SPI,MOSI: 0x00;  MISO: 0xFF
0.044744916666667,SPI,MOSI: 0x00;  MISO: 0xFF
0.044754416666667,SPI,MOSI: 0x00;  MISO: 0xFF
0.044762416666667,SPI,MOSI: 0x00;  MISO: 0xFF
0.044771916666667,SPI,MOSI: 0x00;  MISO: 0xFF
0.044779916666667,SPI,MOSI: 0x00;  MISO: 0xFF
0.044789416666667,SPI,MOSI: 0x00;  MISO: 0xFF
0.044797416666667,SPI,MOSI: 0x00;  MISO: 0xFF
0.044806916666667,SPI,MOSI: 0x00;  MISO: 0xFF
0.044814916666667,SPI,MOSI: 0x00;  MISO: 0xFF
0.044824416666667,SPI,MOSI: 0x00;  MISO: 0xFF
0.044832416666667,SPI,MOSI: 0x00;  MISO: 0xFF
0.044841916666667,SPI,MOSI: 0x00;  MISO: 0xFF
0.044849916666667,SPI,MOSI: 0x00;  MISO: 0xFF
0.044859416666667,SPI,MOSI: 0x00;  MISO: 0xFF
0.044867416666667,SPI,MOSI: 0x00;  MISO: 0xFF
0.045092916666667,SPI,MOSI: 0x4C;  MISO: 0xFF
0.045100916666667,SPI,MOSI: 0xC0;  MISO: 0xFF
0.045110416666667,SPI,MOSI: 0xE4;  MISO: 0xFF
0.045118416666667,SPI,MOSI: 0x00;  MISO: 0xFF
0.045127916666667,SPI,MOSI: 0x00;  MISO: 0xFF
0.045135916666667,SPI,MOSI: 0x00;  MISO: 0xFF
0.045145416666667,SPI,MOSI: 0x00;  MISO: 0xFF
0.045153416666667,SPI,MOSI: 0x00;  MISO: 0xFF
0.045162916666667,SPI,MOSI: 0x00;  MISO: 0xFF
0.045170916666667,SPI,MOSI: 0x00;  MISO: 0xFF
0.045180416666667,SPI,MOSI: 0x00;  MISO: 0xFF
0.045188416666667,SPI,MOSI: 0x00;  MISO: 0xFF
0.045197916666667,SPI,MOSI: 0x00;  MISO: 0xFF
0.045205916666667,SPI,MOSI: 0x00;  MISO: 0xFF
0.045215416666667,SPI,MOSI: 0x00;  MISO: 0xFF
0.045223416666667,SPI,MOSI: 0x00;  MISO: 0xFF
0.045232916666667,SPI,MOSI: 0x00;  MISO: 0xFF
0.045240916666667,SPI,MOSI: 0x00;  MISO: 0xFF
0.045250416666667,SPI,MOSI: 0x00;  MISO: 0xFF
0.045258416666667,SPI,MOSI: 0x00;  MISO: 0xFF
0.045267916666667,SPI,MOSI: 0x00;  MISO: 0xFF
0.045275916666667,SPI,MOSI: 0x00;  MISO: 0xFF
0.045285458333333,SPI,MOSI: 0x00;  MISO: 0xFF
0.045293416666667,SPI,MOSI: 0x00;  MISO: 0xFF
0.045302916666667,SPI,MOSI: 0x00;  MISO: 0xFF
0.045310958333333,SPI,MOSI: 0x00;  MISO: 0xFF
0.045320416666667,SPI,MOSI: 0x00;  MISO: 0xFF
0.045328458333333,SPI,MOSI: 0x00;  MISO: 0xFF
0.045337916666667,SPI,MOSI: 0x00;  MISO: 0xFF
0.045345958333333,SPI,MOSI: 0x00;  MISO: 0xFF
0.045355416666667,SPI,MOSI: 0x00;  MISO: 0xFF
0.045363458333333,SPI,MOSI: 0x00;  MISO: 0xFF
0.045372958333333,SPI,MOSI: 0x00;  MISO: 0xFF
0.045380958333333,SPI,MOSI: 0x00;  MISO: 0xFF
0.045390458333333,SPI,MOSI: 0x00;  MISO: 0xFF
0.045398416666667,SPI,MOSI: 0x00;  MISO: 0xFF
0.045407958333333,SPI,MOSI: 0x00;  MISO: 0xFF
0.045415916666667,SPI,MOSI: 0x00;  MISO: 0xFF
0.045425458333333,SPI,MOSI: 0x00;  MISO: 0xFF
0.045433458333333,SPI,MOSI: 0x00;  MISO: 0xFF
0.045442916666667,SPI,MOSI: 0x00;  MISO: 0xFF
0.045450958333333,SPI,MOSI: 0x00;  MISO: 0xFF
0.045460416666667,SPI,MOSI: 0x00;  MISO: 0xFF
0.045468458333333,SPI,MOSI: 0x00;  MISO: 0xFF
0.045477958333333,SPI,MOSI: 0x00;  MISO: 0xFF
0.045485958333333,SPI,MOSI: 0x00;  MISO: 0xFF
0.045495458333333,SPI,MOSI: 0x00;  MISO: 0xFF
0.045503458333333,SPI,MOSI: 0x00;  MISO: 0xFF
0.045512958333333,SPI,MOSI: 0x00;  MISO: 0xFF
0.045520958333333,SPI,MOSI: 0x00;  MISO: 0xFF
0.045530458333333,SPI,MOSI: 0x00;  MISO: 0xFF
0.045538458333333,SPI,MOSI: 0x00;  MISO: 0xFF
0.045547958333333,SPI,MOSI: 0x00;  MISO: 0xFF
0.045555958333333,SPI,MOSI: 0x00;  MISO: 0xFF
0.045565458333333,SPI,MOSI: 0x00;  MISO: 0xFF
0.045573458333333,SPI,MOSI: 0x00;  MISO: 0xFF
0.045582958333333,SPI,MOSI: 0x00;  MISO: 0xFF
0.045590916666667,SPI,MOSI: 0x00;  MISO: 0xFF
0.045600458333333,SPI,MOSI: 0x00;  MISO: 0xFF
0.045608458333333,SPI,MOSI: 0x00;  MISO: 0xFF
0.045643000000000,SPI,MOSI: 0x2A;  MISO: 0xFF
0.045651000000000,SPI,MOSI: 0xD4;  MISO: 0xFF
0.045660500000000,SPI,MOSI: 0x00;  MISO: 0x0F
0.045668500000000,SPI,MOSI: 0x00;  MISO: 0xFF
0.045698708333333,SPI,MOSI: 0x2A;  MISO: 0xFF
0.045706708333333,SPI,MOSI: 0xD4;  MISO: 0xFF
0.045716208333333,SPI,MOSI: 0x00;  MISO: 0x0F
0.045724208333333,SPI,MOSI: 0x00;  MISO: 0xFF
0.045758583333333,SPI,MOSI: 0x2A;  MISO: 0xFF
0.045766583333333,SPI,MOSI: 0xD4;  MISO: 0xFF
0.045776083333333,SPI,MOSI: 0x00;  MISO: 0x0F
0.045784083333333,SPI,MOSI: 0x00;  MISO: 0xFF
0.045813791666667,SPI,MOSI: 0x2A;  MISO: 0xFF
0.045821750000000,SPI,MOSI: 0xD4;  MISO: 0xFF
0.045831291666667,SPI,MOSI: 0x00;  MISO: 0x0F
0.045839250000000,SPI,MOSI: 0x00;  MISO: 0xFF
0.045869083333333,SPI,MOSI: 0x2A;  MISO: 0xFF
0.045877083333333,SPI,MOSI: 0xD4;  MISO: 0xFF
0.045886583333333,SPI,MOSI: 0x00;  MISO: 0x0F
0.045894583333333,SPI,MOSI: 0x00;  MISO: 0xFF
0.045924291666667,SPI,MOSI: 0x2A;  MISO: 0xFF
0.045932291666667,SPI,MOSI: 0xD4;  MISO: 0xFF
0.045941791666667,SPI,MOSI: 0x00;  MISO: 0x0F
0.045949791666667,SPI,MOSI: 0x00;  MISO: 0xFF
0.045990041666667,SPI,MOSI: 0x2A;  MISO: 0xFF
0.045998041666667,SPI,MOSI: 0xD4;  MISO: 0xFF
0.046007541666667,SPI,MOSI: 0x00;  MISO: 0x0F
0.046015541666667,SPI,MOSI: 0x00;  MISO: 0xFF
0.046045750000000,SPI,MOSI: 0x2A;  MISO: 0xFF
0.046053708333333,SPI,MOSI: 0xD4;  MISO: 0xFF
0.046063208333333,SPI,MOSI: 0x00;  MISO: 0x0F
0.046071208333333,SPI,MOSI: 0x00;  MISO: 0xFF
0.046100958333333,SPI,MOSI: 0x2A;  MISO: 0xFF
0.046108958333333,SPI,MOSI: 0xD4;  MISO: 0xFF
0.046118458333333,SPI,MOSI: 0x00;  MISO: 0x0F
0.046126458333333,SPI,MOSI: 0x00;  MISO: 0xFF
0.046158083333333,SPI,MOSI: 0x4C;  MISO: 0xFF
0.046166083333333,SPI,MOSI: 0xC0;  MISO: 0xFF
0.046175583333333,SPI,MOSI: 0xE4;  MISO: 0xFF
0.046183583333333,SPI,MOSI: 0x00;  MISO: 0xC0
0.046193083333333,SPI,MOSI: 0x00;  MISO: 0x02
0.046201083333333,SPI,MOSI: 0x00;  MISO: 0x00
0.046210583333333,SPI,MOSI: 0x00;  MISO: 0x81
0.046218583333333,SPI,MOSI: 0x00;  MISO: 0x81
0.046228083333333,SPI,MOSI: 0x00;  MISO: 0x18
0.046236083333333,SPI,MOSI: 0x00;  MISO: 0xED
0.046245583333333,SPI,MOSI: 0x00;  MISO: 0xC0
0.046253583333333,SPI,MOSI: 0x00;  MISO: 0x01
0.046263083333333,SPI,MOSI: 0x00;  MISO: 0x00
0.046271083333333,SPI,MOSI: 0x00;  MISO: 0xB6
0.046280583333333,SPI,MOSI: 0x00;  MISO: 0x77
0.046288583333333,SPI,MOSI: 0x00;  MISO: 0x35
0.046298083333333,SPI,MOSI: 0x00;  MISO: 0xEF
0.046306083333333,SPI,MOSI: 0x00;  MISO: 0xFF
0.046315583333333,SPI,MOSI: 0x00;  MISO: 0xFF
0.046323583333333,SPI,MOSI: 0x00;  MISO: 0xFF
0.046333083333333,SPI,MOSI: 0x00;  MISO: 0xFF
0.046341083333333,SPI,MOSI: 0x00;  MISO: 0xFF
0.046350583333333,SPI,MOSI: 0x00;  MISO: 0xFF
0.046358583333333,SPI,MOSI: 0x00;  MISO: 0xFF
0.046368083333333,SPI,MOSI: 0x00;  MISO: 0xFF
0.046376083333333,SPI,MOSI: 0x00;  MISO: 0xFF
0.046385583333333,SPI,MOSI: 0x00;  MISO: 0xFF
0.046393583333333,SPI,MOSI: 0x00;  MISO: 0xFF
0.046403083333333,SPI,MOSI: 0x00;  MISO: 0xFF
0.046411083333333,SPI,MOSI: 0x00;  MISO: 0xFF
0.046420583333333,SPI,MOSI: 0x00;  MISO: 0xFF
0.046428583333333,SPI,MOSI: 0x00;  MISO: 0xFF
0.046438083333333,SPI,MOSI: 0x00;  MISO: 0xFF
0.046446083333333,SPI,MOSI: 0x00;  MISO: 0xFF
0.046455583333333,SPI,MOSI: 0x00;  MISO: 0xFF
0.046463583333333,SPI,MOSI: 0x00;  MISO: 0xFF
0.046473083333333,SPI,MOSI: 0x00;  MISO: 0xFF
0.046481083333333,SPI,MOSI: 0x00;  MISO: 0xFF
0.046490583333333,SPI,MOSI: 0x00;  MISO: 0xFF
0.046498583333333,SPI,MOSI: 0x00;  MISO: 0xFF
0.046508083333333,SPI,MOSI: 0x00;  MISO: 0xFF
0.046516083333333,SPI,MOSI: 0x00;  MISO: 0xFF
0.046525583333333,SPI,MOSI: 0x00;  MISO: 0xFF
0.046533583333333,SPI,MOSI: 0x00;  MISO: 0xFF
0.046543083333333,SPI,MOSI: 0x00;  MISO: 0xFF
0.046551083333333,SPI,MOSI: 0x00;  MISO: 0xFF
0.046560583333333,SPI,MOSI: 0x00;  MISO: 0xFF
0.046568583333333,SPI,MOSI: 0x00;  MISO: 0xFF
0.046578083333333,SPI,MOSI: 0x00;  MISO: 0xFF
0.046586083333333,SPI,MOSI: 0x00;  MISO: 0xFF
0.046595583333333,SPI,MOSI: 0x00;  MISO: 0xFF
0.046603583333333,SPI,MOSI: 0x00;  MISO: 0xFF
0.046613083333333,SPI,MOSI: 0x00;  MISO: 0xFF
0.046621083333333,SPI,MOSI: 0x00;  MISO: 0xFF
0.046630583333333,SPI,MOSI: 0x00;  MISO: 0xFF
0.046638583333333,SPI,MOSI: 0x00;  MISO: 0xFF
0.046648083333333,SPI,MOSI: 0x00;  MISO: 0xFF
0.046656083333333,SPI,MOSI: 0x00;  MISO: 0xFF
0.046665583333333,SPI,MOSI: 0x00;  MISO: 0xFF
0.046673583333333,SPI,MOSI: 0x00;  MISO: 0xFF
0.046729958333333,SPI,MOSI: 0x14;  MISO: 0xFF
0.046737958333333,SPI,MOSI: 0xBC;  MISO: 0xFF
0.046747458333333,SPI,MOSI: 0xFF;  MISO: 0xFF
0.046755458333333,SPI,MOSI: 0xFF;  MISO: 0xFF
0.046764958333333,SPI,MOSI: 0xFF;  MISO: 0xFF
0.046772958333333,SPI,MOSI: 0xFF;  MISO: 0xFF
0.046782458333333,SPI,MOSI: 0x00;  MISO: 0xFF
0.046790458333333,SPI,MOSI: 0xFF;  MISO: 0xFF
0.046799958333333,SPI,MOSI: 0xFF;  MISO: 0xFF
0.046807958333333,SPI,MOSI: 0xFF;  MISO: 0xFF
0.046817458333333,SPI,MOSI: 0xFF;  MISO: 0xFF
0.046825458333333,SPI,MOSI: 0xFF;  MISO: 0xFF
0.046834958333333,SPI,MOSI: 0x00;  MISO: 0xFF
0.046842958333333,SPI,MOSI: 0xFF;  MISO: 0xFF
0.046852458333333,SPI,MOSI: 0xFF;  MISO: 0xFF
0.046860458333333,SPI,MOSI: 0xFF;  MISO: 0xFF
0.046869958333333,SPI,MOSI: 0xFF;  MISO: 0xFF
0.046877958333333,SPI,MOSI: 0xFF;  MISO: 0xFF
0.046887458333333,SPI,MOSI: 0x00;  MISO: 0xFF
0.046895458333333,SPI,MOSI: 0xFF;  MISO: 0xFF
0.046904958333333,SPI,MOSI: 0xFF;  MISO: 0xFF
0.046912958333333,SPI,MOSI: 0xFF;  MISO: 0xFF
0.046922458333333,SPI,MOSI: 0xFF;  MISO: 0xFF
0.046930458333333,SPI,MOSI: 0xFF;  MISO: 0xFF
0.046939958333333,SPI,MOSI: 0x00;  MISO: 0xFF
0.046947958333333,SPI,MOSI: 0xFF;  MISO: 0xFF
0.046957458333333,SPI,MOSI: 0xFF;  MISO: 0xFF
0.046965458333333,SPI,MOSI: 0xFF;  MISO: 0xFF
0.046974958333333,SPI,MOSI: 0xFF;  MISO: 0xFF
0.046982958333333,SPI,MOSI: 0xFF;  MISO: 0xFF
0.046992458333333,SPI,MOSI: 0x00;  MISO: 0xFF
0.047000458333333,SPI,MOSI: 0xFF;  MISO: 0xFF
0.047009958333333,SPI,MOSI: 0xFF;  MISO: 0xFF
0.047017958333333,SPI,MOSI: 0xFF;  MISO: 0xFF
0.047027458333333,SPI,MOSI: 0xFF;  MISO: 0xFF
0.047035458333333,SPI,MOSI: 0xFF;  MISO: 0xFF
0.047044958333333,SPI,MOSI: 0x00;  MISO: 0xFF
0.047052958333333,SPI,MOSI: 0xFF;  MISO: 0xFF
0.047062458333333,SPI,MOSI: 0xFF;  MISO: 0xFF
0.047070458333333,SPI,MOSI: 0xFF;  MISO: 0xFF
0.047079958333333,SPI,MOSI: 0xFF;  MISO: 0xFF
0.047087958333333,SPI,MOSI: 0xFF;  MISO: 0xFF
0.047097458333333,SPI,MOSI: 0x00;  MISO: 0xFF
0.047105458333333,SPI,MOSI: 0xFF;  MISO: 0xFF
0.047114958333333,SPI,MOSI: 0xFF;  MISO: 0xFF
0.047122958333333,SPI,MOSI: 0xFF;  MISO: 0xFF
0.047132458333333,SPI,MOSI: 0xFF;  MISO: 0xFF
0.047140458333333,SPI,MOSI: 0xFF;  MISO: 0xFF
0.047149958333333,SPI,MOSI: 0x00;  MISO: 0xFF
0.047157958333333,SPI,MOSI: 0xFF;  MISO: 0xFF
0.047189625000000,SPI,MOSI: 0x2A;  MISO: 0xFF
0.047197625000000,SPI,MOSI: 0xD4;  MISO: 0xFF
0.047207125000000,SPI,MOSI: 0x00;  MISO: 0x0F
0.047215125000000,SPI,MOSI: 0x00;  MISO: 0xFF
0.047245083333333,SPI,MOSI: 0x2A;  MISO: 0xFF
0.047253083333333,SPI,MOSI: 0xD4;  MISO: 0xFF
0.047262583333333,SPI,MOSI: 0x00;  MISO: 0x0F
0.047270583333333,SPI,MOSI: 0x00;  MISO: 0xFF
0.047332375000000,SPI,MOSI: 0x2A;  MISO: 0xFF
0.047340375000000,SPI,MOSI: 0xD4;  MISO: 0xFF
0.047349875000000,SPI,MOSI: 0x00;  MISO: 0x0F
0.047357875000000,SPI,MOSI: 0x00;  MISO: 0xFF
0.047628875000000,SPI,MOSI: 0x2A;  MISO: 0xFF
0.047636875000000,SPI,MOSI: 0xD4;  MISO: 0xFF
0.047646375000000,SPI,MOSI: 0x00;  MISO: 0x0F
0.047654375000000,SPI,MOSI: 0x00;  MISO: 0xFF
0.047685583333333,SPI,MOSI: 0x2A;  MISO: 0xFF
0.047693583333333,SPI,MOSI: 0xD4;  MISO: 0xFF
0.047703083333333,SPI,MOSI: 0x00;  MISO: 0x0F
0.047711083333333,SPI,MOSI: 0x00;  MISO: 0xFF
0.047741000000000,SPI,MOSI: 0x2A;  MISO: 0xFF
0.047749000000000,SPI,MOSI: 0xD4;  MISO: 0xFF
0.047758500000000,SPI,MOSI: 0x00;  MISO: 0x0F
0.047766500000000,SPI,MOSI: 0x00;  MISO: 0xFF
0.047796166666667,SPI,MOSI: 0x2A;  MISO: 0xFF
0.047804166666667,SPI,MOSI: 0xD4;  MISO: 0xFF
0.047813666666667,SPI,MOSI: 0x00;  MISO: 0x0F
0.047821666666667,SPI,MOSI: 0x00;  MISO: 0xFF
0.047868875000000,SPI,MOSI: 0x2A;  MISO: 0xFF
0.047876875000000,SPI,MOSI: 0xD4;  MISO: 0xFF
0.047886375000000,SPI,MOSI: 0x00;  MISO: 0x0F
0.047894375000000,SPI,MOSI: 0x00;  MISO: 0xFF
0.047924333333333,SPI,MOSI: 0x2A;  MISO: 0xFF
0.047932333333333,SPI,MOSI: 0xD4;  MISO: 0xFF
0.047941833333333,SPI,MOSI: 0x00;  MISO: 0x0F
0.047949833333333,SPI,MOSI: 0x00;  MISO: 0xFF
0.047986333333333,SPI,MOSI: 0x14;  MISO: 0xFF
0.047994333333333,SPI,MOSI: 0xBC;  MISO: 0xFF
0.048003833333333,SPI,MOSI: 0xFF;  MISO: 0xFF
0.048011833333333,SPI,MOSI: 0xFF;  MISO: 0xFF
0.048021333333333,SPI,MOSI: 0xFF;  MISO: 0xFF
0.048029333333333,SPI,MOSI: 0xFF;  MISO: 0xFF
0.048038833333333,SPI,MOSI: 0x00;  MISO: 0xFF
0.048046833333333,SPI,MOSI: 0xFF;  MISO: 0xFF
0.048056333333333,SPI,MOSI: 0xFF;  MISO: 0xFF
0.048064333333333,SPI,MOSI: 0xFF;  MISO: 0xFF
0.048073833333333,SPI,MOSI: 0xFF;  MISO: 0xFF
0.048081833333333,SPI,MOSI: 0xFF;  MISO: 0xFF
0.048091333333333,SPI,MOSI: 0x00;  MISO: 0xFF
0.048099333333333,SPI,MOSI: 0xFF;  MISO: 0xFF
0.048108833333333,SPI,MOSI: 0xFF;  MISO: 0xFF
0.048116833333333,SPI,MOSI: 0xFF;  MISO: 0xFF
0.048126333333333,SPI,MOSI: 0xFF;  MISO: 0xFF
0.048134333333333,SPI,MOSI: 0xFF;  MISO: 0xFF
0.048143833333333,SPI,MOSI: 0x00;  MISO: 0xFF
0.048151833333333,SPI,MOSI: 0xFF;  MISO: 0xFF
0.048161333333333,SPI,MOSI: 0xFF;  MISO: 0xFF
0.048169333333333,SPI,MOSI: 0xFF;  MISO: 0xFF
0.048178833333333,SPI,MOSI: 0xFF;  MISO: 0xFF
0.048186833333333,SPI,MOSI: 0xFF;  MISO: 0xFF
0.048196333333333,SPI,MOSI: 0x00;  MISO: 0xFF
0.048204333333333,SPI,MOSI: 0xFF;  MISO: 0xFF
0.048213833333333,SPI,MOSI: 0xFF;  MISO: 0xFF
0.048221833333333,SPI,MOSI: 0xFF;  MISO: 0xFF
0.048231333333333,SPI,MOSI: 0xFF;  MISO: 0xFF
0.048239333333333,SPI,MOSI: 0xFF;  MISO: 0xFF
0.048248833333333,SPI,MOSI: 0x00;  MISO: 0xFF
0.048256833333333,SPI,MOSI: 0xFF;  MISO: 0xFF
0.048266333333333,SPI,MOSI: 0xFF;  MISO: 0xFF
0.048274333333333,SPI,MOSI: 0xFF;  MISO: 0xFF
0.048283833333333,SPI,MOSI: 0xFF;  MISO: 0xFF
0.048291833333333,SPI,MOSI: 0xFF;  MISO: 0xFF
0.048301333333333,SPI,MOSI: 0x00;  MISO: 0xFF
0.048309375000000,SPI,MOSI: 0xFF;  MISO: 0xFF
0.048318833333333,SPI,MOSI: 0xFF;  MISO: 0xFF
0.048326833333333,SPI,MOSI: 0xFF;  MISO: 0xFF
0.048336333333333,SPI,MOSI: 0xFF;  MISO: 0xFF
0.048344333333333,SPI,MOSI: 0xFF;  MISO: 0xFF
0.048353833333333,SPI,MOSI: 0x00;  MISO: 0xFF
0.048361833333333,SPI,MOSI: 0xFF;  MISO: 0xFF
0.048371375000000,SPI,MOSI: 0xFF;  MISO: 0xFF
0.048379333333333,SPI,MOSI: 0xFF;  MISO: 0xFF
0.048388875000000,SPI,MOSI: 0xFF;  MISO: 0xFF
0.048396833333333,SPI,MOSI: 0xFF;  MISO: 0xFF
0.048406375000000,SPI,MOSI: 0x00;  MISO: 0xFF
0.048414375000000,SPI,MOSI: 0xFF;  MISO: 0xFF
0.048670791666667,SPI,MOSI: 0x15;  MISO: 0xFF
0.048678791666667,SPI,MOSI: 0x93;  MISO: 0xFF
0.048688291666667,SPI,MOSI: 0xFF;  MISO: 0xFF
0.048696291666667,SPI,MOSI: 0xFF;  MISO: 0xFF
0.048705791666667,SPI,MOSI: 0xFF;  MISO: 0xFF
0.048713791666667,SPI,MOSI: 0xFF;  MISO: 0xFF
0.048723291666667,SPI,MOSI: 0x00;  MISO: 0xFF
0.048731291666667,SPI,MOSI: 0xFF;  MISO: 0xFF
0.048740791666667,SPI,MOSI: 0xFF;  MISO: 0xFF
0.048748791666667,SPI,MOSI: 0xFF;  MISO: 0xFF
0.048758291666667,SPI,MOSI: 0xFF;  MISO: 0xFF
0.048766291666667,SPI,MOSI: 0xFF;  MISO: 0xFF
0.048775791666667,SPI,MOSI: 0x00;  MISO: 0xFF
0.048783791666667,SPI,MOSI: 0xFF;  MISO: 0xFF
0.048793291666667,SPI,MOSI: 0xFF;  MISO: 0xFF
0.048801291666667,SPI,MOSI: 0xFF;  MISO: 0xFF
0.048810791666667,SPI,MOSI: 0xFF;  MISO: 0xFF
0.048818791666667,SPI,MOSI: 0xFF;  MISO: 0xFF
0.048828291666667,SPI,MOSI: 0x00;  MISO: 0xFF
0.048836291666667,SPI,MOSI: 0xFF;  MISO: 0xFF
0.048845791666667,SPI,MOSI: 0xFF;  MISO: 0xFF
0.048853791666667,SPI,MOSI: 0xFF;  MISO: 0xFF
0.048863291666667,SPI,MOSI: 0xFF;  MISO: 0xFF
0.048871291666667,SPI,MOSI: 0xFF;  MISO: 0xFF
0.048880791666667,SPI,MOSI: 0x00;  MISO: 0xFF
0.048888791666667,SPI,MOSI: 0xFF;  MISO: 0xFF
0.048898291666667,SPI,MOSI: 0xFF;  MISO: 0xFF
0.048906291666667,SPI,MOSI: 0xFF;  MISO: 0xFF
0.048915791666667,SPI,MOSI: 0xFF;  MISO: 0xFF
0.048923791666667,SPI,MOSI: 0xFF;  MISO: 0xFF
0.048933291666667,SPI,MOSI: 0x00;  MISO: 0xFF
0.048941291666667,SPI,MOSI: 0xFF;  MISO: 0xFF
0.048950791666667,SPI,MOSI: 0xFF;  MISO: 0xFF
0.048958791666667,SPI,MOSI: 0xFF;  MISO: 0xFF
0.048968291666667,SPI,MOSI: 0xFF;  MISO: 0xFF
0.048976291666667,SPI,MOSI: 0xFF;  MISO: 0xFF
0.048985791666667,SPI,MOSI: 0x00;  MISO: 0xFF
0.048993791666667,SPI,MOSI: 0xFF;  MISO: 0xFF
0.049003291666667,SPI,MOSI: 0xFF;  MISO: 0xFF
0.049011291666667,SPI,MOSI: 0xFF;  MISO: 0xFF
0.049020791666667,SPI,MOSI: 0xFF;  MISO: 0xFF
0.049028791666667,SPI,MOSI: 0xFF;  MISO: 0xFF
0.049038291666667,SPI,MOSI: 0x00;  MISO: 0xFF
0.049046291666667,SPI,MOSI: 0xFF;  MISO: 0xFF
0.049055791666667,SPI,MOSI: 0xFF;  MISO: 0xFF
0.049063791666667,SPI,MOSI: 0xFF;  MISO: 0xFF
0.049073291666667,SPI,MOSI: 0xFF;  MISO: 0xFF
0.049081291666667,SPI,MOSI: 0xFF;  MISO: 0xFF
0.049090791666667,SPI,MOSI: 0x00;  MISO: 0xFF
0.049098791666667,SPI,MOSI: 0xFF;  MISO: 0xFF
0.049131041666667,SPI,MOSI: 0x2A;  MISO: 0xFF
0.049139000000000,SPI,MOSI: 0xD4;  MISO: 0xFF
0.049148500000000,SPI,MOSI: 0x00;  MISO: 0x0F
0.049156541666667,SPI,MOSI: 0x00;  MISO: 0xFF
0.049187500000000,SPI,MOSI: 0x2A;  MISO: 0xFF
0.049195500000000,SPI,MOSI: 0xD4;  MISO: 0xFF
0.049205000000000,SPI,MOSI: 0x00;  MISO: 0x0F
0.049213000000000,SPI,MOSI: 0x00;  MISO: 0xFF
0.049242666666667,SPI,MOSI: 0x2A;  MISO: 0xFF
0.049250666666667,SPI,MOSI: 0xD4;  MISO: 0xFF
0.049260166666667,SPI,MOSI: 0x00;  MISO: 0x0F
0.049268166666667,SPI,MOSI: 0x00;  MISO: 0xFF
0.049297916666667,SPI,MOSI: 0x2A;  MISO: 0xFF
0.049305875000000,SPI,MOSI: 0xD4;  MISO: 0xFF
0.049315416666667,SPI,MOSI: 0x00;  MISO: 0x0F
0.049323375000000,SPI,MOSI: 0x00;  MISO: 0xFF
0.049353125000000,SPI,MOSI: 0x2A;  MISO: 0xFF
0.049361125000000,SPI,MOSI: 0xD4;  MISO: 0xFF
0.049370625000000,SPI,MOSI: 0x00;  MISO: 0x0F
0.049378625000000,SPI,MOSI: 0x00;  MISO: 0xFF
0.049673000000000,SPI,MOSI: 0x2A;  MISO: 0xFF
0.049681000000000,SPI,MOSI: 0xD4;  MISO: 0xFF
0.049690500000000,SPI,MOSI: 0x00;  MISO: 0x0F
0.049698500000000,SPI,MOSI: 0x00;  MISO: 0xFF
0.049729166666667,SPI,MOSI: 0x2A;  MISO: 0xFF
0.049737166666667,SPI,MOSI: 0xD4;  MISO: 0xFF
0.049746666666667,SPI,MOSI: 0x00;  MISO: 0x0F
0.049754666666667,SPI,MOSI: 0x00;  MISO: 0xFF
0.049784208333333,SPI,MOSI: 0x2A;  MISO: 0xFF
0.049792208333333,SPI,MOSI: 0xD4;  MISO: 0xFF
0.049801708333333,SPI,MOSI: 0x00;  MISO: 0x0F
0.049809708333333,SPI,MOSI: 0x00;  MISO: 0xFF
0.049852291666667,SPI,MOSI: 0x2A;  MISO: 0xFF
0.049860333333333,SPI,MOSI: 0xD4;  MISO: 0xFF
0.049869791666667,SPI,MOSI: 0x00;  MISO: 0x0F
0.049877791666667,SPI,MOSI: 0x00;  MISO: 0xFF
0.049914833333333,SPI,MOSI: 0x15;  MISO: 0xFF
0.049922833333333,SPI,MOSI: 0x93;  MISO: 0xFF
0.049932333333333,SPI,MOSI: 0xFF;  MISO: 0xFF
0.049940333333333,SPI,MOSI: 0xFF;  MISO: 0xFF
0.049949833333333,SPI,MOSI: 0xFF;  MISO: 0xFF
0.049957833333333,SPI,MOSI: 0xFF;  MISO: 0xFF
0.049967333333333,SPI,MOSI: 0x00;  MISO: 0xFF
0.049975333333333,SPI,MOSI: 0xFF;  MISO: 0xFF
0.049984833333333,SPI,MOSI: 0xFF;  MISO: 0xFF
0.049992833333333,SPI,MOSI: 0xFF;  MISO: 0xFF
0.050002333333333,SPI,MOSI: 0xFF;  MISO: 0xFF
0.050010333333333,SPI,MOSI: 0xFF;  MISO: 0xFF
0.050019833333333,SPI,MOSI: 0x00;  MISO: 0xFF
0.050027833333333,SPI,MOSI: 0xFF;  MISO: 0xFF
0.050037333333333,SPI,MOSI: 0xFF;  MISO: 0xFF
0.050045333333333,SPI,MOSI: 0xFF;  MISO: 0xFF
0.050054833333333,SPI,MOSI: 0xFF;  MISO: 0xFF
0.050062833333333,SPI,MOSI: 0xFF;  MISO: 0xFF
0.050072333333333,SPI,MOSI: 0x00;  MISO: 0xFF
0.050080333333333,SPI,MOSI: 0xFF;  MISO: 0xFF
0.050089833333333,SPI,MOSI: 0xFF;  MISO: 0xFF
0.050097833333333,SPI,MOSI: 0xFF;  MISO: 0xFF
0.050107333333333,SPI,MOSI: 0xFF;  MISO: 0xFF
0.050115333333333,SPI,MOSI: 0xFF;  MISO: 0xFF
0.050124833333333,SPI,MOSI: 0x00;  MISO: 0xFF
0.050132833333333,SPI,MOSI: 0xFF;  MISO: 0xFF
0.050142333333333,SPI,MOSI: 0xFF;  MISO: 0xFF
0.050150333333333,SPI,MOSI: 0xFF;  MISO: 0xFF
0.050159833333333,SPI,MOSI: 0xFF;  MISO: 0xFF
0.050167833333333,SPI,MOSI: 0xFF;  MISO: 0xFF
0.050177333333333,SPI,MOSI: 0x00;  MISO: 0xFF
0.050185333333333,SPI,MOSI: 0xFF;  MISO: 0xFF
0.050194833333333,SPI,MOSI: 0xFF;  MISO: 0xFF
0.050202833333333,SPI,MOSI: 0xFF;  MISO: 0xFF
0.050212333333333,SPI,MOSI: 0xFF;  MISO: 0xFF
0.050220333333333,SPI,MOSI: 0xFF;  MISO: 0xFF
0.050229833333333,SPI,MOSI: 0x00;  MISO: 0xFF
0.050237833333333,SPI,MOSI: 0xFF;  MISO: 0xFF
0.050247333333333,SPI,MOSI: 0xFF;  MISO: 0xFF
0.050255333333333,SPI,MOSI: 0xFF;  MISO: 0xFF
0.050264833333333,SPI,MOSI: 0xFF;  MISO: 0xFF
0.050272833333333,SPI,MOSI: 0xFF;  MISO: 0xFF
0.050282333333333,SPI,MOSI: 0x00;  MISO: 0xFF
0.050290333333333,SPI,MOSI: 0xFF;  MISO: 0xFF
0.050299833333333,SPI,MOSI: 0xFF;  MISO: 0xFF
0.050307833333333,SPI,MOSI: 0xFF;  MISO: 0xFF
0.050317333333333,SPI,MOSI: 0xFF;  MISO: 0xFF
0.050325333333333,SPI,MOSI: 0xFF;  MISO: 0xFF
0.050334833333333,SPI,MOSI: 0x00;  MISO: 0xFF
0.050342833333333,SPI,MOSI: 0xFF;  MISO: 0xFF
0.050632791666667,SPI,MOSI: 0x11;  MISO: 0xFF
0.050640791666667,SPI,MOSI: 0x2F;  MISO: 0xFF
0.050650291666667,SPI,MOSI: 0xF3;  MISO: 0xFF
0.050658291666667,SPI,MOSI: 0x00;  MISO: 0xFF
0.050667791666667,SPI,MOSI: 0x00;  MISO: 0xFF
0.050675791666667,SPI,MOSI: 0x00;  MISO: 0xFF
0.050685291666667,SPI,MOSI: 0x38;  MISO: 0xFF
0.050693291666667,SPI,MOSI: 0xDC;  MISO: 0xFF
0.050702791666667,SPI,MOSI: 0xF3;  MISO: 0xFF
0.050710791666667,SPI,MOSI: 0x00;  MISO: 0xFF
0.050720291666667,SPI,MOSI: 0x00;  MISO: 0xFF
0.050728291666667,SPI,MOSI: 0x00;  MISO: 0xFF
0.050737791666667,SPI,MOSI: 0x38;  MISO: 0xFF
0.050745791666667,SPI,MOSI: 0xDC;  MISO: 0xFF
0.050755291666667,SPI,MOSI: 0xF3;  MISO: 0xFF
0.050763291666667,SPI,MOSI: 0x00;  MISO: 0xFF
0.050772791666667,SPI,MOSI: 0x00;  MISO: 0xFF
0.050780791666667,SPI,MOSI: 0x00;  MISO: 0xFF
0.050790291666667,SPI,MOSI: 0x38;  MISO: 0xFF
0.050798291666667,SPI,MOSI: 0xDC;  MISO: 0xFF
0.050807791666667,SPI,MOSI: 0xF3;  MISO: 0xFF
0.050815791666667,SPI,MOSI: 0x00;  MISO: 0xFF
0.050825291666667,SPI,MOSI: 0x00;  MISO: 0xFF
0.050833291666667,SPI,MOSI: 0x00;  MISO: 0xFF
0.050842791666667,SPI,MOSI: 0x38;  MISO: 0xFF
0.050850791666667,SPI,MOSI: 0xDC;  MISO: 0xFF
0.050860291666667,SPI,MOSI: 0xF3;  MISO: 0xFF
0.050868291666667,SPI,MOSI: 0x00;  MISO: 0xFF
0.050877791666667,SPI,MOSI: 0x00;  MISO: 0xFF
0.050885791666667,SPI,MOSI: 0x00;  MISO: 0xFF
0.050895291666667,SPI,MOSI: 0x38;  MISO: 0xFF
0.050903291666667,SPI,MOSI: 0xDC;  MISO: 0xFF
0.050912791666667,SPI,MOSI: 0xF3;  MISO: 0xFF
0.050920791666667,SPI,MOSI: 0x00;  MISO: 0xFF
0.050930291666667,SPI,MOSI: 0x00;  MISO: 0xFF
0.050938291666667,SPI,MOSI: 0x00;  MISO: 0xFF
0.050947791666667,SPI,MOSI: 0x38;  MISO: 0xFF
0.050955791666667,SPI,MOSI: 0xDC;  MISO: 0xFF
0.050965291666667,SPI,MOSI: 0xF3;  MISO: 0xFF
0.050973291666667,SPI,MOSI: 0x00;  MISO: 0xFF
0.050982791666667,SPI,MOSI: 0x00;  MISO: 0xFF
0.050990791666667,SPI,MOSI: 0x00;  MISO: 0xFF
0.051000291666667,SPI,MOSI: 0x38;  MISO: 0xFF
0.051008291666667,SPI,MOSI: 0xDC;  MISO: 0xFF
0.051017833333333,SPI,MOSI: 0xF3;  MISO: 0xFF
0.051025791666667,SPI,MOSI: 0x00;  MISO: 0xFF
0.051035291666667,SPI,MOSI: 0x00;  MISO: 0xFF
0.051043291666667,SPI,MOSI: 0x00;  MISO: 0xFF
0.051052833333333,SPI,MOSI: 0x38;  MISO: 0xFF
0.051060833333333,SPI,MOSI: 0xDC;  MISO: 0xFF
0.051093250000000,SPI,MOSI: 0x2A;  MISO: 0xFF
0.051101250000000,SPI,MOSI: 0xD4;  MISO: 0xFF
0.051110750000000,SPI,MOSI: 0x00;  MISO: 0x0F
0.051118750000000,SPI,MOSI: 0x00;  MISO: 0xFF
0.051149000000000,SPI,MOSI: 0x2A;  MISO: 0xFF
0.051157000000000,SPI,MOSI: 0xD4;  MISO: 0xFF
0.051166500000000,SPI,MOSI: 0x00;  MISO: 0x0F
0.051174500000000,SPI,MOSI: 0x00;  MISO: 0xFF
0.051204166666667,SPI,MOSI: 0x2A;  MISO: 0xFF
0.051212166666667,SPI,MOSI: 0xD4;  MISO: 0xFF
0.051221666666667,SPI,MOSI: 0x00;  MISO: 0x0F
0.051229666666667,SPI,MOSI: 0x00;  MISO: 0xFF
0.051259333333333,SPI,MOSI: 0x2A;  MISO: 0xFF
0.051267291666667,SPI,MOSI: 0xD4;  MISO: 0xFF
0.051276833333333,SPI,MOSI: 0x00;  MISO: 0x0F
0.051284833333333,SPI,MOSI: 0x00;  MISO: 0xFF
0.051314458333333,SPI,MOSI: 0x2A;  MISO: 0xFF
0.051322458333333,SPI,MOSI: 0xD4;  MISO: 0xFF
0.051331958333333,SPI,MOSI: 0x00;  MISO: 0x0F
0.051339958333333,SPI,MOSI: 0x00;  MISO: 0xFF
0.051369625000000,SPI,MOSI: 0x2A;  MISO: 0xFF
0.051377625000000,SPI,MOSI: 0xD4;  MISO: 0xFF
0.051387125000000,SPI,MOSI: 0x00;  MISO: 0x0F
0.051395125000000,SPI,MOSI: 0x00;  MISO: 0xFF
0.051656500000000,SPI,MOSI: 0x2A;  MISO: 0xFF
0.051664500000000,SPI,MOSI: 0xD4;  MISO: 0xFF
0.051674000000000,SPI,MOSI: 0x00;  MISO: 0x0F
0.051682000000000,SPI,MOSI: 0x00;  MISO: 0xFF
0.051712416666667,SPI,MOSI: 0x2A;  MISO: 0xFF
0.051720416666667,SPI,MOSI: 0xD4;  MISO: 0xFF
0.051729916666667,SPI,MOSI: 0x00;  MISO: 0x0F
0.051737916666667,SPI,MOSI: 0x00;  MISO: 0xFF
0.051767541666667,SPI,MOSI: 0x2A;  MISO: 0xFF
0.051775541666667,SPI,MOSI: 0xD4;  MISO: 0xFF
0.051785041666667,SPI,MOSI: 0x00;  MISO: 0x0F
0.051793041666667,SPI,MOSI: 0x00;  MISO: 0xFF
0.051853666666667,SPI,MOSI: 0x11;  MISO: 0xFF
0.051861666666667,SPI,MOSI: 0x2F;  MISO: 0xFF
0.051871166666667,SPI,MOSI: 0xF3;  MISO: 0xFF
0.051879166666667,SPI,MOSI: 0x00;  MISO: 0xFF
0.051888666666667,SPI,MOSI: 0x00;  MISO: 0xFF
0.051896666666667,SPI,MOSI: 0x00;  MISO: 0xFF
0.051906166666667,SPI,MOSI: 0x38;  MISO: 0xFF
0.051914166666667,SPI,MOSI: 0xDC;  MISO: 0xFF
0.051923666666667,SPI,MOSI: 0xF3;  MISO: 0xFF
0.051931666666667,SPI,MOSI: 0x00;  MISO: 0xFF
0.051941166666667,SPI,MOSI: 0x00;  MISO: 0xFF
0.051949166666667,SPI,MOSI: 0x00;  MISO: 0xFF
0.051958666666667,SPI,MOSI: 0x38;  MISO: 0xFF
0.051966666666667,SPI,MOSI: 0xDC;  MISO: 0xFF
0.051976166666667,SPI,MOSI: 0xF3;  MISO: 0xFF
0.051984166666667,SPI,MOSI: 0x00;  MISO: 0xFF
0.051993666666667,SPI,MOSI: 0x00;  MISO: 0xFF
0.052001666666667,SPI,MOSI: 0x00;  MISO: 0xFF
0.052011166666667,SPI,MOSI: 0x38;  MISO: 0xFF
0.052019166666667,SPI,MOSI: 0xDC;  MISO: 0xFF
0.052028666666667,SPI,MOSI: 0xF3;  MISO: 0xFF
0.052036666666667,SPI,MOSI: 0x00;  MISO: 0xFF
0.052046166666667,SPI,MOSI: 0x00;  MISO: 0xFF
0.052054166666667,SPI,MOSI: 0x00;  MISO: 0xFF
0.052063666666667,SPI,MOSI: 0x38;  MISO: 0xFF
0.052071666666667,SPI,MOSI: 0xDC;  MISO: 0xFF
0.052081166666667,SPI,MOSI: 0xF3;  MISO: 0xFF
0.052089166666667,SPI,MOSI: 0x00;  MISO: 0xFF
0.052098666666667,SPI,MOSI: 0x00;  MISO: 0xFF
0.052106666666667,SPI,MOSI: 0x00;  MISO: 0xFF
0.052116166666667,SPI,MOSI: 0x38;  MISO: 0xFF
0.052124166666667,SPI,MOSI: 0xDC;  MISO: 0xFF
0.052133666666667,SPI,MOSI: 0xF3;  MISO: 0xFF
0.052141666666667,SPI,MOSI: 0x00;  MISO: 0xFF
0.052151166666667,SPI,MOSI: 0x00;  MISO: 0xFF
0.052159166666667,SPI,MOSI: 0x00;  MISO: 0xFF
0.052168666666667,SPI,MOSI: 0x38;  MISO: 0xFF
0.052176666666667,SPI,MOSI: 0xDC;  MISO: 0xFF
0.052186166666667,SPI,MOSI: 0xF3;  MISO: 0xFF
0.052194166666667,SPI,MOSI: 0x00;  MISO: 0xFF
0.052203666666667,SPI,MOSI: 0x00;  MISO: 0xFF
0.052211666666667,SPI,MOSI: 0x00;  MISO: 0xFF
0.052221166666667,SPI,MOSI: 0x38;  MISO: 0xFF
0.052229166666667,SPI,MOSI: 0xDC;  MISO: 0xFF
0.052238666666667,SPI,MOSI: 0xF3;  MISO: 0xFF
0.052246666666667,SPI,MOSI: 0x00;  MISO: 0xFF
0.052256166666667,SPI,MOSI: 0x00;  MISO: 0xFF
0.052264166666667,SPI,MOSI: 0x00;  MISO: 0xFF
0.052273666666667,SPI,MOSI: 0x38;  MISO: 0xFF
0.052281666666667,SPI,MOSI: 0xDC;  MISO: 0xFF
0.125150291666667,SPI,MOSI: 0x2A;  MISO: 0xFF
0.125158291666667,SPI,MOSI: 0xD4;  MISO: 0xFF
0.125167791666667,SPI,MOSI: 0x00;  MISO: 0xFF
0.125175791666667,SPI,MOSI: 0x00;  MISO: 0xFF
0.125207208333333,SPI,MOSI: 0x2A;  MISO: 0xFF
0.125215208333333,SPI,MOSI: 0xD4;  MISO: 0xFF
0.125224708333333,SPI,MOSI: 0x00;  MISO: 0xFF
0.125232708333333,SPI,MOSI: 0x00;  MISO: 0xFF
0.125262541666667,SPI,MOSI: 0x2A;  MISO: 0xFF
0.125270541666667,SPI,MOSI: 0xD4;  MISO: 0xFF
0.125280041666667,SPI,MOSI: 0x00;  MISO: 0xFF
0.125288041666667,SPI,MOSI: 0x00;  MISO: 0xFF
0.125325083333333,SPI,MOSI: 0x2A;  MISO: 0xFF
0.125333083333333,SPI,MOSI: 0xD4;  MISO: 0xFF
0.125342583333333,SPI,MOSI: 0x00;  MISO: 0xFF
0.125350583333333,SPI,MOSI: 0x00;  MISO: 0xFF
0.125621541666667,SPI,MOSI: 0x2A;  MISO: 0xFF
0.125629541666667,SPI,MOSI: 0xD4;  MISO: 0xFF
0.125639041666667,SPI,MOSI: 0x00;  MISO: 0xFF
0.125647041666667,SPI,MOSI: 0x00;  MISO: 0xFF
0.125677833333333,SPI,MOSI: 0x2A;  MISO: 0xFF
0.125685833333333,SPI,MOSI: 0xD4;  MISO: 0xFF
0.125695333333333,SPI,MOSI: 0x00;  MISO: 0xFF
0.125703333333333,SPI,MOSI: 0x00;  MISO: 0xFF
0.125745083333333,SPI,MOSI: 0x2A;  MISO: 0xFF
0.125753083333333,SPI,MOSI: 0xD4;  MISO: 0xFF
0.125762583333333,SPI,MOSI: 0x00;  MISO: 0xFF
0.125770583333333,SPI,MOSI: 0x00;  MISO: 0xFF
0.125800750000000,SPI,MOSI: 0x2A;  MISO: 0xFF
0.125808750000000,SPI,MOSI: 0xD4;  MISO: 0xFF
0.125818250000000,SPI,MOSI: 0x00;  MISO: 0xFF
0.125826250000000,SPI,MOSI: 0x00;  MISO: 0xFF
0.125856083333333,SPI,MOSI: 0x2A;  MISO: 0xFF
0.125864041666667,SPI,MOSI: 0xD4;  MISO: 0xFF
0.125873583333333,SPI,MOSI: 0x00;  MISO: 0xFF
0.125881541666667,SPI,MOSI: 0x00;  MISO: 0xFF
0.125912875000000,SPI,MOSI: 0x2A;  MISO: 0xFF
0.125920875000000,SPI,MOSI: 0xD4;  MISO: 0xFF
0.125930375000000,SPI,MOSI: 0x00;  MISO: 0xFF
0.125938375000000,SPI,MOSI: 0x00;  MISO: 0xFF
0.125978958333333,SPI,MOSI: 0x2A;  MISO: 0xFF
0.125986958333333,SPI,MOSI: 0xD4;  MISO: 0xFF
0.125996458333333,SPI,MOSI: 0x00;  MISO: 0x3F
0.126004458333333,SPI,MOSI: 0x00;  MISO: 0xFF
0.126034583333333,SPI,MOSI: 0x2A;  MISO: 0xFF
0.126042583333333,SPI,MOSI: 0xD4;  MISO: 0xFF
0.126052083333333,SPI,MOSI: 0x00;  MISO: 0x0F
0.126060083333333,SPI,MOSI: 0x00;  MISO: 0xFF
0.126089875000000,SPI,MOSI: 0x2A;  MISO: 0xFF
0.126097916666667,SPI,MOSI: 0xD4;  MISO: 0xFF
0.126107375000000,SPI,MOSI: 0x00;  MISO: 0x0F
0.126115375000000,SPI,MOSI: 0x00;  MISO: 0xFF
0.126145291666667,SPI,MOSI: 0x2A;  MISO: 0xFF
0.126153250000000,SPI,MOSI: 0xD4;  MISO: 0xFF
0.126162750000000,SPI,MOSI: 0x00;  MISO: 0x0F
0.126170750000000,SPI,MOSI: 0x00;  MISO: 0xFF
0.126200583333333,SPI,MOSI: 0x2A;  MISO: 0xFF
0.126208583333333,SPI,MOSI: 0xD4;  MISO: 0xFF
0.126218083333333,SPI,MOSI: 0x00;  MISO: 0x0F
0.126226083333333,SPI,MOSI: 0x00;  MISO: 0xFF
0.126255875000000,SPI,MOSI: 0x2A;  MISO: 0xFF
0.126263875000000,SPI,MOSI: 0xD4;  MISO: 0xFF
0.126273375000000,SPI,MOSI: 0x00;  MISO: 0x0F
0.126281375000000,SPI,MOSI: 0x00;  MISO: 0xFF
0.126311208333333,SPI,MOSI: 0x2A;  MISO: 0xFF
0.126319208333333,SPI,MOSI: 0xD4;  MISO: 0xFF
0.126328708333333,SPI,MOSI: 0x00;  MISO: 0x0F
0.126336708333333,SPI,MOSI: 0x00;  MISO: 0xFF
0.126366500000000,SPI,MOSI: 0x2A;  MISO: 0xFF
0.126374541666667,SPI,MOSI: 0xD4;  MISO: 0xFF
0.126384041666667,SPI,MOSI: 0x00;  MISO: 0x0F
0.126392041666667,SPI,MOSI: 0x00;  MISO: 0xFF
0.126655458333333,SPI,MOSI: 0x21;  MISO: 0xFF
0.126663458333333,SPI,MOSI: 0xF2;  MISO: 0xFF
0.126695541666667,SPI,MOSI: 0x4D;  MISO: 0xFF
0.126703541666667,SPI,MOSI: 0xC1;  MISO: 0xFF
0.126713041666667,SPI,MOSI: 0x22;  MISO: 0xFF
0.126721041666667,SPI,MOSI: 0x00;  MISO: 0xC1
0.126730541666667,SPI,MOSI: 0x00;  MISO: 0xDD
0.126738541666667,SPI,MOSI: 0x00;  MISO: 0x15
0.126748041666667,SPI,MOSI: 0x00;  MISO: 0x31
0.126756041666667,SPI,MOSI: 0x00;  MISO: 0xF5
0.126765541666667,SPI,MOSI: 0x00;  MISO: 0x93
0.126773541666667,SPI,MOSI: 0x00;  MISO: 0x14
0.126783041666667,SPI,MOSI: 0x00;  MISO: 0x49
0.126791041666667,SPI,MOSI: 0x00;  MISO: 0xAA
0.126800541666667,SPI,MOSI: 0x00;  MISO: 0xC1
0.126808541666667,SPI,MOSI: 0x00;  MISO: 0x96
0.126818041666667,SPI,MOSI: 0x00;  MISO: 0x14
0.126826041666667,SPI,MOSI: 0x00;  MISO: 0xD4
0.126835541666667,SPI,MOSI: 0x00;  MISO: 0xF8
0.126843541666667,SPI,MOSI: 0x00;  MISO: 0xE4
0.126853041666667,SPI,MOSI: 0x00;  MISO: 0x14
0.126861041666667,SPI,MOSI: 0x00;  MISO: 0x69
0.126870541666667,SPI,MOSI: 0x00;  MISO: 0x6A
0.126878541666667,SPI,MOSI: 0x00;  MISO: 0xFF
0.126888041666667,SPI,MOSI: 0x00;  MISO: 0xFF
0.126896041666667,SPI,MOSI: 0x00;  MISO: 0xFF
0.126905541666667,SPI,MOSI: 0x00;  MISO: 0xFF
0.126913541666667,SPI,MOSI: 0x00;  MISO: 0xFF
0.126923041666667,SPI,MOSI: 0x00;  MISO: 0xFF
0.126931041666667,SPI,MOSI: 0x00;  MISO: 0xFF
0.126940541666667,SPI,MOSI: 0x00;  MISO: 0xFF
0.126948541666667,SPI,MOSI: 0x00;  MISO: 0xFF
0.126958041666667,SPI,MOSI: 0x00;  MISO: 0xFF
0.126966041666667,SPI,MOSI: 0x00;  MISO: 0xFF
0.126975541666667,SPI,MOSI: 0x00;  MISO: 0xFF
0.126983541666667,SPI,MOSI: 0x00;  MISO: 0xFF
0.126993041666667,SPI,MOSI: 0x00;  MISO: 0xFF
0.127001041666667,SPI,MOSI: 0x00;  MISO: 0xFF
0.127010541666667,SPI,MOSI: 0x00;  MISO: 0xFF
0.127018541666667,SPI,MOSI: 0x00;  MISO: 0xFF
0.127028041666667,SPI,MOSI: 0x00;  MISO: 0xFF
0.127036041666667,SPI,MOSI: 0x00;  MISO: 0xFF
0.127045541666667,SPI,MOSI: 0x00;  MISO: 0xFF
0.127053541666667,SPI,MOSI: 0x00;  MISO: 0xFF
0.127063041666667,SPI,MOSI: 0x00;  MISO: 0xFF
0.127071041666667,SPI,MOSI: 0x00;  MISO: 0xFF
0.127080541666667,SPI,MOSI: 0x00;  MISO: 0xFF
0.127088541666667,SPI,MOSI: 0x00;  MISO: 0xFF
0.127098041666667,SPI,MOSI: 0x00;  MISO: 0xFF
0.127106041666667,SPI,MOSI: 0x00;  MISO: 0xFF
0.127115541666667,SPI,MOSI: 0x00;  MISO: 0xFF
0.127123541666667,SPI,MOSI: 0x00;  MISO: 0xFF
0.127133041666667,SPI,MOSI: 0x00;  MISO: 0xFF
0.127141041666667,SPI,MOSI: 0x00;  MISO: 0xFF
0.127150541666667,SPI,MOSI: 0x00;  MISO: 0xFF
0.127158541666667,SPI,MOSI: 0x00;  MISO: 0xFF
0.127168041666667,SPI,MOSI: 0x00;  MISO: 0xFF
0.127176041666667,SPI,MOSI: 0x00;  MISO: 0xFF
0.127185541666667,SPI,MOSI: 0x00;  MISO: 0xFF
0.127193541666667,SPI,MOSI: 0x00;  MISO: 0xFF
0.127203041666667,SPI,MOSI: 0x00;  MISO: 0xFF
0.127211041666667,SPI,MOSI: 0x00;  MISO: 0xFF
0.127220541666667,SPI,MOSI: 0x00;  MISO: 0xFF
0.127228541666667,SPI,MOSI: 0x00;  MISO: 0xFF
0.127238041666667,SPI,MOSI: 0x00;  MISO: 0xFF
0.127246041666667,SPI,MOSI: 0x00;  MISO: 0xFF
0.127255541666667,SPI,MOSI: 0x00;  MISO: 0xFF
0.127263541666667,SPI,MOSI: 0x00;  MISO: 0xFF
0.127273041666667,SPI,MOSI: 0x00;  MISO: 0xFF
0.127281041666667,SPI,MOSI: 0x00;  MISO: 0xFF
0.127290541666667,SPI,MOSI: 0x00;  MISO: 0xFF
0.127298541666667,SPI,MOSI: 0x00;  MISO: 0xFF
0.127308041666667,SPI,MOSI: 0x00;  MISO: 0xFF
0.127316041666667,SPI,MOSI: 0x00;  MISO: 0xFF
0.127325541666667,SPI,MOSI: 0x00;  MISO: 0xFF
0.127333541666667,SPI,MOSI: 0x00;  MISO: 0xFF
0.127343041666667,SPI,MOSI: 0x00;  MISO: 0xFF
0.127351041666667,SPI,MOSI: 0x00;  MISO: 0xFF
0.127651833333333,SPI,MOSI: 0x2A;  MISO: 0xFF
0.127659875000000,SPI,MOSI: 0xD4;  MISO: 0xFF
0.127669333333333,SPI,MOSI: 0x00;  MISO: 0xFF
0.127677375000000,SPI,MOSI: 0x00;  MISO: 0xFF
0.127708458333333,SPI,MOSI: 0x2A;  MISO: 0xFF
0.127716458333333,SPI,MOSI: 0xD4;  MISO: 0xFF
0.127725958333333,SPI,MOSI: 0x00;  MISO: 0xFF
0.127733958333333,SPI,MOSI: 0x00;  MISO: 0xFF
0.127763791666667,SPI,MOSI: 0x2A;  MISO: 0xFF
0.127771791666667,SPI,MOSI: 0xD4;  MISO: 0xFF
0.127781291666667,SPI,MOSI: 0x00;  MISO: 0xFF
0.127789291666667,SPI,MOSI: 0x00;  MISO: 0xFF
0.127851166666667,SPI,MOSI: 0x2A;  MISO: 0xFF
0.127859166666667,SPI,MOSI: 0xD4;  MISO: 0xFF
0.127868666666667,SPI,MOSI: 0x00;  MISO: 0xFF
0.127876666666667,SPI,MOSI: 0x00;  MISO: 0xFF
0.127906791666667,SPI,MOSI: 0x2A;  MISO: 0xFF
0.127914791666667,SPI,MOSI: 0xD4;  MISO: 0xFF
0.127924291666667,SPI,MOSI: 0x00;  MISO: 0xFF
0.127932291666667,SPI,MOSI: 0x00;  MISO: 0xFF
0.127962041666667,SPI,MOSI: 0x2A;  MISO: 0xFF
0.127970041666667,SPI,MOSI: 0xD4;  MISO: 0xFF
0.127979541666667,SPI,MOSI: 0x00;  MISO: 0xFF
0.127987541666667,SPI,MOSI: 0x00;  MISO: 0xFF
0.128017166666667,SPI,MOSI: 0x2A;  MISO: 0xFF
0.128025166666667,SPI,MOSI: 0xD4;  MISO: 0xFF
0.128034666666667,SPI,MOSI: 0x00;  MISO: 0xFF
0.128042666666667,SPI,MOSI: 0x00;  MISO: 0xFF
0.128074375000000,SPI,MOSI: 0x4D;  MISO: 0xFF
0.128082375000000,SPI,MOSI: 0xC1;  MISO: 0xFF
0.128091875000000,SPI,MOSI: 0x22;  MISO: 0xFF
0.128099875000000,SPI,MOSI: 0x00;  MISO: 0xFF
0.128109375000000,SPI,MOSI: 0x00;  MISO: 0xFF
0.128117375000000,SPI,MOSI: 0x00;  MISO: 0xFF
0.128126875000000,SPI,MOSI: 0x00;  MISO: 0xFF
0.128134875000000,SPI,MOSI: 0x00;  MISO: 0xFF
0.128144375000000,SPI,MOSI: 0x00;  MISO: 0xFF
0.128152375000000,SPI,MOSI: 0x00;  MISO: 0xFF
0.128161875000000,SPI,MOSI: 0x00;  MISO: 0xFF
0.128169875000000,SPI,MOSI: 0x00;  MISO: 0xFF
0.128179375000000,SPI,MOSI: 0x00;  MISO: 0xFF
0.128187375000000,SPI,MOSI: 0x00;  MISO: 0xFF
0.128196875000000,SPI,MOSI: 0x00;  MISO: 0xFF
0.128204875000000,SPI,MOSI: 0x00;  MISO: 0xFF
0.128214375000000,SPI,MOSI: 0x00;  MISO: 0xFF
0.128222375000000,SPI,MOSI: 0x00;  MISO: 0xFF
0.128231875000000,SPI,MOSI: 0x00;  MISO: 0xFF
0.128239875000000,SPI,MOSI: 0x00;  MISO: 0xFF
0.128249375000000,SPI,MOSI: 0x00;  MISO: 0xFF
0.128257375000000,SPI,MOSI: 0x00;  MISO: 0xFF
0.128266875000000,SPI,MOSI: 0x00;  MISO: 0xFF
0.128274875000000,SPI,MOSI: 0x00;  MISO: 0xFF
0.128284375000000,SPI,MOSI: 0x00;  MISO: 0xFF
0.128292375000000,SPI,MOSI: 0x00;  MISO: 0xFF
0.128301875000000,SPI,MOSI: 0x00;  MISO: 0xFF
0.128309875000000,SPI,MOSI: 0x00;  MISO: 0xFF
0.128319375000000,SPI,MOSI: 0x00;  MISO: 0xFF
0.128327375000000,SPI,MOSI: 0x00;  MISO: 0xFF
0.128336875000000,SPI,MOSI: 0x00;  MISO: 0xFF
0.128344875000000,SPI,MOSI: 0x00;  MISO: 0xFF
0.128354375000000,SPI,MOSI: 0x00;  MISO: 0xFF
0.128362375000000,SPI,MOSI: 0x00;  MISO: 0xFF
0.128371875000000,SPI,MOSI: 0x00;  MISO: 0xFF
0.128379875000000,SPI,MOSI: 0x00;  MISO: 0xFF
0.128389375000000,SPI,MOSI: 0x00;  MISO: 0xFF
0.128397375000000,SPI,MOSI: 0x00;  MISO: 0xFF
0.128406875000000,SPI,MOSI: 0x00;  MISO: 0xFF
0.128414875000000,SPI,MOSI: 0x00;  MISO: 0xFF
0.128424375000000,SPI,MOSI: 0x00;  MISO: 0xFF
0.128432375000000,SPI,MOSI: 0x00;  MISO: 0xFF
0.128441875000000,SPI,MOSI: 0x00;  MISO: 0xFF
0.128449875000000,SPI,MOSI: 0x00;  MISO: 0xFF
0.128459375000000,SPI,MOSI: 0x00;  MISO: 0xFF
0.128467416666667,SPI,MOSI: 0x00;  MISO: 0xFF
0.128476875000000,SPI,MOSI: 0x00;  MISO: 0xFF
0.128484916666667,SPI,MOSI: 0x00;  MISO: 0xFF
0.128494416666667,SPI,MOSI: 0x00;  MISO: 0xFF
0.128502416666667,SPI,MOSI: 0x00;  MISO: 0xFF
0.128511916666667,SPI,MOSI: 0x00;  MISO: 0xFF
0.128519875000000,SPI,MOSI: 0x00;  MISO: 0xFF
0.128529416666667,SPI,MOSI: 0x00;  MISO: 0xFF
0.128537416666667,SPI,MOSI: 0x00;  MISO: 0xFF
0.128546916666667,SPI,MOSI: 0x00;  MISO: 0xFF
0.128554916666667,SPI,MOSI: 0x00;  MISO: 0xFF
0.128564416666667,SPI,MOSI: 0x00;  MISO: 0xFF
0.128572416666667,SPI,MOSI: 0x00;  MISO: 0xFF
0.128639166666667,SPI,MOSI: 0x4E;  MISO: 0xFF
0.128647166666667,SPI,MOSI: 0xC1;  MISO: 0xFF
0.128656666666667,SPI,MOSI: 0x36;  MISO: 0xFF
0.128664666666667,SPI,MOSI: 0x00;  MISO: 0xC1
0.128674166666667,SPI,MOSI: 0x00;  MISO: 0x7C
0.128682166666667,SPI,MOSI: 0x00;  MISO: 0x93
0.128691666666667,SPI,MOSI: 0x00;  MISO: 0x4C
0.128699666666667,SPI,MOSI: 0x00;  MISO: 0x05
0.128709166666667,SPI,MOSI: 0x00;  MISO: 0x9F
0.128717166666667,SPI,MOSI: 0x00;  MISO: 0xF5
0.128726666666667,SPI,MOSI: 0x00;  MISO: 0x4E
0.128734666666667,SPI,MOSI: 0x00;  MISO: 0x16
0.128744166666667,SPI,MOSI: 0x00;  MISO: 0xC1
0.128752166666667,SPI,MOSI: 0x00;  MISO: 0x5D
0.128761666666667,SPI,MOSI: 0x00;  MISO: 0x93
0.128769666666667,SPI,MOSI: 0x00;  MISO: 0x44
0.128779166666667,SPI,MOSI: 0x00;  MISO: 0x05
0.128787166666667,SPI,MOSI: 0x00;  MISO: 0x55
0.128796666666667,SPI,MOSI: 0x00;  MISO: 0xF3
0.128804666666667,SPI,MOSI: 0x00;  MISO: 0x65
0.128814166666667,SPI,MOSI: 0x00;  MISO: 0xCF
0.128822166666667,SPI,MOSI: 0x00;  MISO: 0xFF
0.128831666666667,SPI,MOSI: 0x00;  MISO: 0xFF
0.128839666666667,SPI,MOSI: 0x00;  MISO: 0xFF
0.128849166666667,SPI,MOSI: 0x00;  MISO: 0xFF
0.128857166666667,SPI,MOSI: 0x00;  MISO: 0xFF
0.128866666666667,SPI,MOSI: 0x00;  MISO: 0xFF
0.128874666666667,SPI,MOSI: 0x00;  MISO: 0xFF
0.128884166666667,SPI,MOSI: 0x00;  MISO: 0xFF
0.128892166666667,SPI,MOSI: 0x00;  MISO: 0xFF
0.128901666666667,SPI,MOSI: 0x00;  MISO: 0xFF
0.128909666666667,SPI,MOSI: 0x00;  MISO: 0xFF
0.128919166666667,SPI,MOSI: 0x00;  MISO: 0xFF
0.128927166666667,SPI,MOSI: 0x00;  MISO: 0xFF
0.128936666666667,SPI,MOSI: 0x00;  MISO: 0xFF
0.128944666666667,SPI,MOSI: 0x00;  MISO: 0xFF
0.128954166666667,SPI,MOSI: 0x00;  MISO: 0xFF
0.128962166666667,SPI,MOSI: 0x00;  MISO: 0xFF
0.128971666666667,SPI,MOSI: 0x00;  MISO: 0xFF
0.128979666666667,SPI,MOSI: 0x00;  MISO: 0xFF
0.128989166666667,SPI,MOSI: 0x00;  MISO: 0xFF
0.128997166666667,SPI,MOSI: 0x00;  MISO: 0xFF
0.129006666666667,SPI,MOSI: 0x00;  MISO: 0xFF
0.129014666666667,SPI,MOSI: 0x00;  MISO: 0xFF
0.129024166666667,SPI,MOSI: 0x00;  MISO: 0xFF
0.129032166666667,SPI,MOSI: 0x00;  MISO: 0xFF
0.129041666666667,SPI,MOSI: 0x00;  MISO: 0xFF
0.129049666666667,SPI,MOSI: 0x00;  MISO: 0xFF
0.129059166666667,SPI,MOSI: 0x00;  MISO: 0xFF
0.129067166666667,SPI,MOSI: 0x00;  MISO: 0xFF
0.129076666666667,SPI,MOSI: 0x00;  MISO: 0xFF
0.129084666666667,SPI,MOSI: 0x00;  MISO: 0xFF
0.129094166666667,SPI,MOSI: 0x00;  MISO: 0xFF
0.129102166666667,SPI,MOSI: 0x00;  MISO: 0xFF
0.129111666666667,SPI,MOSI: 0x00;  MISO: 0xFF
0.129119666666667,SPI,MOSI: 0x00;  MISO: 0xFF
0.129129166666667,SPI,MOSI: 0x00;  MISO: 0xFF
0.129137166666667,SPI,MOSI: 0x00;  MISO: 0xFF
0.129146666666667,SPI,MOSI: 0x00;  MISO: 0xFF
0.129154666666667,SPI,MOSI: 0x00;  MISO: 0xFF
0.129164166666667,SPI,MOSI: 0x00;  MISO: 0xFF
0.129172166666667,SPI,MOSI: 0x00;  MISO: 0xFF
0.129181666666667,SPI,MOSI: 0x00;  MISO: 0xFF
0.129189666666667,SPI,MOSI: 0x00;  MISO: 0xFF
0.129199166666667,SPI,MOSI: 0x00;  MISO: 0xFF
0.129207166666667,SPI,MOSI: 0x00;  MISO: 0xFF
0.129216666666667,SPI,MOSI: 0x00;  MISO: 0xFF
0.129224666666667,SPI,MOSI: 0x00;  MISO: 0xFF
0.129234166666667,SPI,MOSI: 0x00;  MISO: 0xFF
0.129242166666667,SPI,MOSI: 0x00;  MISO: 0xFF
0.129251666666667,SPI,MOSI: 0x00;  MISO: 0xFF
0.129259666666667,SPI,MOSI: 0x00;  MISO: 0xFF
0.129269166666667,SPI,MOSI: 0x00;  MISO: 0xFF
0.129277166666667,SPI,MOSI: 0x00;  MISO: 0xFF
0.129286666666667,SPI,MOSI: 0x00;  MISO: 0xFF
0.129294666666667,SPI,MOSI: 0x00;  MISO: 0xFF
0.129335333333333,SPI,MOSI: 0x2A;  MISO: 0xFF
0.129343333333333,SPI,MOSI: 0xD4;  MISO: 0xFF
0.129352833333333,SPI,MOSI: 0x00;  MISO: 0xFF
0.129360833333333,SPI,MOSI: 0x00;  MISO: 0xFF
0.129626500000000,SPI,MOSI: 0x2A;  MISO: 0xFF
0.129634500000000,SPI,MOSI: 0xD4;  MISO: 0xFF
0.129644000000000,SPI,MOSI: 0x00;  MISO: 0xFF
0.129652000000000,SPI,MOSI: 0x00;  MISO: 0xFF
0.129717583333333,SPI,MOSI: 0x2A;  MISO: 0xFF
0.129725583333333,SPI,MOSI: 0xD4;  MISO: 0xFF
0.129735083333333,SPI,MOSI: 0x00;  MISO: 0xFF
0.129743083333333,SPI,MOSI: 0x00;  MISO: 0xFF
0.129773416666667,SPI,MOSI: 0x2A;  MISO: 0xFF
0.129781416666667,SPI,MOSI: 0xD4;  MISO: 0xFF
0.129790916666667,SPI,MOSI: 0x00;  MISO: 0xFF
0.129798916666667,SPI,MOSI: 0x00;  MISO: 0xFF
0.129828791666667,SPI,MOSI: 0x2A;  MISO: 0xFF
0.129836791666667,SPI,MOSI: 0xD4;  MISO: 0xFF
0.129846291666667,SPI,MOSI: 0x00;  MISO: 0xFF
0.129854291666667,SPI,MOSI: 0x00;  MISO: 0xFF
0.129884041666667,SPI,MOSI: 0x2A;  MISO: 0xFF
0.129892041666667,SPI,MOSI: 0xD4;  MISO: 0xFF
0.129901541666667,SPI,MOSI: 0x00;  MISO: 0xFF
0.129909541666667,SPI,MOSI: 0x00;  MISO: 0xFF
0.129970041666667,SPI,MOSI: 0x2A;  MISO: 0xFF
0.129978041666667,SPI,MOSI: 0xD4;  MISO: 0xFF
0.129987541666667,SPI,MOSI: 0x00;  MISO: 0xFF
0.129995541666667,SPI,MOSI: 0x00;  MISO: 0xFF
0.130027416666667,SPI,MOSI: 0x4E;  MISO: 0xFF
0.130035416666667,SPI,MOSI: 0xC1;  MISO: 0xFF
0.130044916666667,SPI,MOSI: 0x36;  MISO: 0xFF
0.130052916666667,SPI,MOSI: 0x00;  MISO: 0xFF
0.130062416666667,SPI,MOSI: 0x00;  MISO: 0xFF
0.130070416666667,SPI,MOSI: 0x00;  MISO: 0xFF
0.130079916666667,SPI,MOSI: 0x00;  MISO: 0xFF
0.130087916666667,SPI,MOSI: 0x00;  MISO: 0xFF
0.130097416666667,SPI,MOSI: 0x00;  MISO: 0xFF
0.130105416666667,SPI,MOSI: 0x00;  MISO: 0xFF
0.130114916666667,SPI,MOSI: 0x00;  MISO: 0xFF
0.130122916666667,SPI,MOSI: 0x00;  MISO: 0xFF
0.130132416666667,SPI,MOSI: 0x00;  MISO: 0xFF
0.130140416666667,SPI,MOSI: 0x00;  MISO: 0xFF
0.130149916666667,SPI,MOSI: 0x00;  MISO: 0xFF
0.130157916666667,SPI,MOSI: 0x00;  MISO: 0xFF
0.130167416666667,SPI,MOSI: 0x00;  MISO: 0xFF
0.130175416666667,SPI,MOSI: 0x00;  MISO: 0xFF
0.130184916666667,SPI,MOSI: 0x00;  MISO: 0xFF
0.130192916666667,SPI,MOSI: 0x00;  MISO: 0xFF
0.130202416666667,SPI,MOSI: 0x00;  MISO: 0xFF
0.130210416666667,SPI,MOSI: 0x00;  MISO: 0xFF
0.130219916666667,SPI,MOSI: 0x00;  MISO: 0xFF
0.130227916666667,SPI,MOSI: 0x00;  MISO: 0xFF
0.130237416666667,SPI,MOSI: 0x00;  MISO: 0xFF
0.130245416666667,SPI,MOSI: 0x00;  MISO: 0xFF
0.130254916666667,SPI,MOSI: 0x00;  MISO: 0xFF
0.130262916666667,SPI,MOSI: 0x00;  MISO: 0xFF
0.130272416666667,SPI,MOSI: 0x00;  MISO: 0xFF
0.130280416666667,SPI,MOSI: 0x00;  MISO: 0xFF
0.130289916666667,SPI,MOSI: 0x00;  MISO: 0xFF
0.130297916666667,SPI,MOSI: 0x00;  MISO: 0xFF
0.130307416666667,SPI,MOSI: 0x00;  MISO: 0xFF
0.130315416666667,SPI,MOSI: 0x00;  MISO: 0xFF
0.130324916666667,SPI,MOSI: 0x00;  MISO: 0xFF
0.130332916666667,SPI,MOSI: 0x00;  MISO: 0xFF
0.130342416666667,SPI,MOSI: 0x00;  MISO: 0xFF
0.130350416666667,SPI,MOSI: 0x00;  MISO: 0xFF
0.130359958333333,SPI,MOSI: 0x00;  MISO: 0xFF
0.130367916666667,SPI,MOSI: 0x00;  MISO: 0xFF
0.130377458333333,SPI,MOSI: 0x00;  MISO: 0xFF
0.130385458333333,SPI,MOSI: 0x00;  MISO: 0xFF
0.130394916666667,SPI,MOSI: 0x00;  MISO: 0xFF
0.130402958333333,SPI,MOSI: 0x00;  MISO: 0xFF
0.130412458333333,SPI,MOSI: 0x00;  MISO: 0xFF
0.130420458333333,SPI,MOSI: 0x00;  MISO: 0xFF
0.130429958333333,SPI,MOSI: 0x00;  MISO: 0xFF
0.130437916666667,SPI,MOSI: 0x00;  MISO: 0xFF
0.130447458333333,SPI,MOSI: 0x00;  MISO: 0xFF
0.130455416666667,SPI,MOSI: 0x00;  MISO: 0xFF
0.130464958333333,SPI,MOSI: 0x00;  MISO: 0xFF
0.130472958333333,SPI,MOSI: 0x00;  MISO: 0xFF
0.130482458333333,SPI,MOSI: 0x00;  MISO: 0xFF
0.130490458333333,SPI,MOSI: 0x00;  MISO: 0xFF
0.130499916666667,SPI,MOSI: 0x00;  MISO: 0xFF
0.130507958333333,SPI,MOSI: 0x00;  MISO: 0xFF
0.130517416666667,SPI,MOSI: 0x00;  MISO: 0xFF
0.130525458333333,SPI,MOSI: 0x00;  MISO: 0xFF
0.130650833333333,SPI,MOSI: 0x50;  MISO: 0xFF
0.130658833333333,SPI,MOSI: 0xC1;  MISO: 0xFF
0.130668333333333,SPI,MOSI: 0xBE;  MISO: 0xFF
0.130676333333333,SPI,MOSI: 0x00;  MISO: 0xC1
0.130685833333333,SPI,MOSI: 0x00;  MISO: 0xF3
0.130693833333333,SPI,MOSI: 0x00;  MISO: 0x00
0.130703333333333,SPI,MOSI: 0x00;  MISO: 0x00
0.130711333333333,SPI,MOSI: 0x00;  MISO: 0x00
0.130720833333333,SPI,MOSI: 0x00;  MISO: 0x42
0.130728833333333,SPI,MOSI: 0x00;  MISO: 0x17
0.130738333333333,SPI,MOSI: 0x00;  MISO: 0xC1
0.130746333333333,SPI,MOSI: 0x00;  MISO: 0xF3
0.130755833333333,SPI,MOSI: 0x00;  MISO: 0x00
0.130763833333333,SPI,MOSI: 0x00;  MISO: 0x00
0.130773333333333,SPI,MOSI: 0x00;  MISO: 0x00
0.130781333333333,SPI,MOSI: 0x00;  MISO: 0x42
0.130790833333333,SPI,MOSI: 0x00;  MISO: 0x17
0.130798833333333,SPI,MOSI: 0x00;  MISO: 0xFF
0.130808333333333,SPI,MOSI: 0x00;  MISO: 0xFF
0.130816333333333,SPI,MOSI: 0x00;  MISO: 0xFF
0.130825833333333,SPI,MOSI: 0x00;  MISO: 0xFF
0.130833833333333,SPI,MOSI: 0x00;  MISO: 0xFF
0.130843333333333,SPI,MOSI: 0x00;  MISO: 0xFF
0.130851333333333,SPI,MOSI: 0x00;  MISO: 0xFF
0.130860833333333,SPI,MOSI: 0x00;  MISO: 0xFF
0.130868833333333,SPI,MOSI: 0x00;  MISO: 0xFF
0.130878333333333,SPI,MOSI: 0x00;  MISO: 0xFF
0.130886333333333,SPI,MOSI: 0x00;  MISO: 0xFF
0.130895833333333,SPI,MOSI: 0x00;  MISO: 0xFF
0.130903833333333,SPI,MOSI: 0x00;  MISO: 0xFF
0.130913333333333,SPI,MOSI: 0x00;  MISO: 0xFF
0.130921333333333,SPI,MOSI: 0x00;  MISO: 0xFF
0.130930833333333,SPI,MOSI: 0x00;  MISO: 0xFF
0.130938833333333,SPI,MOSI: 0x00;  MISO: 0xFF
0.130948333333333,SPI,MOSI: 0x00;  MISO: 0xFF
0.130956333333333,SPI,MOSI: 0x00;  MISO: 0xFF
0.130965833333333,SPI,MOSI: 0x00;  MISO: 0xFF
0.130973833333333,SPI,MOSI: 0x00;  MISO: 0xFF
0.130983333333333,SPI,MOSI: 0x00;  MISO: 0xFF
0.130991333333333,SPI,MOSI: 0x00;  MISO: 0xFF
0.131000833333333,SPI,MOSI: 0x00;  MISO: 0xFF
0.131008833333333,SPI,MOSI: 0x00;  MISO: 0xFF
0.131018333333333,SPI,MOSI: 0x00;  MISO: 0xFF
0.131026333333333,SPI,MOSI: 0x00;  MISO: 0xFF
0.131035833333333,SPI,MOSI: 0x00;  MISO: 0xFF
0.131043833333333,SPI,MOSI: 0x00;  MISO: 0xFF
0.131053333333333,SPI,MOSI: 0x00;  MISO: 0xFF
0.131061333333333,SPI,MOSI: 0x00;  MISO: 0xFF
0.131070833333333,SPI,MOSI: 0x00;  MISO: 0xFF
0.131078833333333,SPI,MOSI: 0x00;  MISO: 0xFF
0.131088333333333,SPI,MOSI: 0x00;  MISO: 0xFF
0.131096333333333,SPI,MOSI: 0x00;  MISO: 0xFF
0.131105833333333,SPI,MOSI: 0x00;  MISO: 0xFF
0.131113833333333,SPI,MOSI: 0x00;  MISO: 0xFF
0.131123333333333,SPI,MOSI: 0x00;  MISO: 0xFF
0.131131333333333,SPI,MOSI: 0x00;  MISO: 0xFF
0.131140833333333,SPI,MOSI: 0x00;  MISO: 0xFF
0.131148833333333,SPI,MOSI: 0x00;  MISO: 0xFF
0.131158333333333,SPI,MOSI: 0x00;  MISO: 0xFF
0.131166333333333,SPI,MOSI: 0x00;  MISO: 0xFF
0.131205666666667,SPI,MOSI: 0x2A;  MISO: 0xFF
0.131213666666667,SPI,MOSI: 0xD4;  MISO: 0xFF
0.131223166666667,SPI,MOSI: 0x00;  MISO: 0xFF
0.131231166666667,SPI,MOSI: 0x00;  MISO: 0xFF
0.131261625000000,SPI,MOSI: 0x2A;  MISO: 0xFF
0.131269625000000,SPI,MOSI: 0xD4;  MISO: 0xFF
0.131279125000000,SPI,MOSI: 0x00;  MISO: 0xFF
0.131287125000000,SPI,MOSI: 0x00;  MISO: 0xFF
0.131316791666667,SPI,MOSI: 0x2A;  MISO: 0xFF
0.131324791666667,SPI,MOSI: 0xD4;  MISO: 0xFF
0.131334291666667,SPI,MOSI: 0x00;  MISO: 0xFF
0.131342291666667,SPI,MOSI: 0x00;  MISO: 0xFF
0.131371875000000,SPI,MOSI: 0x2A;  MISO: 0xFF
0.131379875000000,SPI,MOSI: 0xD4;  MISO: 0xFF
0.131389375000000,SPI,MOSI: 0x00;  MISO: 0xFF
0.131397375000000,SPI,MOSI: 0x00;  MISO: 0xFF
0.131640083333333,SPI,MOSI: 0x2A;  MISO: 0xFF
0.131648083333333,SPI,MOSI: 0xD4;  MISO: 0xFF
0.131657583333333,SPI,MOSI: 0x00;  MISO: 0xFF
0.131665583333333,SPI,MOSI: 0x00;  MISO: 0xFF
0.131696875000000,SPI,MOSI: 0x2A;  MISO: 0xFF
0.131704875000000,SPI,MOSI: 0xD4;  MISO: 0xFF
0.131714375000000,SPI,MOSI: 0x00;  MISO: 0xFF
0.131722375000000,SPI,MOSI: 0x00;  MISO: 0xFF
0.131752166666667,SPI,MOSI: 0x2A;  MISO: 0xFF
0.131760166666667,SPI,MOSI: 0xD4;  MISO: 0xFF
0.131769666666667,SPI,MOSI: 0x00;  MISO: 0xFF
0.131777666666667,SPI,MOSI: 0x00;  MISO: 0xFF
0.131841083333333,SPI,MOSI: 0x50;  MISO: 0xFF
0.131849083333333,SPI,MOSI: 0xC1;  MISO: 0xFF
0.131858583333333,SPI,MOSI: 0xBE;  MISO: 0xFF
0.131866583333333,SPI,MOSI: 0x00;  MISO: 0xFF
0.131876083333333,SPI,MOSI: 0x00;  MISO: 0xFF
0.131884083333333,SPI,MOSI: 0x00;  MISO: 0xFF
0.131893583333333,SPI,MOSI: 0x00;  MISO: 0xFF
0.131901583333333,SPI,MOSI: 0x00;  MISO: 0xFF
0.131911083333333,SPI,MOSI: 0x00;  MISO: 0xFF
0.131919083333333,SPI,MOSI: 0x00;  MISO: 0xFF
0.131928583333333,SPI,MOSI: 0x00;  MISO: 0xFF
0.131936583333333,SPI,MOSI: 0x00;  MISO: 0xFF
0.131946083333333,SPI,MOSI: 0x00;  MISO: 0xFF
0.131954083333333,SPI,MOSI: 0x00;  MISO: 0xFF
0.131963583333333,SPI,MOSI: 0x00;  MISO: 0xFF
0.131971583333333,SPI,MOSI: 0x00;  MISO: 0xFF
0.131981083333333,SPI,MOSI: 0x00;  MISO: 0xFF
0.131989083333333,SPI,MOSI: 0x00;  MISO: 0xFF
0.131998583333333,SPI,MOSI: 0x00;  MISO: 0xFF
0.132006583333333,SPI,MOSI: 0x00;  MISO: 0xFF
0.132016083333333,SPI,MOSI: 0x00;  MISO: 0xFF
0.132024083333333,SPI,MOSI: 0x00;  MISO: 0xFF
0.132033583333333,SPI,MOSI: 0x00;  MISO: 0xFF
0.132041583333333,SPI,MOSI: 0x00;  MISO: 0xFF
0.132051083333333,SPI,MOSI: 0x00;  MISO: 0xFF
0.132059083333333,SPI,MOSI: 0x00;  MISO: 0xFF
0.132068583333333,SPI,MOSI: 0x00;  MISO: 0xFF
0.132076583333333,SPI,MOSI: 0x00;  MISO: 0xFF
0.132086083333333,SPI,MOSI: 0x00;  MISO: 0xFF
0.132094083333333,SPI,MOSI: 0x00;  MISO: 0xFF
0.132103583333333,SPI,MOSI: 0x00;  MISO: 0xFF
0.132111583333333,SPI,MOSI: 0x00;  MISO: 0xFF
0.132121083333333,SPI,MOSI: 0x00;  MISO: 0xFF
0.132129083333333,SPI,MOSI: 0x00;  MISO: 0xFF
0.132138583333333,SPI,MOSI: 0x00;  MISO: 0xFF
0.132146583333333,SPI,MOSI: 0x00;  MISO: 0xFF
0.132156083333333,SPI,MOSI: 0x00;  MISO: 0xFF
0.132164083333333,SPI,MOSI: 0x00;  MISO: 0xFF
0.132173583333333,SPI,MOSI: 0x00;  MISO: 0xFF
0.132181583333333,SPI,MOSI: 0x00;  MISO: 0xFF
0.132191083333333,SPI,MOSI: 0x00;  MISO: 0xFF
0.132199083333333,SPI,MOSI: 0x00;  MISO: 0xFF
0.132208583333333,SPI,MOSI: 0x00;  MISO: 0xFF
0.132216583333333,SPI,MOSI: 0x00;  MISO: 0xFF
0.132226083333333,SPI,MOSI: 0x00;  MISO: 0xFF
0.132234083333333,SPI,MOSI: 0x00;  MISO: 0xFF
0.132267041666667,SPI,MOSI: 0x2B;  MISO: 0xFF
0.132275041666667,SPI,MOSI: 0xFB;  MISO: 0xFF
0.132305208333333,SPI,MOSI: 0x2B;  MISO: 0xFF
0.132313250000000,SPI,MOSI: 0xFB;  MISO: 0xFF
0.132345583333333,SPI,MOSI: 0x4F;  MISO: 0xFF
0.132353583333333,SPI,MOSI: 0xC1;  MISO: 0xFF
0.132363083333333,SPI,MOSI: 0xDF;  MISO: 0xFF
0.132371083333333,SPI,MOSI: 0x00;  MISO: 0xC1
0.132380583333333,SPI,MOSI: 0x00;  MISO: 0xFF
0.132388583333333,SPI,MOSI: 0x00;  MISO: 0x40
0.132398083333333,SPI,MOSI: 0x00;  MISO: 0xC0
0.132406083333333,SPI,MOSI: 0x00;  MISO: 0xA6
0.132415583333333,SPI,MOSI: 0x00;  MISO: 0xB3
0.132423583333333,SPI,MOSI: 0x00;  MISO: 0xCF
0.132433083333333,SPI,MOSI: 0x00;  MISO: 0xC1
0.132441083333333,SPI,MOSI: 0x00;  MISO: 0xFF
0.132450583333333,SPI,MOSI: 0x00;  MISO: 0x40
0.132458583333333,SPI,MOSI: 0x00;  MISO: 0xC0
0.132468083333333,SPI,MOSI: 0x00;  MISO: 0x75
0.132476083333333,SPI,MOSI: 0x00;  MISO: 0xA6
0.132485583333333,SPI,MOSI: 0x00;  MISO: 0x88
0.132493583333333,SPI,MOSI: 0x00;  MISO: 0xFF
0.132503083333333,SPI,MOSI: 0x00;  MISO: 0xFF
0.132511083333333,SPI,MOSI: 0x00;  MISO: 0xFF
0.132520583333333,SPI,MOSI: 0x00;  MISO: 0xFF
0.132528583333333,SPI,MOSI: 0x00;  MISO: 0xFF
0.132538083333333,SPI,MOSI: 0x00;  MISO: 0xFF
0.132546083333333,SPI,MOSI: 0x00;  MISO: 0xFF
0.132555583333333,SPI,MOSI: 0x00;  MISO: 0xFF
0.132563583333333,SPI,MOSI: 0x00;  MISO: 0xFF
0.132573083333333,SPI,MOSI: 0x00;  MISO: 0xFF
0.132581083333333,SPI,MOSI: 0x00;  MISO: 0xFF
0.132590583333333,SPI,MOSI: 0x00;  MISO: 0xFF
0.132598583333333,SPI,MOSI: 0x00;  MISO: 0xFF
0.132608083333333,SPI,MOSI: 0x00;  MISO: 0xFF
0.132616083333333,SPI,MOSI: 0x00;  MISO: 0xFF
0.132625583333333,SPI,MOSI: 0x00;  MISO: 0xFF
0.132633583333333,SPI,MOSI: 0x00;  MISO: 0xFF
0.132643083333333,SPI,MOSI: 0x00;  MISO: 0xFF
0.132651083333333,SPI,MOSI: 0x00;  MISO: 0xFF
0.132660583333333,SPI,MOSI: 0x00;  MISO: 0xFF
0.132668583333333,SPI,MOSI: 0x00;  MISO: 0xFF
0.132678083333333,SPI,MOSI: 0x00;  MISO: 0xFF
0.132686083333333,SPI,MOSI: 0x00;  MISO: 0xFF
0.132695583333333,SPI,MOSI: 0x00;  MISO: 0xFF
0.132703583333333,SPI,MOSI: 0x00;  MISO: 0xFF
0.132713083333333,SPI,MOSI: 0x00;  MISO: 0xFF
0.132721083333333,SPI,MOSI: 0x00;  MISO: 0xFF
0.132730583333333,SPI,MOSI: 0x00;  MISO: 0xFF
0.132738583333333,SPI,MOSI: 0x00;  MISO: 0xFF
0.132748083333333,SPI,MOSI: 0x00;  MISO: 0xFF
0.132756083333333,SPI,MOSI: 0x00;  MISO: 0xFF
0.132765583333333,SPI,MOSI: 0x00;  MISO: 0xFF
0.132773583333333,SPI,MOSI: 0x00;  MISO: 0xFF
0.132783083333333,SPI,MOSI: 0x00;  MISO: 0xFF
0.132791083333333,SPI,MOSI: 0x00;  MISO: 0xFF
0.132800583333333,SPI,MOSI: 0x00;  MISO: 0xFF
0.132808583333333,SPI,MOSI: 0x00;  MISO: 0xFF
0.132818083333333,SPI,MOSI: 0x00;  MISO: 0xFF
0.132826083333333,SPI,MOSI: 0x00;  MISO: 0xFF
0.132835583333333,SPI,MOSI: 0x00;  MISO: 0xFF
0.132843583333333,SPI,MOSI: 0x00;  MISO: 0xFF
0.132853083333333,SPI,MOSI: 0x00;  MISO: 0xFF
0.132861083333333,SPI,MOSI: 0x00;  MISO: 0xFF
0.132901500000000,SPI,MOSI: 0x2A;  MISO: 0xFF
0.132909500000000,SPI,MOSI: 0xD4;  MISO: 0xFF
0.132919000000000,SPI,MOSI: 0x00;  MISO: 0xFF
0.132927000000000,SPI,MOSI: 0x00;  MISO: 0xFF
0.132957375000000,SPI,MOSI: 0x2A;  MISO: 0xFF
0.132965375000000,SPI,MOSI: 0xD4;  MISO: 0xFF
0.132974875000000,SPI,MOSI: 0x00;  MISO: 0xFF
0.132982875000000,SPI,MOSI: 0x00;  MISO: 0xFF
0.133012666666667,SPI,MOSI: 0x2A;  MISO: 0xFF
0.133020666666667,SPI,MOSI: 0xD4;  MISO: 0xFF
0.133030166666667,SPI,MOSI: 0x00;  MISO: 0xFF
0.133038166666667,SPI,MOSI: 0x00;  MISO: 0xFF
0.133067833333333,SPI,MOSI: 0x2A;  MISO: 0xFF
0.133075833333333,SPI,MOSI: 0xD4;  MISO: 0xFF
0.133085333333333,SPI,MOSI: 0x00;  MISO: 0xFF
0.133093333333333,SPI,MOSI: 0x00;  MISO: 0xFF
0.133123125000000,SPI,MOSI: 0x2A;  MISO: 0xFF
0.133131125000000,SPI,MOSI: 0xD4;  MISO: 0xFF
0.133140625000000,SPI,MOSI: 0x00;  MISO: 0xFF
0.133148625000000,SPI,MOSI: 0x00;  MISO: 0xFF
0.133178208333333,SPI,MOSI: 0x2A;  MISO: 0xFF
0.133186208333333,SPI,MOSI: 0xD4;  MISO: 0xFF
0.133195708333333,SPI,MOSI: 0x00;  MISO: 0xFF
0.133203708333333,SPI,MOSI: 0x00;  MISO: 0xFF
0.133233416666667,SPI,MOSI: 0x2A;  MISO: 0xFF
0.133241375000000,SPI,MOSI: 0xD4;  MISO: 0xFF
0.133250916666667,SPI,MOSI: 0x00;  MISO: 0xFF
0.133258875000000,SPI,MOSI: 0x00;  MISO: 0xFF
0.133290708333333,SPI,MOSI: 0x4F;  MISO: 0xFF
0.133298708333333,SPI,MOSI: 0xC1;  MISO: 0xFF
0.133308208333333,SPI,MOSI: 0xDF;  MISO: 0xFF
0.133316208333333,SPI,MOSI: 0x00;  MISO: 0xFF
0.133325708333333,SPI,MOSI: 0x00;  MISO: 0xFF
0.133333708333333,SPI,MOSI: 0x00;  MISO: 0xFF
0.133343208333333,SPI,MOSI: 0x00;  MISO: 0xFF
0.133351208333333,SPI,MOSI: 0x00;  MISO: 0xFF
0.133360708333333,SPI,MOSI: 0x00;  MISO: 0xFF
0.133368708333333,SPI,MOSI: 0x00;  MISO: 0xFF
0.133378208333333,SPI,MOSI: 0x00;  MISO: 0xFF
0.133386250000000,SPI,MOSI: 0x00;  MISO: 0xFF
0.133395708333333,SPI,MOSI: 0x00;  MISO: 0xFF
0.133403708333333,SPI,MOSI: 0x00;  MISO: 0xFF
0.133413208333333,SPI,MOSI: 0x00;  MISO: 0xFF
0.133421208333333,SPI,MOSI: 0x00;  MISO: 0xFF
0.133430750000000,SPI,MOSI: 0x00;  MISO: 0xFF
0.133438708333333,SPI,MOSI: 0x00;  MISO: 0xFF
0.133448250000000,SPI,MOSI: 0x00;  MISO: 0xFF
0.133456250000000,SPI,MOSI: 0x00;  MISO: 0xFF
0.133465708333333,SPI,MOSI: 0x00;  MISO: 0xFF
0.133473750000000,SPI,MOSI: 0x00;  MISO: 0xFF
0.133483250000000,SPI,MOSI: 0x00;  MISO: 0xFF
0.133491250000000,SPI,MOSI: 0x00;  MISO: 0xFF
0.133500750000000,SPI,MOSI: 0x00;  MISO: 0xFF
0.133508708333333,SPI,MOSI: 0x00;  MISO: 0xFF
0.133518250000000,SPI,MOSI: 0x00;  MISO: 0xFF
0.133526250000000,SPI,MOSI: 0x00;  MISO: 0xFF
0.133535750000000,SPI,MOSI: 0x00;  MISO: 0xFF
0.133543750000000,SPI,MOSI: 0x00;  MISO: 0xFF
0.133553208333333,SPI,MOSI: 0x00;  MISO: 0xFF
0.133561250000000,SPI,MOSI: 0x00;  MISO: 0xFF
0.133570750000000,SPI,MOSI: 0x00;  MISO: 0xFF
0.133578750000000,SPI,MOSI: 0x00;  MISO: 0xFF
0.133588250000000,SPI,MOSI: 0x00;  MISO: 0xFF
0.133596250000000,SPI,MOSI: 0x00;  MISO: 0xFF
0.133605750000000,SPI,MOSI: 0x00;  MISO: 0xFF
0.133613708333333,SPI,MOSI: 0x00;  MISO: 0xFF
0.133623250000000,SPI,MOSI: 0x00;  MISO: 0xFF
0.133631250000000,SPI,MOSI: 0x00;  MISO: 0xFF
0.133640750000000,SPI,MOSI: 0x00;  MISO: 0xFF
0.133648750000000,SPI,MOSI: 0x00;  MISO: 0xFF
0.133658250000000,SPI,MOSI: 0x00;  MISO: 0xFF
0.133666250000000,SPI,MOSI: 0x00;  MISO: 0xFF
0.133675750000000,SPI,MOSI: 0x00;  MISO: 0xFF
0.133683750000000,SPI,MOSI: 0x00;  MISO: 0xFF
0.133720000000000,SPI,MOSI: 0x47;  MISO: 0xFF
0.133728000000000,SPI,MOSI: 0xC1;  MISO: 0xFF
0.133737500000000,SPI,MOSI: 0x5A;  MISO: 0xFF
0.133745500000000,SPI,MOSI: 0x00;  MISO: 0xC1
0.133755000000000,SPI,MOSI: 0x00;  MISO: 0x6B
0.133763000000000,SPI,MOSI: 0x00;  MISO: 0x9F
0.133772500000000,SPI,MOSI: 0x00;  MISO: 0xBC
0.133780500000000,SPI,MOSI: 0x00;  MISO: 0x9F
0.133790000000000,SPI,MOSI: 0x00;  MISO: 0xC7
0.133798000000000,SPI,MOSI: 0x00;  MISO: 0x9F
0.133807500000000,SPI,MOSI: 0x00;  MISO: 0x9B
0.133815500000000,SPI,MOSI: 0x00;  MISO: 0x1B
0.133825000000000,SPI,MOSI: 0x00;  MISO: 0xC1
0.133833000000000,SPI,MOSI: 0x00;  MISO: 0x71
0.133842500000000,SPI,MOSI: 0x00;  MISO: 0x12
0.133850500000000,SPI,MOSI: 0x00;  MISO: 0xFF
0.133860000000000,SPI,MOSI: 0x00;  MISO: 0xFF
0.133868000000000,SPI,MOSI: 0x00;  MISO: 0xCA
0.133877500000000,SPI,MOSI: 0x00;  MISO: 0x9F
0.133885500000000,SPI,MOSI: 0x00;  MISO: 0xAE
0.133895000000000,SPI,MOSI: 0x00;  MISO: 0x52
0.133903000000000,SPI,MOSI: 0x00;  MISO: 0xFF
0.133912500000000,SPI,MOSI: 0x00;  MISO: 0xFF
0.133920500000000,SPI,MOSI: 0x00;  MISO: 0xFF
0.133930000000000,SPI,MOSI: 0x00;  MISO: 0xFF
0.133938000000000,SPI,MOSI: 0x00;  MISO: 0xFF
0.133947500000000,SPI,MOSI: 0x00;  MISO: 0xFF
0.133955500000000,SPI,MOSI: 0x00;  MISO: 0xFF
0.133965000000000,SPI,MOSI: 0x00;  MISO: 0xFF
0.133973000000000,SPI,MOSI: 0x00;  MISO: 0xFF
0.133982500000000,SPI,MOSI: 0x00;  MISO: 0xFF
0.133990500000000,SPI,MOSI: 0x00;  MISO: 0xFF
0.134000000000000,SPI,MOSI: 0x00;  MISO: 0xFF
0.134008000000000,SPI,MOSI: 0x00;  MISO: 0xFF
0.134017500000000,SPI,MOSI: 0x00;  MISO: 0xFF
0.134025500000000,SPI,MOSI: 0x00;  MISO: 0xFF
0.134035000000000,SPI,MOSI: 0x00;  MISO: 0xFF
0.134043000000000,SPI,MOSI: 0x00;  MISO: 0xFF
0.134052500000000,SPI,MOSI: 0x00;  MISO: 0xFF
0.134060500000000,SPI,MOSI: 0x00;  MISO: 0xFF
0.134070000000000,SPI,MOSI: 0x00;  MISO: 0xFF
0.134078000000000,SPI,MOSI: 0x00;  MISO: 0xFF
0.134087500000000,SPI,MOSI: 0x00;  MISO: 0xFF
0.134095500000000,SPI,MOSI: 0x00;  MISO: 0xFF
0.134105000000000,SPI,MOSI: 0x00;  MISO: 0xFF
0.134113000000000,SPI,MOSI: 0x00;  MISO: 0xFF
0.134122500000000,SPI,MOSI: 0x00;  MISO: 0xFF
0.134130500000000,SPI,MOSI: 0x00;  MISO: 0xFF
0.134140000000000,SPI,MOSI: 0x00;  MISO: 0xFF
0.134148000000000,SPI,MOSI: 0x00;  MISO: 0xFF
0.134157500000000,SPI,MOSI: 0x00;  MISO: 0xFF
0.134165500000000,SPI,MOSI: 0x00;  MISO: 0xFF
0.134175000000000,SPI,MOSI: 0x00;  MISO: 0xFF
0.134183000000000,SPI,MOSI: 0x00;  MISO: 0xFF
0.134192500000000,SPI,MOSI: 0x00;  MISO: 0xFF
0.134200541666667,SPI,MOSI: 0x00;  MISO: 0xFF
0.134210000000000,SPI,MOSI: 0x00;  MISO: 0xFF
0.134218041666667,SPI,MOSI: 0x00;  MISO: 0xFF
0.134227500000000,SPI,MOSI: 0x00;  MISO: 0xFF
0.134235541666667,SPI,MOSI: 0x00;  MISO: 0xFF
0.134245000000000,SPI,MOSI: 0x00;  MISO: 0xFF
0.134253041666667,SPI,MOSI: 0x00;  MISO: 0xFF
0.134262500000000,SPI,MOSI: 0x00;  MISO: 0xFF
0.134270541666667,SPI,MOSI: 0x00;  MISO: 0xFF
0.134280000000000,SPI,MOSI: 0x00;  MISO: 0xFF
0.134288041666667,SPI,MOSI: 0x00;  MISO: 0xFF
0.134297500000000,SPI,MOSI: 0x00;  MISO: 0xFF
0.134305541666667,SPI,MOSI: 0x00;  MISO: 0xFF
0.134315000000000,SPI,MOSI: 0x00;  MISO: 0xFF
0.134323041666667,SPI,MOSI: 0x00;  MISO: 0xFF
0.134332500000000,SPI,MOSI: 0x00;  MISO: 0xFF
0.134340541666667,SPI,MOSI: 0x00;  MISO: 0xFF
0.134350041666667,SPI,MOSI: 0x00;  MISO: 0xFF
0.134358041666667,SPI,MOSI: 0x00;  MISO: 0xFF
0.134367541666667,SPI,MOSI: 0x00;  MISO: 0xFF
0.134375541666667,SPI,MOSI: 0x00;  MISO: 0xFF
0.135089625000000,SPI,MOSI: 0x2A;  MISO: 0xFF
0.135097625000000,SPI,MOSI: 0xD4;  MISO: 0xFF
0.135107125000000,SPI,MOSI: 0x00;  MISO: 0xFF
0.135115125000000,SPI,MOSI: 0x00;  MISO: 0xFF
0.135145833333333,SPI,MOSI: 0x2A;  MISO: 0xFF
0.135153833333333,SPI,MOSI: 0xD4;  MISO: 0xFF
0.135163333333333,SPI,MOSI: 0x00;  MISO: 0xFF
0.135171333333333,SPI,MOSI: 0x00;  MISO: 0xFF
0.135201125000000,SPI,MOSI: 0x2A;  MISO: 0xFF
0.135209125000000,SPI,MOSI: 0xD4;  MISO: 0xFF
0.135218625000000,SPI,MOSI: 0x00;  MISO: 0xFF
0.135226625000000,SPI,MOSI: 0x00;  MISO: 0xFF
0.135256333333333,SPI,MOSI: 0x2A;  MISO: 0xFF
0.135264333333333,SPI,MOSI: 0xD4;  MISO: 0xFF
0.135273833333333,SPI,MOSI: 0x00;  MISO: 0xFF
0.135281833333333,SPI,MOSI: 0x00;  MISO: 0xFF
0.135367208333333,SPI,MOSI: 0x2A;  MISO: 0xFF
0.135375208333333,SPI,MOSI: 0xD4;  MISO: 0xFF
0.135384708333333,SPI,MOSI: 0x00;  MISO: 0xFF
0.135392708333333,SPI,MOSI: 0x00;  MISO: 0xFF
0.135630791666667,SPI,MOSI: 0x2A;  MISO: 0xFF
0.135638791666667,SPI,MOSI: 0xD4;  MISO: 0xFF
0.135648291666667,SPI,MOSI: 0x00;  MISO: 0xFF
0.135656291666667,SPI,MOSI: 0x00;  MISO: 0xFF
0.135687083333333,SPI,MOSI: 0x2A;  MISO: 0xFF
0.135695083333333,SPI,MOSI: 0xD4;  MISO: 0xFF
0.135704583333333,SPI,MOSI: 0x00;  MISO: 0xFF
0.135712583333333,SPI,MOSI: 0x00;  MISO: 0xFF
0.135755333333333,SPI,MOSI: 0x47;  MISO: 0xFF
0.135763333333333,SPI,MOSI: 0xC1;  MISO: 0xFF
0.135772833333333,SPI,MOSI: 0x5A;  MISO: 0xFF
0.135780833333333,SPI,MOSI: 0x00;  MISO: 0xFF
0.135790333333333,SPI,MOSI: 0x00;  MISO: 0xFF
0.135798333333333,SPI,MOSI: 0x00;  MISO: 0xFF
0.135807833333333,SPI,MOSI: 0x00;  MISO: 0xFF
0.135815833333333,SPI,MOSI: 0x00;  MISO: 0xFF
0.135825333333333,SPI,MOSI: 0x00;  MISO: 0xFF
0.135833333333333,SPI,MOSI: 0x00;  MISO: 0xFF
0.135842833333333,SPI,MOSI: 0x00;  MISO: 0xFF
0.135850833333333,SPI,MOSI: 0x00;  MISO: 0xFF
0.135860333333333,SPI,MOSI: 0x00;  MISO: 0xFF
0.135868333333333,SPI,MOSI: 0x00;  MISO: 0xFF
0.135877833333333,SPI,MOSI: 0x00;  MISO: 0xFF
0.135885833333333,SPI,MOSI: 0x00;  MISO: 0xFF
0.135895333333333,SPI,MOSI: 0x00;  MISO: 0xFF
0.135903333333333,SPI,MOSI: 0x00;  MISO: 0xFF
0.135912833333333,SPI,MOSI: 0x00;  MISO: 0xFF
0.135920833333333,SPI,MOSI: 0x00;  MISO: 0xFF
0.135930333333333,SPI,MOSI: 0x00;  MISO: 0xFF
0.135938333333333,SPI,MOSI: 0x00;  MISO: 0xFF
0.135947833333333,SPI,MOSI: 0x00;  MISO: 0xFF
0.135955833333333,SPI,MOSI: 0x00;  MISO: 0xFF
0.135965333333333,SPI,MOSI: 0x00;  MISO: 0xFF
0.135973333333333,SPI,MOSI: 0x00;  MISO: 0xFF
0.135982833333333,SPI,MOSI: 0x00;  MISO: 0xFF
0.135990833333333,SPI,MOSI: 0x00;  MISO: 0xFF
0.136000333333333,SPI,MOSI: 0x00;  MISO: 0xFF
0.136008333333333,SPI,MOSI: 0x00;  MISO: 0xFF
0.136017833333333,SPI,MOSI: 0x00;  MISO: 0xFF
0.136025833333333,SPI,MOSI: 0x00;  MISO: 0xFF
0.136035333333333,SPI,MOSI: 0x00;  MISO: 0xFF
0.136043333333333,SPI,MOSI: 0x00;  MISO: 0xFF
0.136052833333333,SPI,MOSI: 0x00;  MISO: 0xFF
0.136060833333333,SPI,MOSI: 0x00;  MISO: 0xFF
0.136070333333333,SPI,MOSI: 0x00;  MISO: 0xFF
0.136078333333333,SPI,MOSI: 0x00;  MISO: 0xFF
0.136087833333333,SPI,MOSI: 0x00;  MISO: 0xFF
0.136095833333333,SPI,MOSI: 0x00;  MISO: 0xFF
0.136105333333333,SPI,MOSI: 0x00;  MISO: 0xFF
0.136113333333333,SPI,MOSI: 0x00;  MISO: 0xFF
0.136122833333333,SPI,MOSI: 0x00;  MISO: 0xFF
0.136130833333333,SPI,MOSI: 0x00;  MISO: 0xFF
0.136140333333333,SPI,MOSI: 0x00;  MISO: 0xFF
0.136148333333333,SPI,MOSI: 0x00;  MISO: 0xFF
0.136157833333333,SPI,MOSI: 0x00;  MISO: 0xFF
0.136165833333333,SPI,MOSI: 0x00;  MISO: 0xFF
0.136175333333333,SPI,MOSI: 0x00;  MISO: 0xFF
0.136183333333333,SPI,MOSI: 0x00;  MISO: 0xFF
0.136192833333333,SPI,MOSI: 0x00;  MISO: 0xFF
0.136200833333333,SPI,MOSI: 0x00;  MISO: 0xFF
0.136210333333333,SPI,MOSI: 0x00;  MISO: 0xFF
0.136218333333333,SPI,MOSI: 0x00;  MISO: 0xFF
0.136227833333333,SPI,MOSI: 0x00;  MISO: 0xFF
0.136235833333333,SPI,MOSI: 0x00;  MISO: 0xFF
0.136245333333333,SPI,MOSI: 0x00;  MISO: 0xFF
0.136253333333333,SPI,MOSI: 0x00;  MISO: 0xFF
0.136332583333333,SPI,MOSI: 0x48;  MISO: 0xFF
0.136340583333333,SPI,MOSI: 0xC1;  MISO: 0xFF
0.136350083333333,SPI,MOSI: 0x1E;  MISO: 0xFF
0.136358083333333,SPI,MOSI: 0x00;  MISO: 0xC1
0.136367583333333,SPI,MOSI: 0x00;  MISO: 0xE8
0.136375583333333,SPI,MOSI: 0x00;  MISO: 0x9F
0.136385083333333,SPI,MOSI: 0x00;  MISO: 0xC0
0.136393083333333,SPI,MOSI: 0x00;  MISO: 0x9F
0.136402583333333,SPI,MOSI: 0x00;  MISO: 0xE7
0.136410583333333,SPI,MOSI: 0x00;  MISO: 0x9F
0.136420083333333,SPI,MOSI: 0x00;  MISO: 0xB1
0.136428083333333,SPI,MOSI: 0x00;  MISO: 0xAE
0.136437583333333,SPI,MOSI: 0x00;  MISO: 0xC1
0.136445583333333,SPI,MOSI: 0x00;  MISO: 0xC8
0.136455083333333,SPI,MOSI: 0x00;  MISO: 0x9F
0.136463083333333,SPI,MOSI: 0x00;  MISO: 0xBC
0.136472583333333,SPI,MOSI: 0x00;  MISO: 0x9F
0.136480583333333,SPI,MOSI: 0x00;  MISO: 0xD9
0.136490083333333,SPI,MOSI: 0x00;  MISO: 0x9F
0.136498083333333,SPI,MOSI: 0x00;  MISO: 0xA3
0.136507583333333,SPI,MOSI: 0x00;  MISO: 0x31
0.136515583333333,SPI,MOSI: 0x00;  MISO: 0xFF
0.136525083333333,SPI,MOSI: 0x00;  MISO: 0xFF
0.136533083333333,SPI,MOSI: 0x00;  MISO: 0xFF
0.136542583333333,SPI,MOSI: 0x00;  MISO: 0xFF
0.136550583333333,SPI,MOSI: 0x00;  MISO: 0xFF
0.136560083333333,SPI,MOSI: 0x00;  MISO: 0xFF
0.136568083333333,SPI,MOSI: 0x00;  MISO: 0xFF
0.136577583333333,SPI,MOSI: 0x00;  MISO: 0xFF
0.136585583333333,SPI,MOSI: 0x00;  MISO: 0xFF
0.136595083333333,SPI,MOSI: 0x00;  MISO: 0xFF
0.136603083333333,SPI,MOSI: 0x00;  MISO: 0xFF
0.136612583333333,SPI,MOSI: 0x00;  MISO: 0xFF
0.136620583333333,SPI,MOSI: 0x00;  MISO: 0xFF
0.136630083333333,SPI,MOSI: 0x00;  MISO: 0xFF
0.136638083333333,SPI,MOSI: 0x00;  MISO: 0xFF
0.136647583333333,SPI,MOSI: 0x00;  MISO: 0xFF
0.136655583333333,SPI,MOSI: 0x00;  MISO: 0xFF
0.136665083333333,SPI,MOSI: 0x00;  MISO: 0xFF
0.136673083333333,SPI,MOSI: 0x00;  MISO: 0xFF
0.136682583333333,SPI,MOSI: 0x00;  MISO: 0xFF
0.136690583333333,SPI,MOSI: 0x00;  MISO: 0xFF
0.136700083333333,SPI,MOSI: 0x00;  MISO: 0xFF
0.136708083333333,SPI,MOSI: 0x00;  MISO: 0xFF
0.136717583333333,SPI,MOSI: 0x00;  MISO: 0xFF
0.136725583333333,SPI,MOSI: 0x00;  MISO: 0xFF
0.136735083333333,SPI,MOSI: 0x00;  MISO: 0xFF
0.136743083333333,SPI,MOSI: 0x00;  MISO: 0xFF
0.136752583333333,SPI,MOSI: 0x00;  MISO: 0xFF
0.136760583333333,SPI,MOSI: 0x00;  MISO: 0xFF
0.136770083333333,SPI,MOSI: 0x00;  MISO: 0xFF
0.136778083333333,SPI,MOSI: 0x00;  MISO: 0xFF
0.136787583333333,SPI,MOSI: 0x00;  MISO: 0xFF
0.136795583333333,SPI,MOSI: 0x00;  MISO: 0xFF
0.136805083333333,SPI,MOSI: 0x00;  MISO: 0xFF
0.136813083333333,SPI,MOSI: 0x00;  MISO: 0xFF
0.136822583333333,SPI,MOSI: 0x00;  MISO: 0xFF
0.136830583333333,SPI,MOSI: 0x00;  MISO: 0xFF
0.136840083333333,SPI,MOSI: 0x00;  MISO: 0xFF
0.136848083333333,SPI,MOSI: 0x00;  MISO: 0xFF
0.136857583333333,SPI,MOSI: 0x00;  MISO: 0xFF
0.136865583333333,SPI,MOSI: 0x00;  MISO: 0xFF
0.136875083333333,SPI,MOSI: 0x00;  MISO: 0xFF
0.136883083333333,SPI,MOSI: 0x00;  MISO: 0xFF
0.136892583333333,SPI,MOSI: 0x00;  MISO: 0xFF
0.136900583333333,SPI,MOSI: 0x00;  MISO: 0xFF
0.136910083333333,SPI,MOSI: 0x00;  MISO: 0xFF
0.136918083333333,SPI,MOSI: 0x00;  MISO: 0xFF
0.136927583333333,SPI,MOSI: 0x00;  MISO: 0xFF
0.136935583333333,SPI,MOSI: 0x00;  MISO: 0xFF
0.136945083333333,SPI,MOSI: 0x00;  MISO: 0xFF
0.136953083333333,SPI,MOSI: 0x00;  MISO: 0xFF
0.136962583333333,SPI,MOSI: 0x00;  MISO: 0xFF
0.136970583333333,SPI,MOSI: 0x00;  MISO: 0xFF
0.136980083333333,SPI,MOSI: 0x00;  MISO: 0xFF
0.136988083333333,SPI,MOSI: 0x00;  MISO: 0xFF
0.137071750000000,SPI,MOSI: 0x2A;  MISO: 0xFF
0.137079750000000,SPI,MOSI: 0xD4;  MISO: 0xFF
0.137089250000000,SPI,MOSI: 0x00;  MISO: 0xFF
0.137097250000000,SPI,MOSI: 0x00;  MISO: 0xFF
0.137127666666667,SPI,MOSI: 0x2A;  MISO: 0xFF
0.137135666666667,SPI,MOSI: 0xD4;  MISO: 0xFF
0.137145166666667,SPI,MOSI: 0x00;  MISO: 0xFF
0.137153166666667,SPI,MOSI: 0x00;  MISO: 0xFF
0.137182750000000,SPI,MOSI: 0x2A;  MISO: 0xFF
0.137190750000000,SPI,MOSI: 0xD4;  MISO: 0xFF
0.137200250000000,SPI,MOSI: 0x00;  MISO: 0xFF
0.137208250000000,SPI,MOSI: 0x00;  MISO: 0xFF
0.137237750000000,SPI,MOSI: 0x2A;  MISO: 0xFF
0.137245750000000,SPI,MOSI: 0xD4;  MISO: 0xFF
0.137255250000000,SPI,MOSI: 0x00;  MISO: 0xFF
0.137263250000000,SPI,MOSI: 0x00;  MISO: 0xFF
0.137324083333333,SPI,MOSI: 0x2A;  MISO: 0xFF
0.137332041666667,SPI,MOSI: 0xD4;  MISO: 0xFF
0.137341583333333,SPI,MOSI: 0x00;  MISO: 0xFF
0.137349583333333,SPI,MOSI: 0x00;  MISO: 0xFF
0.137639333333333,SPI,MOSI: 0x2A;  MISO: 0xFF
0.137647333333333,SPI,MOSI: 0xD4;  MISO: 0xFF
0.137656833333333,SPI,MOSI: 0x00;  MISO: 0xFF
0.137664833333333,SPI,MOSI: 0x00;  MISO: 0xFF
0.137696000000000,SPI,MOSI: 0x2A;  MISO: 0xFF
0.137704000000000,SPI,MOSI: 0xD4;  MISO: 0xFF
0.137713500000000,SPI,MOSI: 0x00;  MISO: 0xFF
0.137721500000000,SPI,MOSI: 0x00;  MISO: 0xFF
0.137753125000000,SPI,MOSI: 0x48;  MISO: 0xFF
0.137761125000000,SPI,MOSI: 0xC1;  MISO: 0xFF
0.137770625000000,SPI,MOSI: 0x1E;  MISO: 0xFF
0.137778625000000,SPI,MOSI: 0x00;  MISO: 0xFF
0.137788125000000,SPI,MOSI: 0x00;  MISO: 0xFF
0.137796125000000,SPI,MOSI: 0x00;  MISO: 0xFF
0.137805625000000,SPI,MOSI: 0x00;  MISO: 0xFF
0.137813625000000,SPI,MOSI: 0x00;  MISO: 0xFF
0.137823125000000,SPI,MOSI: 0x00;  MISO: 0xFF
0.137831125000000,SPI,MOSI: 0x00;  MISO: 0xFF
0.137840625000000,SPI,MOSI: 0x00;  MISO: 0xFF
0.137848625000000,SPI,MOSI: 0x00;  MISO: 0xFF
0.137858125000000,SPI,MOSI: 0x00;  MISO: 0xFF
0.137866125000000,SPI,MOSI: 0x00;  MISO: 0xFF
0.137875625000000,SPI,MOSI: 0x00;  MISO: 0xFF
0.137883625000000,SPI,MOSI: 0x00;  MISO: 0xFF
0.137893125000000,SPI,MOSI: 0x00;  MISO: 0xFF
0.137901125000000,SPI,MOSI: 0x00;  MISO: 0xFF
0.137910625000000,SPI,MOSI: 0x00;  MISO: 0xFF
0.137918625000000,SPI,MOSI: 0x00;  MISO: 0xFF
0.137928125000000,SPI,MOSI: 0x00;  MISO: 0xFF
0.137936125000000,SPI,MOSI: 0x00;  MISO: 0xFF
0.137945625000000,SPI,MOSI: 0x00;  MISO: 0xFF
0.137953625000000,SPI,MOSI: 0x00;  MISO: 0xFF
0.137963125000000,SPI,MOSI: 0x00;  MISO: 0xFF
0.137971125000000,SPI,MOSI: 0x00;  MISO: 0xFF
0.137980625000000,SPI,MOSI: 0x00;  MISO: 0xFF
0.137988625000000,SPI,MOSI: 0x00;  MISO: 0xFF
0.137998125000000,SPI,MOSI: 0x00;  MISO: 0xFF
0.138006125000000,SPI,MOSI: 0x00;  MISO: 0xFF
0.138015625000000,SPI,MOSI: 0x00;  MISO: 0xFF
0.138023625000000,SPI,MOSI: 0x00;  MISO: 0xFF
0.138033125000000,SPI,MOSI: 0x00;  MISO: 0xFF
0.138041125000000,SPI,MOSI: 0x00;  MISO: 0xFF
0.138050625000000,SPI,MOSI: 0x00;  MISO: 0xFF
0.138058625000000,SPI,MOSI: 0x00;  MISO: 0xFF
0.138068125000000,SPI,MOSI: 0x00;  MISO: 0xFF
0.138076125000000,SPI,MOSI: 0x00;  MISO: 0xFF
0.138085625000000,SPI,MOSI: 0x00;  MISO: 0xFF
0.138093625000000,SPI,MOSI: 0x00;  MISO: 0xFF
0.138103125000000,SPI,MOSI: 0x00;  MISO: 0xFF
0.138111125000000,SPI,MOSI: 0x00;  MISO: 0xFF
0.138120625000000,SPI,MOSI: 0x00;  MISO: 0xFF
0.138128625000000,SPI,MOSI: 0x00;  MISO: 0xFF
0.138138125000000,SPI,MOSI: 0x00;  MISO: 0xFF
0.138146125000000,SPI,MOSI: 0x00;  MISO: 0xFF
0.138155625000000,SPI,MOSI: 0x00;  MISO: 0xFF
0.138163625000000,SPI,MOSI: 0x00;  MISO: 0xFF
0.138173125000000,SPI,MOSI: 0x00;  MISO: 0xFF
0.138181125000000,SPI,MOSI: 0x00;  MISO: 0xFF
0.138190625000000,SPI,MOSI: 0x00;  MISO: 0xFF
0.138198625000000,SPI,MOSI: 0x00;  MISO: 0xFF
0.138208125000000,SPI,MOSI: 0x00;  MISO: 0xFF
0.138216125000000,SPI,MOSI: 0x00;  MISO: 0xFF
0.138225625000000,SPI,MOSI: 0x00;  MISO: 0xFF
0.138233625000000,SPI,MOSI: 0x00;  MISO: 0xFF
0.138243125000000,SPI,MOSI: 0x00;  MISO: 0xFF
0.138251125000000,SPI,MOSI: 0x00;  MISO: 0xFF
0.138285208333333,SPI,MOSI: 0x49;  MISO: 0xFF
0.138293208333333,SPI,MOSI: 0xC1;  MISO: 0xFF
0.138302708333333,SPI,MOSI: 0xF7;  MISO: 0xFF
0.138310708333333,SPI,MOSI: 0x00;  MISO: 0xC1
0.138320208333333,SPI,MOSI: 0x00;  MISO: 0xCB
0.138328208333333,SPI,MOSI: 0x00;  MISO: 0x9F
0.138337708333333,SPI,MOSI: 0x00;  MISO: 0xDF
0.138345708333333,SPI,MOSI: 0x00;  MISO: 0x9F
0.138355208333333,SPI,MOSI: 0x00;  MISO: 0x65
0.138363208333333,SPI,MOSI: 0x00;  MISO: 0x9F
0.138372708333333,SPI,MOSI: 0x00;  MISO: 0x92
0.138380708333333,SPI,MOSI: 0x00;  MISO: 0x1F
0.138390208333333,SPI,MOSI: 0x00;  MISO: 0xC1
0.138398208333333,SPI,MOSI: 0x00;  MISO: 0xC8
0.138407708333333,SPI,MOSI: 0x00;  MISO: 0x9F
0.138415708333333,SPI,MOSI: 0x00;  MISO: 0xC9
0.138425208333333,SPI,MOSI: 0x00;  MISO: 0x9F
0.138433208333333,SPI,MOSI: 0x00;  MISO: 0xD0
0.138442708333333,SPI,MOSI: 0x00;  MISO: 0x9F
0.138450708333333,SPI,MOSI: 0x00;  MISO: 0xAD
0.138460208333333,SPI,MOSI: 0x00;  MISO: 0xD3
0.138468208333333,SPI,MOSI: 0x00;  MISO: 0xFF
0.138477708333333,SPI,MOSI: 0x00;  MISO: 0xFF
0.138485708333333,SPI,MOSI: 0x00;  MISO: 0xFF
0.138495208333333,SPI,MOSI: 0x00;  MISO: 0xFF
0.138503208333333,SPI,MOSI: 0x00;  MISO: 0xFF
0.138512708333333,SPI,MOSI: 0x00;  MISO: 0xFF
0.138520708333333,SPI,MOSI: 0x00;  MISO: 0xFF
0.138530208333333,SPI,MOSI: 0x00;  MISO: 0xFF
0.138538208333333,SPI,MOSI: 0x00;  MISO: 0xFF
0.138547708333333,SPI,MOSI: 0x00;  MISO: 0xFF
0.138555708333333,SPI,MOSI: 0x00;  MISO: 0xFF
0.138565208333333,SPI,MOSI: 0x00;  MISO: 0xFF
0.138573208333333,SPI,MOSI: 0x00;  MISO: 0xFF
0.138582708333333,SPI,MOSI: 0x00;  MISO: 0xFF
0.138590708333333,SPI,MOSI: 0x00;  MISO: 0xFF
0.138600208333333,SPI,MOSI: 0x00;  MISO: 0xFF
0.138608208333333,SPI,MOSI: 0x00;  MISO: 0xFF
0.138617708333333,SPI,MOSI: 0x00;  MISO: 0xFF
0.138625708333333,SPI,MOSI: 0x00;  MISO: 0xFF
0.138635208333333,SPI,MOSI: 0x00;  MISO: 0xFF
0.138643208333333,SPI,MOSI: 0x00;  MISO: 0xFF
0.138652708333333,SPI,MOSI: 0x00;  MISO: 0xFF
0.138660708333333,SPI,MOSI: 0x00;  MISO: 0xFF
0.138670208333333,SPI,MOSI: 0x00;  MISO: 0xFF
0.138678208333333,SPI,MOSI: 0x00;  MISO: 0xFF
0.138687708333333,SPI,MOSI: 0x00;  MISO: 0xFF
0.138695708333333,SPI,MOSI: 0x00;  MISO: 0xFF
0.138705208333333,SPI,MOSI: 0x00;  MISO: 0xFF
0.138713208333333,SPI,MOSI: 0x00;  MISO: 0xFF
0.138722708333333,SPI,MOSI: 0x00;  MISO: 0xFF
0.138730708333333,SPI,MOSI: 0x00;  MISO: 0xFF
0.138740208333333,SPI,MOSI: 0x00;  MISO: 0xFF
0.138748208333333,SPI,MOSI: 0x00;  MISO: 0xFF
0.138757708333333,SPI,MOSI: 0x00;  MISO: 0xFF
0.138765708333333,SPI,MOSI: 0x00;  MISO: 0xFF
0.138775208333333,SPI,MOSI: 0x00;  MISO: 0xFF
0.138783208333333,SPI,MOSI: 0x00;  MISO: 0xFF
0.138792708333333,SPI,MOSI: 0x00;  MISO: 0xFF
0.138800708333333,SPI,MOSI: 0x00;  MISO: 0xFF
0.138810208333333,SPI,MOSI: 0x00;  MISO: 0xFF
0.138818208333333,SPI,MOSI: 0x00;  MISO: 0xFF
0.138827708333333,SPI,MOSI: 0x00;  MISO: 0xFF
0.138835708333333,SPI,MOSI: 0x00;  MISO: 0xFF
0.138845208333333,SPI,MOSI: 0x00;  MISO: 0xFF
0.138853208333333,SPI,MOSI: 0x00;  MISO: 0xFF
0.138862708333333,SPI,MOSI: 0x00;  MISO: 0xFF
0.138870708333333,SPI,MOSI: 0x00;  MISO: 0xFF
0.138880208333333,SPI,MOSI: 0x00;  MISO: 0xFF
0.138888208333333,SPI,MOSI: 0x00;  MISO: 0xFF
0.138897708333333,SPI,MOSI: 0x00;  MISO: 0xFF
0.138905708333333,SPI,MOSI: 0x00;  MISO: 0xFF
0.138915208333333,SPI,MOSI: 0x00;  MISO: 0xFF
0.138923208333333,SPI,MOSI: 0x00;  MISO: 0xFF
0.138932708333333,SPI,MOSI: 0x00;  MISO: 0xFF
0.138940708333333,SPI,MOSI: 0x00;  MISO: 0xFF
0.138983541666667,SPI,MOSI: 0x2A;  MISO: 0xFF
0.138991541666667,SPI,MOSI: 0xD4;  MISO: 0xFF
0.139001041666667,SPI,MOSI: 0x00;  MISO: 0xFF
0.139009041666667,SPI,MOSI: 0x00;  MISO: 0xFF
0.139039458333333,SPI,MOSI: 0x2A;  MISO: 0xFF
0.139047458333333,SPI,MOSI: 0xD4;  MISO: 0xFF
0.139056958333333,SPI,MOSI: 0x00;  MISO: 0xFF
0.139064958333333,SPI,MOSI: 0x00;  MISO: 0xFF
0.139094541666667,SPI,MOSI: 0x2A;  MISO: 0xFF
0.139102541666667,SPI,MOSI: 0xD4;  MISO: 0xFF
0.139112041666667,SPI,MOSI: 0x00;  MISO: 0xFF
0.139120041666667,SPI,MOSI: 0x00;  MISO: 0xFF
0.139149666666667,SPI,MOSI: 0x2A;  MISO: 0xFF
0.139157666666667,SPI,MOSI: 0xD4;  MISO: 0xFF
0.139167166666667,SPI,MOSI: 0x00;  MISO: 0xFF
0.139175166666667,SPI,MOSI: 0x00;  MISO: 0xFF
0.139204666666667,SPI,MOSI: 0x2A;  MISO: 0xFF
0.139212666666667,SPI,MOSI: 0xD4;  MISO: 0xFF
0.139222166666667,SPI,MOSI: 0x00;  MISO: 0xFF
0.139230166666667,SPI,MOSI: 0x00;  MISO: 0xFF
0.139259833333333,SPI,MOSI: 0x2A;  MISO: 0xFF
0.139267833333333,SPI,MOSI: 0xD4;  MISO: 0xFF
0.139277333333333,SPI,MOSI: 0x00;  MISO: 0xFF
0.139285333333333,SPI,MOSI: 0x00;  MISO: 0xFF
0.139314916666667,SPI,MOSI: 0x2A;  MISO: 0xFF
0.139322916666667,SPI,MOSI: 0xD4;  MISO: 0xFF
0.139332416666667,SPI,MOSI: 0x00;  MISO: 0xFF
0.139340416666667,SPI,MOSI: 0x00;  MISO: 0xFF
0.139371875000000,SPI,MOSI: 0x49;  MISO: 0xFF
0.139379875000000,SPI,MOSI: 0xC1;  MISO: 0xFF
0.139389375000000,SPI,MOSI: 0xF7;  MISO: 0xFF
0.139397375000000,SPI,MOSI: 0x00;  MISO: 0xFF
0.139406875000000,SPI,MOSI: 0x00;  MISO: 0xFF
0.139414875000000,SPI,MOSI: 0x00;  MISO: 0xFF
0.139424375000000,SPI,MOSI: 0x00;  MISO: 0xFF
0.139432375000000,SPI,MOSI: 0x00;  MISO: 0xFF
0.139441875000000,SPI,MOSI: 0x00;  MISO: 0xFF
0.139449875000000,SPI,MOSI: 0x00;  MISO: 0xFF
0.139459375000000,SPI,MOSI: 0x00;  MISO: 0xFF
0.139467375000000,SPI,MOSI: 0x00;  MISO: 0xFF
0.139476875000000,SPI,MOSI: 0x00;  MISO: 0xFF
0.139484875000000,SPI,MOSI: 0x00;  MISO: 0xFF
0.139494375000000,SPI,MOSI: 0x00;  MISO: 0xFF
0.139502375000000,SPI,MOSI: 0x00;  MISO: 0xFF
0.139511875000000,SPI,MOSI: 0x00;  MISO: 0xFF
0.139519875000000,SPI,MOSI: 0x00;  MISO: 0xFF
0.139529375000000,SPI,MOSI: 0x00;  MISO: 0xFF
0.139537375000000,SPI,MOSI: 0x00;  MISO: 0xFF
0.139546875000000,SPI,MOSI: 0x00;  MISO: 0xFF
0.139554875000000,SPI,MOSI: 0x00;  MISO: 0xFF
0.139564375000000,SPI,MOSI: 0x00;  MISO: 0xFF
0.139572375000000,SPI,MOSI: 0x00;  MISO: 0xFF
0.139581875000000,SPI,MOSI: 0x00;  MISO: 0xFF
0.139589875000000,SPI,MOSI: 0x00;  MISO: 0xFF
0.139599375000000,SPI,MOSI: 0x00;  MISO: 0xFF
0.139607375000000,SPI,MOSI: 0x00;  MISO: 0xFF
0.139616875000000,SPI,MOSI: 0x00;  MISO: 0xFF
0.139624875000000,SPI,MOSI: 0x00;  MISO: 0xFF
0.139634375000000,SPI,MOSI: 0x00;  MISO: 0xFF
0.139642375000000,SPI,MOSI: 0x00;  MISO: 0xFF
0.139651875000000,SPI,MOSI: 0x00;  MISO: 0xFF
0.139659875000000,SPI,MOSI: 0x00;  MISO: 0xFF
0.139669375000000,SPI,MOSI: 0x00;  MISO: 0xFF
0.139677375000000,SPI,MOSI: 0x00;  MISO: 0xFF
0.139686875000000,SPI,MOSI: 0x00;  MISO: 0xFF
0.139694875000000,SPI,MOSI: 0x00;  MISO: 0xFF
0.139704375000000,SPI,MOSI: 0x00;  MISO: 0xFF
0.139712375000000,SPI,MOSI: 0x00;  MISO: 0xFF
0.139721875000000,SPI,MOSI: 0x00;  MISO: 0xFF
0.139729875000000,SPI,MOSI: 0x00;  MISO: 0xFF
0.139739375000000,SPI,MOSI: 0x00;  MISO: 0xFF
0.139747375000000,SPI,MOSI: 0x00;  MISO: 0xFF
0.139756875000000,SPI,MOSI: 0x00;  MISO: 0xFF
0.139764875000000,SPI,MOSI: 0x00;  MISO: 0xFF
0.139774375000000,SPI,MOSI: 0x00;  MISO: 0xFF
0.139782375000000,SPI,MOSI: 0x00;  MISO: 0xFF
0.139791875000000,SPI,MOSI: 0x00;  MISO: 0xFF
0.139799875000000,SPI,MOSI: 0x00;  MISO: 0xFF
0.139809375000000,SPI,MOSI: 0x00;  MISO: 0xFF
0.139817375000000,SPI,MOSI: 0x00;  MISO: 0xFF
0.139826875000000,SPI,MOSI: 0x00;  MISO: 0xFF
0.139834875000000,SPI,MOSI: 0x00;  MISO: 0xFF
0.139844375000000,SPI,MOSI: 0x00;  MISO: 0xFF
0.139852375000000,SPI,MOSI: 0x00;  MISO: 0xFF
0.139861875000000,SPI,MOSI: 0x00;  MISO: 0xFF
0.139869875000000,SPI,MOSI: 0x00;  MISO: 0xFF
0.139906041666667,SPI,MOSI: 0x4A;  MISO: 0xFF
0.139914041666667,SPI,MOSI: 0xC1;  MISO: 0xFF
0.139923541666667,SPI,MOSI: 0xE3;  MISO: 0xFF
0.139931541666667,SPI,MOSI: 0x00;  MISO: 0xC1
0.139941041666667,SPI,MOSI: 0x00;  MISO: 0xED
0.139949041666667,SPI,MOSI: 0x00;  MISO: 0x9F
0.139958541666667,SPI,MOSI: 0x00;  MISO: 0xE7
0.139966541666667,SPI,MOSI: 0x00;  MISO: 0x9F
0.139976041666667,SPI,MOSI: 0x00;  MISO: 0xDC
0.139984041666667,SPI,MOSI: 0x00;  MISO: 0x9F
0.139993541666667,SPI,MOSI: 0x00;  MISO: 0xBD
0.140001541666667,SPI,MOSI: 0x00;  MISO: 0x9D
0.140011041666667,SPI,MOSI: 0x00;  MISO: 0xC1
0.140019041666667,SPI,MOSI: 0x00;  MISO: 0x7B
0.140028541666667,SPI,MOSI: 0x00;  MISO: 0x9F
0.140036541666667,SPI,MOSI: 0x00;  MISO: 0xD6
0.140046041666667,SPI,MOSI: 0x00;  MISO: 0x9F
0.140054041666667,SPI,MOSI: 0x00;  MISO: 0xDD
0.140063541666667,SPI,MOSI: 0x00;  MISO: 0x9F
0.140071541666667,SPI,MOSI: 0x00;  MISO: 0xAC
0.140081041666667,SPI,MOSI: 0x00;  MISO: 0xBB
0.140089041666667,SPI,MOSI: 0x00;  MISO: 0xFF
0.140098541666667,SPI,MOSI: 0x00;  MISO: 0xFF
0.140106541666667,SPI,MOSI: 0x00;  MISO: 0xFF
0.140116041666667,SPI,MOSI: 0x00;  MISO: 0xFF
0.140124041666667,SPI,MOSI: 0x00;  MISO: 0xFF
0.140133541666667,SPI,MOSI: 0x00;  MISO: 0xFF
0.140141541666667,SPI,MOSI: 0x00;  MISO: 0xFF
0.140151041666667,SPI,MOSI: 0x00;  MISO: 0xFF
0.140159041666667,SPI,MOSI: 0x00;  MISO: 0xFF
0.140168541666667,SPI,MOSI: 0x00;  MISO: 0xFF
0.140176541666667,SPI,MOSI: 0x00;  MISO: 0xFF
0.140186041666667,SPI,MOSI: 0x00;  MISO: 0xFF
0.140194041666667,SPI,MOSI: 0x00;  MISO: 0xFF
0.140203541666667,SPI,MOSI: 0x00;  MISO: 0xFF
0.140211541666667,SPI,MOSI: 0x00;  MISO: 0xFF
0.140221041666667,SPI,MOSI: 0x00;  MISO: 0xFF
0.140229041666667,SPI,MOSI: 0x00;  MISO: 0xFF
0.140238541666667,SPI,MOSI: 0x00;  MISO: 0xFF
0.140246541666667,SPI,MOSI: 0x00;  MISO: 0xFF
0.140256041666667,SPI,MOSI: 0x00;  MISO: 0xFF
0.140264041666667,SPI,MOSI: 0x00;  MISO: 0xFF
0.140273541666667,SPI,MOSI: 0x00;  MISO: 0xFF
0.140281541666667,SPI,MOSI: 0x00;  MISO: 0xFF
0.140291041666667,SPI,MOSI: 0x00;  MISO: 0xFF
0.140299041666667,SPI,MOSI: 0x00;  MISO: 0xFF
0.140308541666667,SPI,MOSI: 0x00;  MISO: 0xFF
0.140316541666667,SPI,MOSI: 0x00;  MISO: 0xFF
0.140326041666667,SPI,MOSI: 0x00;  MISO: 0xFF
0.140334041666667,SPI,MOSI: 0x00;  MISO: 0xFF
0.140343541666667,SPI,MOSI: 0x00;  MISO: 0xFF
0.140351541666667,SPI,MOSI: 0x00;  MISO: 0xFF
0.140361041666667,SPI,MOSI: 0x00;  MISO: 0xFF
0.140369041666667,SPI,MOSI: 0x00;  MISO: 0xFF
0.140378541666667,SPI,MOSI: 0x00;  MISO: 0xFF
0.140386541666667,SPI,MOSI: 0x00;  MISO: 0xFF
0.140396041666667,SPI,MOSI: 0x00;  MISO: 0xFF
0.140404041666667,SPI,MOSI: 0x00;  MISO: 0xFF
0.140413541666667,SPI,MOSI: 0x00;  MISO: 0xFF
0.140421541666667,SPI,MOSI: 0x00;  MISO: 0xFF
0.140431041666667,SPI,MOSI: 0x00;  MISO: 0xFF
0.140439041666667,SPI,MOSI: 0x00;  MISO: 0xFF
0.140448541666667,SPI,MOSI: 0x00;  MISO: 0xFF
0.140456541666667,SPI,MOSI: 0x00;  MISO: 0xFF
0.140466041666667,SPI,MOSI: 0x00;  MISO: 0xFF
0.140474041666667,SPI,MOSI: 0x00;  MISO: 0xFF
0.140483541666667,SPI,MOSI: 0x00;  MISO: 0xFF
0.140491541666667,SPI,MOSI: 0x00;  MISO: 0xFF
0.140501041666667,SPI,MOSI: 0x00;  MISO: 0xFF
0.140509041666667,SPI,MOSI: 0x00;  MISO: 0xFF
0.140518541666667,SPI,MOSI: 0x00;  MISO: 0xFF
0.140526541666667,SPI,MOSI: 0x00;  MISO: 0xFF
0.140536041666667,SPI,MOSI: 0x00;  MISO: 0xFF
0.140544041666667,SPI,MOSI: 0x00;  MISO: 0xFF
0.140553541666667,SPI,MOSI: 0x00;  MISO: 0xFF
0.140561541666667,SPI,MOSI: 0x00;  MISO: 0xFF
0.140667000000000,SPI,MOSI: 0x2A;  MISO: 0xFF
0.140675000000000,SPI,MOSI: 0xD4;  MISO: 0xFF
0.140684500000000,SPI,MOSI: 0x00;  MISO: 0xFF
0.140692500000000,SPI,MOSI: 0x00;  MISO: 0xFF
0.140723083333333,SPI,MOSI: 0x2A;  MISO: 0xFF
0.140731083333333,SPI,MOSI: 0xD4;  MISO: 0xFF
0.140740583333333,SPI,MOSI: 0x00;  MISO: 0xFF
0.140748583333333,SPI,MOSI: 0x00;  MISO: 0xFF
0.140778375000000,SPI,MOSI: 0x2A;  MISO: 0xFF
0.140786375000000,SPI,MOSI: 0xD4;  MISO: 0xFF
0.140795875000000,SPI,MOSI: 0x00;  MISO: 0xFF
0.140803875000000,SPI,MOSI: 0x00;  MISO: 0xFF
0.140847166666667,SPI,MOSI: 0x2A;  MISO: 0xFF
0.140855166666667,SPI,MOSI: 0xD4;  MISO: 0xFF
0.140864666666667,SPI,MOSI: 0x00;  MISO: 0xFF
0.140872666666667,SPI,MOSI: 0x00;  MISO: 0xFF
0.140902875000000,SPI,MOSI: 0x2A;  MISO: 0xFF
0.140910875000000,SPI,MOSI: 0xD4;  MISO: 0xFF
0.140920375000000,SPI,MOSI: 0x00;  MISO: 0xFF
0.140928375000000,SPI,MOSI: 0x00;  MISO: 0xFF
0.140958041666667,SPI,MOSI: 0x2A;  MISO: 0xFF
0.140966083333333,SPI,MOSI: 0xD4;  MISO: 0xFF
0.140975583333333,SPI,MOSI: 0x00;  MISO: 0xFF
0.140983583333333,SPI,MOSI: 0x00;  MISO: 0xFF
0.141013333333333,SPI,MOSI: 0x2A;  MISO: 0xFF
0.141021333333333,SPI,MOSI: 0xD4;  MISO: 0xFF
0.141030833333333,SPI,MOSI: 0x00;  MISO: 0xFF
0.141038833333333,SPI,MOSI: 0x00;  MISO: 0xFF
0.141070375000000,SPI,MOSI: 0x4A;  MISO: 0xFF
0.141078416666667,SPI,MOSI: 0xC1;  MISO: 0xFF
0.141087875000000,SPI,MOSI: 0xE3;  MISO: 0xFF
0.141095875000000,SPI,MOSI: 0x00;  MISO: 0xFF
0.141105375000000,SPI,MOSI: 0x00;  MISO: 0xFF
0.141113416666667,SPI,MOSI: 0x00;  MISO: 0xFF
0.141122875000000,SPI,MOSI: 0x00;  MISO: 0xFF
0.141130916666667,SPI,MOSI: 0x00;  MISO: 0xFF
0.141140375000000,SPI,MOSI: 0x00;  MISO: 0xFF
0.141148416666667,SPI,MOSI: 0x00;  MISO: 0xFF
0.141157916666667,SPI,MOSI: 0x00;  MISO: 0xFF
0.141165916666667,SPI,MOSI: 0x00;  MISO: 0xFF
0.141175416666667,SPI,MOSI: 0x00;  MISO: 0xFF
0.141183416666667,SPI,MOSI: 0x00;  MISO: 0xFF
0.141192916666667,SPI,MOSI: 0x00;  MISO: 0xFF
0.141200916666667,SPI,MOSI: 0x00;  MISO: 0xFF
0.141210416666667,SPI,MOSI: 0x00;  MISO: 0xFF
0.141218416666667,SPI,MOSI: 0x00;  MISO: 0xFF
0.141227916666667,SPI,MOSI: 0x00;  MISO: 0xFF
0.141235916666667,SPI,MOSI: 0x00;  MISO: 0xFF
0.141245416666667,SPI,MOSI: 0x00;  MISO: 0xFF
0.141253416666667,SPI,MOSI: 0x00;  MISO: 0xFF
0.141262916666667,SPI,MOSI: 0x00;  MISO: 0xFF
0.141270916666667,SPI,MOSI: 0x00;  MISO: 0xFF
0.141280416666667,SPI,MOSI: 0x00;  MISO: 0xFF
0.141288416666667,SPI,MOSI: 0x00;  MISO: 0xFF
0.141297916666667,SPI,MOSI: 0x00;  MISO: 0xFF
0.141305916666667,SPI,MOSI: 0x00;  MISO: 0xFF
0.141315416666667,SPI,MOSI: 0x00;  MISO: 0xFF
0.141323416666667,SPI,MOSI: 0x00;  MISO: 0xFF
0.141332916666667,SPI,MOSI: 0x00;  MISO: 0xFF
0.141340916666667,SPI,MOSI: 0x00;  MISO: 0xFF
0.141350416666667,SPI,MOSI: 0x00;  MISO: 0xFF
0.141358416666667,SPI,MOSI: 0x00;  MISO: 0xFF
0.141367916666667,SPI,MOSI: 0x00;  MISO: 0xFF
0.141375916666667,SPI,MOSI: 0x00;  MISO: 0xFF
0.141385416666667,SPI,MOSI: 0x00;  MISO: 0xFF
0.141393416666667,SPI,MOSI: 0x00;  MISO: 0xFF
0.141402916666667,SPI,MOSI: 0x00;  MISO: 0xFF
0.141410916666667,SPI,MOSI: 0x00;  MISO: 0xFF
0.141420416666667,SPI,MOSI: 0x00;  MISO: 0xFF
0.141428416666667,SPI,MOSI: 0x00;  MISO: 0xFF
0.141437916666667,SPI,MOSI: 0x00;  MISO: 0xFF
0.141445916666667,SPI,MOSI: 0x00;  MISO: 0xFF
0.141455416666667,SPI,MOSI: 0x00;  MISO: 0xFF
0.141463416666667,SPI,MOSI: 0x00;  MISO: 0xFF
0.141472916666667,SPI,MOSI: 0x00;  MISO: 0xFF
0.141480916666667,SPI,MOSI: 0x00;  MISO: 0xFF
0.141490416666667,SPI,MOSI: 0x00;  MISO: 0xFF
0.141498416666667,SPI,MOSI: 0x00;  MISO: 0xFF
0.141507916666667,SPI,MOSI: 0x00;  MISO: 0xFF
0.141515916666667,SPI,MOSI: 0x00;  MISO: 0xFF
0.141525416666667,SPI,MOSI: 0x00;  MISO: 0xFF
0.141533416666667,SPI,MOSI: 0x00;  MISO: 0xFF
0.141542916666667,SPI,MOSI: 0x00;  MISO: 0xFF
0.141550916666667,SPI,MOSI: 0x00;  MISO: 0xFF
0.141560416666667,SPI,MOSI: 0x00;  MISO: 0xFF
0.141568416666667,SPI,MOSI: 0x00;  MISO: 0xFF
0.141652750000000,SPI,MOSI: 0x4B;  MISO: 0xFF
0.141660750000000,SPI,MOSI: 0xC1;  MISO: 0xFF
0.141670250000000,SPI,MOSI: 0x0A;  MISO: 0xFF
0.141678250000000,SPI,MOSI: 0x00;  MISO: 0xC1
0.141687750000000,SPI,MOSI: 0x00;  MISO: 0x99
0.141695750000000,SPI,MOSI: 0x00;  MISO: 0x9E
0.141705250000000,SPI,MOSI: 0x00;  MISO: 0x00
0.141713250000000,SPI,MOSI: 0x00;  MISO: 0x00
0.141722750000000,SPI,MOSI: 0x00;  MISO: 0x02
0.141730750000000,SPI,MOSI: 0x00;  MISO: 0x00
0.141740250000000,SPI,MOSI: 0x00;  MISO: 0x8B
0.141748250000000,SPI,MOSI: 0x00;  MISO: 0xCA
0.141757750000000,SPI,MOSI: 0x00;  MISO: 0xC1
0.141765750000000,SPI,MOSI: 0x00;  MISO: 0x00
0.141775250000000,SPI,MOSI: 0x00;  MISO: 0x00
0.141783250000000,SPI,MOSI: 0x00;  MISO: 0x02
0.141792750000000,SPI,MOSI: 0x00;  MISO: 0x00
0.141800750000000,SPI,MOSI: 0x00;  MISO: 0x02
0.141810250000000,SPI,MOSI: 0x00;  MISO: 0x00
0.141818250000000,SPI,MOSI: 0x00;  MISO: 0xA2
0.141827750000000,SPI,MOSI: 0x00;  MISO: 0x06
0.141835750000000,SPI,MOSI: 0x00;  MISO: 0xFF
0.141845250000000,SPI,MOSI: 0x00;  MISO: 0xFF
0.141853250000000,SPI,MOSI: 0x00;  MISO: 0xFF
0.141862750000000,SPI,MOSI: 0x00;  MISO: 0xFF
0.141870750000000,SPI,MOSI: 0x00;  MISO: 0xFF
0.141880250000000,SPI,MOSI: 0x00;  MISO: 0xFF
0.141888250000000,SPI,MOSI: 0x00;  MISO: 0xFF
0.141897750000000,SPI,MOSI: 0x00;  MISO: 0xFF
0.141905750000000,SPI,MOSI: 0x00;  MISO: 0xFF
0.141915250000000,SPI,MOSI: 0x00;  MISO: 0xFF
0.141923250000000,SPI,MOSI: 0x00;  MISO: 0xFF
0.141932750000000,SPI,MOSI: 0x00;  MISO: 0xFF
0.141940750000000,SPI,MOSI: 0x00;  MISO: 0xFF
0.141950250000000,SPI,MOSI: 0x00;  MISO: 0xFF
0.141958250000000,SPI,MOSI: 0x00;  MISO: 0xFF
0.141967750000000,SPI,MOSI: 0x00;  MISO: 0xFF
0.141975750000000,SPI,MOSI: 0x00;  MISO: 0xFF
0.141985250000000,SPI,MOSI: 0x00;  MISO: 0xFF
0.141993250000000,SPI,MOSI: 0x00;  MISO: 0xFF
0.142002750000000,SPI,MOSI: 0x00;  MISO: 0xFF
0.142010750000000,SPI,MOSI: 0x00;  MISO: 0xFF
0.142020250000000,SPI,MOSI: 0x00;  MISO: 0xFF
0.142028250000000,SPI,MOSI: 0x00;  MISO: 0xFF
0.142037750000000,SPI,MOSI: 0x00;  MISO: 0xFF
0.142045750000000,SPI,MOSI: 0x00;  MISO: 0xFF
0.142055250000000,SPI,MOSI: 0x00;  MISO: 0xFF
0.142063250000000,SPI,MOSI: 0x00;  MISO: 0xFF
0.142072750000000,SPI,MOSI: 0x00;  MISO: 0xFF
0.142080750000000,SPI,MOSI: 0x00;  MISO: 0xFF
0.142090250000000,SPI,MOSI: 0x00;  MISO: 0xFF
0.142098250000000,SPI,MOSI: 0x00;  MISO: 0xFF
0.142107750000000,SPI,MOSI: 0x00;  MISO: 0xFF
0.142115750000000,SPI,MOSI: 0x00;  MISO: 0xFF
0.142125250000000,SPI,MOSI: 0x00;  MISO: 0xFF
0.142133250000000,SPI,MOSI: 0x00;  MISO: 0xFF
0.142142750000000,SPI,MOSI: 0x00;  MISO: 0xFF
0.142150750000000,SPI,MOSI: 0x00;  MISO: 0xFF
0.142160250000000,SPI,MOSI: 0x00;  MISO: 0xFF
0.142168250000000,SPI,MOSI: 0x00;  MISO: 0xFF
0.142177750000000,SPI,MOSI: 0x00;  MISO: 0xFF
0.142185750000000,SPI,MOSI: 0x00;  MISO: 0xFF
0.142195250000000,SPI,MOSI: 0x00;  MISO: 0xFF
0.142203250000000,SPI,MOSI: 0x00;  MISO: 0xFF
0.142212750000000,SPI,MOSI: 0x00;  MISO: 0xFF
0.142220750000000,SPI,MOSI: 0x00;  MISO: 0xFF
0.142230250000000,SPI,MOSI: 0x00;  MISO: 0xFF
0.142238250000000,SPI,MOSI: 0x00;  MISO: 0xFF
0.142247791666667,SPI,MOSI: 0x00;  MISO: 0xFF
0.142255750000000,SPI,MOSI: 0x00;  MISO: 0xFF
0.142265291666667,SPI,MOSI: 0x00;  MISO: 0xFF
0.142273291666667,SPI,MOSI: 0x00;  MISO: 0xFF
0.142282791666667,SPI,MOSI: 0x00;  MISO: 0xFF
0.142290791666667,SPI,MOSI: 0x00;  MISO: 0xFF
0.142300291666667,SPI,MOSI: 0x00;  MISO: 0xFF
0.142308291666667,SPI,MOSI: 0x00;  MISO: 0xFF
0.142348208333333,SPI,MOSI: 0x2A;  MISO: 0xFF
0.142356208333333,SPI,MOSI: 0xD4;  MISO: 0xFF
0.142365708333333,SPI,MOSI: 0x00;  MISO: 0xFF
0.142373708333333,SPI,MOSI: 0x00;  MISO: 0xFF
0.142636041666667,SPI,MOSI: 0x2A;  MISO: 0xFF
0.142644041666667,SPI,MOSI: 0xD4;  MISO: 0xFF
0.142653541666667,SPI,MOSI: 0x00;  MISO: 0xFF
0.142661541666667,SPI,MOSI: 0x00;  MISO: 0xFF
0.142692875000000,SPI,MOSI: 0x2A;  MISO: 0xFF
0.142700875000000,SPI,MOSI: 0xD4;  MISO: 0xFF
0.142710375000000,SPI,MOSI: 0x00;  MISO: 0xFF
0.142718375000000,SPI,MOSI: 0x00;  MISO: 0xFF
0.142748250000000,SPI,MOSI: 0x2A;  MISO: 0xFF
0.142756208333333,SPI,MOSI: 0xD4;  MISO: 0xFF
0.142765750000000,SPI,MOSI: 0x00;  MISO: 0xFF
0.142773708333333,SPI,MOSI: 0x00;  MISO: 0xFF
0.142803416666667,SPI,MOSI: 0x2A;  MISO: 0xFF
0.142811416666667,SPI,MOSI: 0xD4;  MISO: 0xFF
0.142820916666667,SPI,MOSI: 0x00;  MISO: 0xFF
0.142828916666667,SPI,MOSI: 0x00;  MISO: 0xFF
0.142875916666667,SPI,MOSI: 0x2A;  MISO: 0xFF
0.142883916666667,SPI,MOSI: 0xD4;  MISO: 0xFF
0.142893416666667,SPI,MOSI: 0x00;  MISO: 0xFF
0.142901416666667,SPI,MOSI: 0x00;  MISO: 0xFF
0.142931416666667,SPI,MOSI: 0x2A;  MISO: 0xFF
0.142939416666667,SPI,MOSI: 0xD4;  MISO: 0xFF
0.142948916666667,SPI,MOSI: 0x00;  MISO: 0xFF
0.142956916666667,SPI,MOSI: 0x00;  MISO: 0xFF
0.142988625000000,SPI,MOSI: 0x4B;  MISO: 0xFF
0.142996625000000,SPI,MOSI: 0xC1;  MISO: 0xFF
0.143006125000000,SPI,MOSI: 0x0A;  MISO: 0xFF
0.143014125000000,SPI,MOSI: 0x00;  MISO: 0xFF
0.143023625000000,SPI,MOSI: 0x00;  MISO: 0xFF
0.143031625000000,SPI,MOSI: 0x00;  MISO: 0xFF
0.143041125000000,SPI,MOSI: 0x00;  MISO: 0xFF
0.143049125000000,SPI,MOSI: 0x00;  MISO: 0xFF
0.143058625000000,SPI,MOSI: 0x00;  MISO: 0xFF
0.143066625000000,SPI,MOSI: 0x00;  MISO: 0xFF
0.143076125000000,SPI,MOSI: 0x00;  MISO: 0xFF
0.143084125000000,SPI,MOSI: 0x00;  MISO: 0xFF
0.143093625000000,SPI,MOSI: 0x00;  MISO: 0xFF
0.143101625000000,SPI,MOSI: 0x00;  MISO: 0xFF
0.143111125000000,SPI,MOSI: 0x00;  MISO: 0xFF
0.143119125000000,SPI,MOSI: 0x00;  MISO: 0xFF
0.143128625000000,SPI,MOSI: 0x00;  MISO: 0xFF
0.143136625000000,SPI,MOSI: 0x00;  MISO: 0xFF
0.143146125000000,SPI,MOSI: 0x00;  MISO: 0xFF
0.143154125000000,SPI,MOSI: 0x00;  MISO: 0xFF
0.143163625000000,SPI,MOSI: 0x00;  MISO: 0xFF
0.143171625000000,SPI,MOSI: 0x00;  MISO: 0xFF
0.143181125000000,SPI,MOSI: 0x00;  MISO: 0xFF
0.143189125000000,SPI,MOSI: 0x00;  MISO: 0xFF
0.143198625000000,SPI,MOSI: 0x00;  MISO: 0xFF
0.143206625000000,SPI,MOSI: 0x00;  MISO: 0xFF
0.143216125000000,SPI,MOSI: 0x00;  MISO: 0xFF
0.143224125000000,SPI,MOSI: 0x00;  MISO: 0xFF
0.143233625000000,SPI,MOSI: 0x00;  MISO: 0xFF
0.143241625000000,SPI,MOSI: 0x00;  MISO: 0xFF
0.143251125000000,SPI,MOSI: 0x00;  MISO: 0xFF
0.143259125000000,SPI,MOSI: 0x00;  MISO: 0xFF
0.143268625000000,SPI,MOSI: 0x00;  MISO: 0xFF
0.143276625000000,SPI,MOSI: 0x00;  MISO: 0xFF
0.143286125000000,SPI,MOSI: 0x00;  MISO: 0xFF
0.143294125000000,SPI,MOSI: 0x00;  MISO: 0xFF
0.143303625000000,SPI,MOSI: 0x00;  MISO: 0xFF
0.143311625000000,SPI,MOSI: 0x00;  MISO: 0xFF
0.143321125000000,SPI,MOSI: 0x00;  MISO: 0xFF
0.143329125000000,SPI,MOSI: 0x00;  MISO: 0xFF
0.143338625000000,SPI,MOSI: 0x00;  MISO: 0xFF
0.143346625000000,SPI,MOSI: 0x00;  MISO: 0xFF
0.143356125000000,SPI,MOSI: 0x00;  MISO: 0xFF
0.143364125000000,SPI,MOSI: 0x00;  MISO: 0xFF
0.143373625000000,SPI,MOSI: 0x00;  MISO: 0xFF
0.143381625000000,SPI,MOSI: 0x00;  MISO: 0xFF
0.143391125000000,SPI,MOSI: 0x00;  MISO: 0xFF
0.143399125000000,SPI,MOSI: 0x00;  MISO: 0xFF
0.143408625000000,SPI,MOSI: 0x00;  MISO: 0xFF
0.143416625000000,SPI,MOSI: 0x00;  MISO: 0xFF
0.143426125000000,SPI,MOSI: 0x00;  MISO: 0xFF
0.143434125000000,SPI,MOSI: 0x00;  MISO: 0xFF
0.143443625000000,SPI,MOSI: 0x00;  MISO: 0xFF
0.143451625000000,SPI,MOSI: 0x00;  MISO: 0xFF
0.143461125000000,SPI,MOSI: 0x00;  MISO: 0xFF
0.143469125000000,SPI,MOSI: 0x00;  MISO: 0xFF
0.143478625000000,SPI,MOSI: 0x00;  MISO: 0xFF
0.143486625000000,SPI,MOSI: 0x00;  MISO: 0xFF
0.143660500000000,SPI,MOSI: 0x4C;  MISO: 0xFF
0.143668500000000,SPI,MOSI: 0xC1;  MISO: 0xFF
0.143678000000000,SPI,MOSI: 0xCB;  MISO: 0xFF
0.143686000000000,SPI,MOSI: 0x00;  MISO: 0xC1
0.143695500000000,SPI,MOSI: 0x00;  MISO: 0x02
0.143703500000000,SPI,MOSI: 0x00;  MISO: 0x00
0.143713000000000,SPI,MOSI: 0x00;  MISO: 0x82
0.143721000000000,SPI,MOSI: 0x00;  MISO: 0x81
0.143730500000000,SPI,MOSI: 0x00;  MISO: 0xAC
0.143738500000000,SPI,MOSI: 0x00;  MISO: 0x87
0.143748000000000,SPI,MOSI: 0x00;  MISO: 0xC1
0.143756000000000,SPI,MOSI: 0x00;  MISO: 0x02
0.143765500000000,SPI,MOSI: 0x00;  MISO: 0x00
0.143773500000000,SPI,MOSI: 0x00;  MISO: 0xB7
0.143783000000000,SPI,MOSI: 0x00;  MISO: 0x77
0.143791000000000,SPI,MOSI: 0x00;  MISO: 0xBC
0.143800500000000,SPI,MOSI: 0x00;  MISO: 0x3E
0.143808500000000,SPI,MOSI: 0x00;  MISO: 0xFF
0.143818000000000,SPI,MOSI: 0x00;  MISO: 0xFF
0.143826000000000,SPI,MOSI: 0x00;  MISO: 0xFF
0.143835500000000,SPI,MOSI: 0x00;  MISO: 0xFF
0.143843500000000,SPI,MOSI: 0x00;  MISO: 0xFF
0.143853000000000,SPI,MOSI: 0x00;  MISO: 0xFF
0.143861000000000,SPI,MOSI: 0x00;  MISO: 0xFF
0.143870500000000,SPI,MOSI: 0x00;  MISO: 0xFF
0.143878500000000,SPI,MOSI: 0x00;  MISO: 0xFF
0.143888000000000,SPI,MOSI: 0x00;  MISO: 0xFF
0.143896000000000,SPI,MOSI: 0x00;  MISO: 0xFF
0.143905500000000,SPI,MOSI: 0x00;  MISO: 0xFF
0.143913500000000,SPI,MOSI: 0x00;  MISO: 0xFF
0.143923000000000,SPI,MOSI: 0x00;  MISO: 0xFF
0.143931000000000,SPI,MOSI: 0x00;  MISO: 0xFF
0.143940500000000,SPI,MOSI: 0x00;  MISO: 0xFF
0.143948500000000,SPI,MOSI: 0x00;  MISO: 0xFF
0.143958000000000,SPI,MOSI: 0x00;  MISO: 0xFF
0.143966000000000,SPI,MOSI: 0x00;  MISO: 0xFF
0.143975500000000,SPI,MOSI: 0x00;  MISO: 0xFF
0.143983500000000,SPI,MOSI: 0x00;  MISO: 0xFF
0.143993000000000,SPI,MOSI: 0x00;  MISO: 0xFF
0.144001000000000,SPI,MOSI: 0x00;  MISO: 0xFF
0.144010500000000,SPI,MOSI: 0x00;  MISO: 0xFF
0.144018500000000,SPI,MOSI: 0x00;  MISO: 0xFF
0.144028000000000,SPI,MOSI: 0x00;  MISO: 0xFF
0.144036000000000,SPI,MOSI: 0x00;  MISO: 0xFF
0.144045500000000,SPI,MOSI: 0x00;  MISO: 0xFF
0.144053500000000,SPI,MOSI: 0x00;  MISO: 0xFF
0.144063000000000,SPI,MOSI: 0x00;  MISO: 0xFF
0.144071000000000,SPI,MOSI: 0x00;  MISO: 0xFF
0.144080500000000,SPI,MOSI: 0x00;  MISO: 0xFF
0.144088500000000,SPI,MOSI: 0x00;  MISO: 0xFF
0.144098000000000,SPI,MOSI: 0x00;  MISO: 0xFF
