Time [s], Analyzer Name, Decoded Protocol Result
0.025149583333333,SPI,MOSI: 0x2A;  MISO: 0xFF
0.025157583333333,SPI,MOSI: 0xD4;  MISO: 0xFF
0.025167083333333,SPI,MOSI: 0x00;  MISO: 0xFF
0.025175083333333,SPI,MOSI: 0x00;  MISO: 0xFF
0.025206541666667,SPI,MOSI: 0x2A;  MISO: 0xFF
0.025214541666667,SPI,MOSI: 0xD4;  MISO: 0xFF
0.025224041666667,SPI,MOSI: 0x00;  MISO: 0x3F
0.025232041666667,SPI,MOSI: 0x00;  MISO: 0xFF
0.025261791666667,SPI,MOSI: 0x2A;  MISO: 0xFF
0.025269791666667,SPI,MOSI: 0xD4;  MISO: 0xFF
0.025279291666667,SPI,MOSI: 0x00;  MISO: 0x0F
0.025287291666667,SPI,MOSI: 0x00;  MISO: 0xFF
0.025354666666667,SPI,MOSI: 0x2A;  MISO: 0xFF
0.025362666666667,SPI,MOSI: 0xD4;  MISO: 0xFF
0.025372166666667,SPI,MOSI: 0x00;  MISO: 0x0F
0.025380166666667,SPI,MOSI: 0x00;  MISO: 0xFF
0.025628875000000,SPI,MOSI: 0x2A;  MISO: 0xFF
0.025636833333333,SPI,MOSI: 0xD4;  MISO: 0xFF
0.025646375000000,SPI,MOSI: 0x00;  MISO: 0x0F
0.025654375000000,SPI,MOSI: 0x00;  MISO: 0xFF
0.025685166666667,SPI,MOSI: 0x2A;  MISO: 0xFF
0.025693166666667,SPI,MOSI: 0xD4;  MISO: 0xFF
0.025702666666667,SPI,MOSI: 0x00;  MISO: 0x0F
0.025710666666667,SPI,MOSI: 0x00;  MISO: 0xFF
0.025752166666667,SPI,MOSI: 0x2A;  MISO: 0xFF
0.025760208333333,SPI,MOSI: 0xD4;  MISO: 0xFF
0.025769666666667,SPI,MOSI: 0x00;  MISO: 0x0F
0.025777708333333,SPI,MOSI: 0x00;  MISO: 0xFF
0.025808125000000,SPI,MOSI: 0x2A;  MISO: 0xFF
0.025816125000000,SPI,MOSI: 0xD4;  MISO: 0xFF
0.025825625000000,SPI,MOSI: 0x00;  MISO: 0x0F
0.025833625000000,SPI,MOSI: 0x00;  MISO: 0xFF
0.025863666666667,SPI,MOSI: 0x2A;  MISO: 0xFF
0.025871666666667,SPI,MOSI: 0xD4;  MISO: 0xFF
0.025881166666667,SPI,MOSI: 0x00;  MISO: 0x0F
0.025889166666667,SPI,MOSI: 0x00;  MISO: 0xFF
0.025920791666667,SPI,MOSI: 0x2A;  MISO: 0xFF
0.025928791666667,SPI,MOSI: 0xD4;  MISO: 0xFF
0.025938291666667,SPI,MOSI: 0x00;  MISO: 0xFF
0.025946291666667,SPI,MOSI: 0x00;  MISO: 0xFF
0.025987333333333,SPI,MOSI: 0x2A;  MISO: 0xFF
0.025995333333333,SPI,MOSI: 0xD4;  MISO: 0xFF
0.026004833333333,SPI,MOSI: 0x00;  MISO: 0xFF
0.026012833333333,SPI,MOSI: 0x00;  MISO: 0xFF
0.026042958333333,SPI,MOSI: 0x2A;  MISO: 0xFF
0.026050958333333,SPI,MOSI: 0xD4;  MISO: 0xFF
0.026060458333333,SPI,MOSI: 0x00;  MISO: 0xFF
0.026068458333333,SPI,MOSI: 0x00;  MISO: 0xFF
0.026098250000000,SPI,MOSI: 0x2A;  MISO: 0xFF
0.026106250000000,SPI,MOSI: 0xD4;  MISO: 0xFF
0.026115750000000,SPI,MOSI: 0x00;  MISO: 0xFF
0.026123750000000,SPI,MOSI: 0x00;  MISO: 0xFF
0.026153583333333,SPI,MOSI: 0x2A;  MISO: 0xFF
0.026161583333333,SPI,MOSI: 0xD4;  MISO: 0xFF
0.026171083333333,SPI,MOSI: 0x00;  MISO: 0xFF
0.026179083333333,SPI,MOSI: 0x00;  MISO: 0xFF
0.026208958333333,SPI,MOSI: 0x2A;  MISO: 0xFF
0.026216958333333,SPI,MOSI: 0xD4;  MISO: 0xFF
0.026226458333333,SPI,MOSI: 0x00;  MISO: 0xFF
0.026234458333333,SPI,MOSI: 0x00;  MISO: 0xFF
0.026264208333333,SPI,MOSI: 0x2A;  MISO: 0xFF
0.026272208333333,SPI,MOSI: 0xD4;  MISO: 0xFF
0.026281708333333,SPI,MOSI: 0x00;  MISO: 0xFF
0.026289708333333,SPI,MOSI: 0x00;  MISO: 0xFF
0.026319458333333,SPI,MOSI: 0x2A;  MISO: 0xFF
0.026327458333333,SPI,MOSI: 0xD4;  MISO: 0xFF
0.026336958333333,SPI,MOSI: 0x00;  MISO: 0xFF
0.026344958333333,SPI,MOSI: 0x00;  MISO: 0xFF
0.026374833333333,SPI,MOSI: 0x2A;  MISO: 0xFF
0.026382833333333,SPI,MOSI: 0xD4;  MISO: 0xFF
0.026392333333333,SPI,MOSI: 0x00;  MISO: 0xFF
0.026400333333333,SPI,MOSI: 0x00;  MISO: 0xFF
0.026664125000000,SPI,MOSI: 0x21;  MISO: 0xFF
0.026672125000000,SPI,MOSI: 0xF2;  MISO: 0xFF
0.026702916666667,SPI,MOSI: 0x21;  MISO: 0xFF
0.026710916666667,SPI,MOSI: 0xF2;  MISO: 0xFF
0.026743416666667,SPI,MOSI: 0x4D;  MISO: 0xFF
0.026751416666667,SPI,MOSI: 0xC0;  MISO: 0xFF
0.026760916666667,SPI,MOSI: 0x0D;  MISO: 0xFF
0.026768916666667,SPI,MOSI: 0x00;  MISO: 0xFF
0.026778416666667,SPI,MOSI: 0x00;  MISO: 0xFF
0.026786416666667,SPI,MOSI: 0x00;  MISO: 0xFF
0.026795916666667,SPI,MOSI: 0x00;  MISO: 0xFF
0.026803916666667,SPI,MOSI: 0x00;  MISO: 0xFF
0.026813416666667,SPI,MOSI: 0x00;  MISO: 0xFF
0.026821416666667,SPI,MOSI: 0x00;  MISO: 0xFF
0.026830916666667,SPI,MOSI: 0x00;  MISO: 0xFF
0.026838916666667,SPI,MOSI: 0x00;  MISO: 0xFF
0.026848416666667,SPI,MOSI: 0x00;  MISO: 0xFF
0.026856416666667,SPI,MOSI: 0x00;  MISO: 0xFF
0.026865916666667,SPI,MOSI: 0x00;  MISO: 0xFF
0.026873916666667,SPI,MOSI: 0x00;  MISO: 0xFF
0.026883416666667,SPI,MOSI: 0x00;  MISO: 0xFF
0.026891416666667,SPI,MOSI: 0x00;  MISO: 0xFF
0.026900916666667,SPI,MOSI: 0x00;  MISO: 0xFF
0.026908916666667,SPI,MOSI: 0x00;  MISO: 0xFF
0.026918416666667,SPI,MOSI: 0x00;  MISO: 0xFF
0.026926416666667,SPI,MOSI: 0x00;  MISO: 0xFF
0.026935916666667,SPI,MOSI: 0x00;  MISO: 0xFF
0.026943916666667,SPI,MOSI: 0x00;  MISO: 0xFF
0.026953416666667,SPI,MOSI: 0x00;  MISO: 0xFF
0.026961416666667,SPI,MOSI: 0x00;  MISO: 0xFF
0.026970916666667,SPI,MOSI: 0x00;  MISO: 0xFF
0.026978916666667,SPI,MOSI: 0x00;  MISO: 0xFF
0.026988416666667,SPI,MOSI: 0x00;  MISO: 0xFF
0.026996416666667,SPI,MOSI: 0x00;  MISO: 0xFF
0.027005916666667,SPI,MOSI: 0x00;  MISO: 0xFF
0.027013916666667,SPI,MOSI: 0x00;  MISO: 0xFF
0.027023416666667,SPI,MOSI: 0x00;  MISO: 0xFF
0.027031416666667,SPI,MOSI: 0x00;  MISO: 0xFF
0.027040916666667,SPI,MOSI: 0x00;  MISO: 0xFF
0.027048916666667,SPI,MOSI: 0x00;  MISO: 0xFF
0.027058416666667,SPI,MOSI: 0x00;  MISO: 0xFF
0.027066416666667,SPI,MOSI: 0x00;  MISO: 0xFF
0.027075916666667,SPI,MOSI: 0x00;  MISO: 0xFF
0.027083916666667,SPI,MOSI: 0x00;  MISO: 0xFF
0.027093416666667,SPI,MOSI: 0x00;  MISO: 0xFF
0.027101416666667,SPI,MOSI: 0x00;  MISO: 0xFF
0.027110916666667,SPI,MOSI: 0x00;  MISO: 0xFF
0.027118916666667,SPI,MOSI: 0x00;  MISO: 0xFF
0.027128416666667,SPI,MOSI: 0x00;  MISO: 0xFF
0.027136416666667,SPI,MOSI: 0x00;  MISO: 0xFF
0.027145916666667,SPI,MOSI: 0x00;  MISO: 0xFF
0.027153916666667,SPI,MOSI: 0x00;  MISO: 0xFF
0.027163416666667,SPI,MOSI: 0x00;  MISO: 0xFF
0.027171416666667,SPI,MOSI: 0x00;  MISO: 0xFF
0.027180916666667,SPI,MOSI: 0x00;  MISO: 0xFF
0.027188916666667,SPI,MOSI: 0x00;  MISO: 0xFF
0.027198416666667,SPI,MOSI: 0x00;  MISO: 0xFF
0.027206416666667,SPI,MOSI: 0x00;  MISO: 0xFF
0.027215916666667,SPI,MOSI: 0x00;  MISO: 0xFF
0.027223916666667,SPI,MOSI: 0x00;  MISO: 0xFF
0.027233416666667,SPI,MOSI: 0x00;  MISO: 0xFF
0.027241416666667,SPI,MOSI: 0x00;  MISO: 0xFF
0.027250916666667,SPI,MOSI: 0x00;  MISO: 0xFF
0.027258916666667,SPI,MOSI: 0x00;  MISO: 0xFF
0.027268416666667,SPI,MOSI: 0x00;  MISO: 0xFF
0.027276416666667,SPI,MOSI: 0x00;  MISO: 0xFF
0.027285916666667,SPI,MOSI: 0x00;  MISO: 0xFF
0.027293916666667,SPI,MOSI: 0x00;  MISO: 0xFF
0.027303416666667,SPI,MOSI: 0x00;  MISO: 0xFF
0.027311416666667,SPI,MOSI: 0x00;  MISO: 0xFF
0.027320916666667,SPI,MOSI: 0x00;  MISO: 0xFF
0.027328916666667,SPI,MOSI: 0x00;  MISO: 0xFF
0.027338416666667,SPI,MOSI: 0x00;  MISO: 0xFF
0.027346416666667,SPI,MOSI: 0x00;  MISO: 0xFF
0.027355916666667,SPI,MOSI: 0x00;  MISO: 0xFF
0.027363916666667,SPI,MOSI: 0x00;  MISO: 0xFF
0.027373416666667,SPI,MOSI: 0x00;  MISO: 0xFF
0.027381416666667,SPI,MOSI: 0x00;  MISO: 0xFF
0.027390916666667,SPI,MOSI: 0x00;  MISO: 0xFF
0.027398916666667,SPI,MOSI: 0x00;  MISO: 0xFF
0.027651041666667,SPI,MOSI: 0x2A;  MISO: 0xFF
0.027659041666667,SPI,MOSI: 0xD4;  MISO: 0xFF
0.027668541666667,SPI,MOSI: 0x00;  MISO: 0x0F
0.027676541666667,SPI,MOSI: 0x00;  MISO: 0xFF
0.027707750000000,SPI,MOSI: 0x2A;  MISO: 0xFF
0.027715750000000,SPI,MOSI: 0xD4;  MISO: 0xFF
0.027725208333333,SPI,MOSI: 0x00;  MISO: 0x0F
0.027733250000000,SPI,MOSI: 0x00;  MISO: 0xFF
0.027763458333333,SPI,MOSI: 0x2A;  MISO: 0xFF
0.027771458333333,SPI,MOSI: 0xD4;  MISO: 0xFF
0.027780958333333,SPI,MOSI: 0x00;  MISO: 0x0F
0.027788958333333,SPI,MOSI: 0x00;  MISO: 0xFF
0.027847375000000,SPI,MOSI: 0x2A;  MISO: 0xFF
0.027855375000000,SPI,MOSI: 0xD4;  MISO: 0xFF
0.027864875000000,SPI,MOSI: 0x00;  MISO: 0x0F
0.027872875000000,SPI,MOSI: 0x00;  MISO: 0xFF
0.027903500000000,SPI,MOSI: 0x2A;  MISO: 0xFF
0.027911500000000,SPI,MOSI: 0xD4;  MISO: 0xFF
0.027921000000000,SPI,MOSI: 0x00;  MISO: 0x0F
0.027929000000000,SPI,MOSI: 0x00;  MISO: 0xFF
0.027959208333333,SPI,MOSI: 0x2A;  MISO: 0xFF
0.027967208333333,SPI,MOSI: 0xD4;  MISO: 0xFF
0.027976708333333,SPI,MOSI: 0x00;  MISO: 0x0F
0.027984708333333,SPI,MOSI: 0x00;  MISO: 0xFF
0.028014750000000,SPI,MOSI: 0x2A;  MISO: 0xFF
0.028022750000000,SPI,MOSI: 0xD4;  MISO: 0xFF
0.028032250000000,SPI,MOSI: 0x00;  MISO: 0x0F
0.028040250000000,SPI,MOSI: 0x00;  MISO: 0xFF
0.028070250000000,SPI,MOSI: 0x2A;  MISO: 0xFF
0.028078250000000,SPI,MOSI: 0xD4;  MISO: 0xFF
0.028087750000000,SPI,MOSI: 0x00;  MISO: 0x0F
0.028095750000000,SPI,MOSI: 0x00;  MISO: 0xFF
0.028126000000000,SPI,MOSI: 0x2A;  MISO: 0xFF
0.028134000000000,SPI,MOSI: 0xD4;  MISO: 0xFF
0.028143500000000,SPI,MOSI: 0x00;  MISO: 0x0F
0.028151500000000,SPI,MOSI: 0x00;  MISO: 0xFF
0.028185250000000,SPI,MOSI: 0x4D;  MISO: 0xFF
0.028193250000000,SPI,MOSI: 0xC0;  MISO: 0xFF
0.028202750000000,SPI,MOSI: 0x0D;  MISO: 0xFF
0.028210750000000,SPI,MOSI: 0x00;  MISO: 0xC0
0.028220250000000,SPI,MOSI: 0x00;  MISO: 0xD9
0.028228250000000,SPI,MOSI: 0x00;  MISO: 0x15
0.028237750000000,SPI,MOSI: 0x00;  MISO: 0x77
0.028245750000000,SPI,MOSI: 0x00;  MISO: 0xF7
0.028255250000000,SPI,MOSI: 0x00;  MISO: 0x9B
0.028263250000000,SPI,MOSI: 0x00;  MISO: 0x14
0.028272750000000,SPI,MOSI: 0x00;  MISO: 0x0A
0.028280750000000,SPI,MOSI: 0x00;  MISO: 0x86
0.028290250000000,SPI,MOSI: 0x00;  MISO: 0xC0
0.028298250000000,SPI,MOSI: 0x00;  MISO: 0x94
0.028307750000000,SPI,MOSI: 0x00;  MISO: 0x14
0.028315750000000,SPI,MOSI: 0x00;  MISO: 0x73
0.028325250000000,SPI,MOSI: 0x00;  MISO: 0xF4
0.028333250000000,SPI,MOSI: 0x00;  MISO: 0xE4
0.028342750000000,SPI,MOSI: 0x00;  MISO: 0x14
0.028350750000000,SPI,MOSI: 0x00;  MISO: 0x01
0.028360250000000,SPI,MOSI: 0x00;  MISO: 0x4E
0.028368250000000,SPI,MOSI: 0x00;  MISO: 0xFF
0.028377750000000,SPI,MOSI: 0x00;  MISO: 0xFF
0.028385750000000,SPI,MOSI: 0x00;  MISO: 0xFF
0.028395250000000,SPI,MOSI: 0x00;  MISO: 0xFF
0.028403250000000,SPI,MOSI: 0x00;  MISO: 0xFF
0.028412750000000,SPI,MOSI: 0x00;  MISO: 0xFF
0.028420750000000,SPI,MOSI: 0x00;  MISO: 0xFF
0.028430250000000,SPI,MOSI: 0x00;  MISO: 0xFF
0.028438250000000,SPI,MOSI: 0x00;  MISO: 0xFF
0.028447750000000,SPI,MOSI: 0x00;  MISO: 0xFF
0.028455750000000,SPI,MOSI: 0x00;  MISO: 0xFF
0.028465250000000,SPI,MOSI: 0x00;  MISO: 0xFF
0.028473250000000,SPI,MOSI: 0x00;  MISO: 0xFF
0.028482750000000,SPI,MOSI: 0x00;  MISO: 0xFF
0.028490750000000,SPI,MOSI: 0x00;  MISO: 0xFF
0.028500250000000,SPI,MOSI: 0x00;  MISO: 0xFF
0.028508250000000,SPI,MOSI: 0x00;  MISO: 0xFF
0.028517750000000,SPI,MOSI: 0x00;  MISO: 0xFF
0.028525750000000,SPI,MOSI: 0x00;  MISO: 0xFF
0.028535250000000,SPI,MOSI: 0x00;  MISO: 0xFF
0.028543250000000,SPI,MOSI: 0x00;  MISO: 0xFF
0.028552750000000,SPI,MOSI: 0x00;  MISO: 0xFF
0.028560750000000,SPI,MOSI: 0x00;  MISO: 0xFF
0.028570250000000,SPI,MOSI: 0x00;  MISO: 0xFF
0.028578250000000,SPI,MOSI: 0x00;  MISO: 0xFF
0.028587750000000,SPI,MOSI: 0x00;  MISO: 0xFF
0.028595750000000,SPI,MOSI: 0x00;  MISO: 0xFF
0.028605250000000,SPI,MOSI: 0x00;  MISO: 0xFF
0.028613250000000,SPI,MOSI: 0x00;  MISO: 0xFF
0.028622750000000,SPI,MOSI: 0x00;  MISO: 0xFF
0.028630750000000,SPI,MOSI: 0x00;  MISO: 0xFF
0.028640250000000,SPI,MOSI: 0x00;  MISO: 0xFF
0.028648250000000,SPI,MOSI: 0x00;  MISO: 0xFF
0.028657750000000,SPI,MOSI: 0x00;  MISO: 0xFF
0.028665750000000,SPI,MOSI: 0x00;  MISO: 0xFF
0.028675250000000,SPI,MOSI: 0x00;  MISO: 0xFF
0.028683250000000,SPI,MOSI: 0x00;  MISO: 0xFF
0.028692750000000,SPI,MOSI: 0x00;  MISO: 0xFF
0.028700750000000,SPI,MOSI: 0x00;  MISO: 0xFF
0.028710250000000,SPI,MOSI: 0x00;  MISO: 0xFF
0.028718250000000,SPI,MOSI: 0x00;  MISO: 0xFF
0.028727750000000,SPI,MOSI: 0x00;  MISO: 0xFF
0.028735750000000,SPI,MOSI: 0x00;  MISO: 0xFF
0.028745250000000,SPI,MOSI: 0x00;  MISO: 0xFF
0.028753250000000,SPI,MOSI: 0x00;  MISO: 0xFF
0.028762750000000,SPI,MOSI: 0x00;  MISO: 0xFF
0.028770750000000,SPI,MOSI: 0x00;  MISO: 0xFF
0.028780250000000,SPI,MOSI: 0x00;  MISO: 0xFF
0.028788250000000,SPI,MOSI: 0x00;  MISO: 0xFF
0.028797750000000,SPI,MOSI: 0x00;  MISO: 0xFF
0.028805750000000,SPI,MOSI: 0x00;  MISO: 0xFF
0.028815250000000,SPI,MOSI: 0x00;  MISO: 0xFF
0.028823250000000,SPI,MOSI: 0x00;  MISO: 0xFF
0.028832750000000,SPI,MOSI: 0x00;  MISO: 0xFF
0.028840750000000,SPI,MOSI: 0x00;  MISO: 0xFF
0.028911500000000,SPI,MOSI: 0x4E;  MISO: 0xFF
0.028919500000000,SPI,MOSI: 0xC0;  MISO: 0xFF
0.028929000000000,SPI,MOSI: 0x19;  MISO: 0xFF
0.028937000000000,SPI,MOSI: 0x00;  MISO: 0xFF
0.028946500000000,SPI,MOSI: 0x00;  MISO: 0xFF
0.028954500000000,SPI,MOSI: 0x00;  MISO: 0xFF
0.028964000000000,SPI,MOSI: 0x00;  MISO: 0xFF
0.028972000000000,SPI,MOSI: 0x00;  MISO: 0xFF
0.028981500000000,SPI,MOSI: 0x00;  MISO: 0xFF
0.028989500000000,SPI,MOSI: 0x00;  MISO: 0xFF
0.028999000000000,SPI,MOSI: 0x00;  MISO: 0xFF
0.029007000000000,SPI,MOSI: 0x00;  MISO: 0xFF
0.029016500000000,SPI,MOSI: 0x00;  MISO: 0xFF
0.029024500000000,SPI,MOSI: 0x00;  MISO: 0xFF
0.029034000000000,SPI,MOSI: 0x00;  MISO: 0xFF
0.029042000000000,SPI,MOSI: 0x00;  MISO: 0xFF
0.029051500000000,SPI,MOSI: 0x00;  MISO: 0xFF
0.029059500000000,SPI,MOSI: 0x00;  MISO: 0xFF
0.029069000000000,SPI,MOSI: 0x00;  MISO: 0xFF
0.029077000000000,SPI,MOSI: 0x00;  MISO: 0xFF
0.029086500000000,SPI,MOSI: 0x00;  MISO: 0xFF
0.029094500000000,SPI,MOSI: 0x00;  MISO: 0xFF
0.029104000000000,SPI,MOSI: 0x00;  MISO: 0xFF
0.029112000000000,SPI,MOSI: 0x00;  MISO: 0xFF
0.029121500000000,SPI,MOSI: 0x00;  MISO: 0xFF
0.029129500000000,SPI,MOSI: 0x00;  MISO: 0xFF
0.029139000000000,SPI,MOSI: 0x00;  MISO: 0xFF
0.029147000000000,SPI,MOSI: 0x00;  MISO: 0xFF
0.029156500000000,SPI,MOSI: 0x00;  MISO: 0xFF
0.029164500000000,SPI,MOSI: 0x00;  MISO: 0xFF
0.029174000000000,SPI,MOSI: 0x00;  MISO: 0xFF
0.029182000000000,SPI,MOSI: 0x00;  MISO: 0xFF
0.029191500000000,SPI,MOSI: 0x00;  MISO: 0xFF
0.029199500000000,SPI,MOSI: 0x00;  MISO: 0xFF
0.029209000000000,SPI,MOSI: 0x00;  MISO: 0xFF
0.029217000000000,SPI,MOSI: 0x00;  MISO: 0xFF
0.029226500000000,SPI,MOSI: 0x00;  MISO: 0xFF
0.029234500000000,SPI,MOSI: 0x00;  MISO: 0xFF
0.029244000000000,SPI,MOSI: 0x00;  MISO: 0xFF
0.029252000000000,SPI,MOSI: 0x00;  MISO: 0xFF
0.029261500000000,SPI,MOSI: 0x00;  MISO: 0xFF
0.029269500000000,SPI,MOSI: 0x00;  MISO: 0xFF
0.029279000000000,SPI,MOSI: 0x00;  MISO: 0xFF
0.029287000000000,SPI,MOSI: 0x00;  MISO: 0xFF
0.029296500000000,SPI,MOSI: 0x00;  MISO: 0xFF
0.029304500000000,SPI,MOSI: 0x00;  MISO: 0xFF
0.029314000000000,SPI,MOSI: 0x00;  MISO: 0xFF
0.029322000000000,SPI,MOSI: 0x00;  MISO: 0xFF
0.029331500000000,SPI,MOSI: 0x00;  MISO: 0xFF
0.029339500000000,SPI,MOSI: 0x00;  MISO: 0xFF
0.029349000000000,SPI,MOSI: 0x00;  MISO: 0xFF
0.029357000000000,SPI,MOSI: 0x00;  MISO: 0xFF
0.029366500000000,SPI,MOSI: 0x00;  MISO: 0xFF
0.029374500000000,SPI,MOSI: 0x00;  MISO: 0xFF
0.029384000000000,SPI,MOSI: 0x00;  MISO: 0xFF
0.029392000000000,SPI,MOSI: 0x00;  MISO: 0xFF
0.029401500000000,SPI,MOSI: 0x00;  MISO: 0xFF
0.029409500000000,SPI,MOSI: 0x00;  MISO: 0xFF
0.029419000000000,SPI,MOSI: 0x00;  MISO: 0xFF
0.029427000000000,SPI,MOSI: 0x00;  MISO: 0xFF
0.029436500000000,SPI,MOSI: 0x00;  MISO: 0xFF
0.029444500000000,SPI,MOSI: 0x00;  MISO: 0xFF
0.029454000000000,SPI,MOSI: 0x00;  MISO: 0xFF
0.029462000000000,SPI,MOSI: 0x00;  MISO: 0xFF
0.029471500000000,SPI,MOSI: 0x00;  MISO: 0xFF
0.029479500000000,SPI,MOSI: 0x00;  MISO: 0xFF
0.029489000000000,SPI,MOSI: 0x00;  MISO: 0xFF
0.029497000000000,SPI,MOSI: 0x00;  MISO: 0xFF
0.029506500000000,SPI,MOSI: 0x00;  MISO: 0xFF
0.029514500000000,SPI,MOSI: 0x00;  MISO: 0xFF
0.029524000000000,SPI,MOSI: 0x00;  MISO: 0xFF
0.029532000000000,SPI,MOSI: 0x00;  MISO: 0xFF
0.029541500000000,SPI,MOSI: 0x00;  MISO: 0xFF
0.029549500000000,SPI,MOSI: 0x00;  MISO: 0xFF
0.029559000000000,SPI,MOSI: 0x00;  MISO: 0xFF
0.029567000000000,SPI,MOSI: 0x00;  MISO: 0xFF
0.029632541666667,SPI,MOSI: 0x2A;  MISO: 0xFF
0.029640541666667,SPI,MOSI: 0xD4;  MISO: 0xFF
0.029650041666667,SPI,MOSI: 0x00;  MISO: 0x0F
0.029658041666667,SPI,MOSI: 0x00;  MISO: 0xFF
0.029716833333333,SPI,MOSI: 0x2A;  MISO: 0xFF
0.029724833333333,SPI,MOSI: 0xD4;  MISO: 0xFF
0.029734333333333,SPI,MOSI: 0x00;  MISO: 0x0F
0.029742333333333,SPI,MOSI: 0x00;  MISO: 0xFF
0.029772708333333,SPI,MOSI: 0x2A;  MISO: 0xFF
0.029780708333333,SPI,MOSI: 0xD4;  MISO: 0xFF
0.029790208333333,SPI,MOSI: 0x00;  MISO: 0x0F
0.029798208333333,SPI,MOSI: 0x00;  MISO: 0xFF
0.029827916666667,SPI,MOSI: 0x2A;  MISO: 0xFF
0.029835916666667,SPI,MOSI: 0xD4;  MISO: 0xFF
0.029845416666667,SPI,MOSI: 0x00;  MISO: 0x0F
0.029853416666667,SPI,MOSI: 0x00;  MISO: 0xFF
0.029883208333333,SPI,MOSI: 0x2A;  MISO: 0xFF
0.029891208333333,SPI,MOSI: 0xD4;  MISO: 0xFF
0.029900708333333,SPI,MOSI: 0x00;  MISO: 0x0F
0.029908708333333,SPI,MOSI: 0x00;  MISO: 0xFF
0.029969333333333,SPI,MOSI: 0x2A;  MISO: 0xFF
0.029977333333333,SPI,MOSI: 0xD4;  MISO: 0xFF
0.029986833333333,SPI,MOSI: 0x00;  MISO: 0x0F
0.029994833333333,SPI,MOSI: 0x00;  MISO: 0xFF
0.030024916666667,SPI,MOSI: 0x2A;  MISO: 0xFF
0.030032916666667,SPI,MOSI: 0xD4;  MISO: 0xFF
0.030042416666667,SPI,MOSI: 0x00;  MISO: 0x0F
0.030050416666667,SPI,MOSI: 0x00;  MISO: 0xFF
0.030080000000000,SPI,MOSI: 0x2A;  MISO: 0xFF
0.030088000000000,SPI,MOSI: 0xD4;  MISO: 0xFF
0.030097500000000,SPI,MOSI: 0x00;  MISO: 0x0F
0.030105500000000,SPI,MOSI: 0x00;  MISO: 0xFF
0.030135375000000,SPI,MOSI: 0x2A;  MISO: 0xFF
0.030143375000000,SPI,MOSI: 0xD4;  MISO: 0xFF
0.030152875000000,SPI,MOSI: 0x00;  MISO: 0x0F
0.030160875000000,SPI,MOSI: 0x00;  MISO: 0xFF
0.030192333333333,SPI,MOSI: 0x4E;  MISO: 0xFF
0.030200333333333,SPI,MOSI: 0xC0;  MISO: 0xFF
0.030209833333333,SPI,MOSI: 0x19;  MISO: 0xFF
0.030217833333333,SPI,MOSI: 0x00;  MISO: 0xC0
0.030227333333333,SPI,MOSI: 0x00;  MISO: 0x86
0.030235333333333,SPI,MOSI: 0x00;  MISO: 0x93
0.030244833333333,SPI,MOSI: 0x00;  MISO: 0x4C
0.030252833333333,SPI,MOSI: 0x00;  MISO: 0x05
0.030262333333333,SPI,MOSI: 0x00;  MISO: 0x7E
0.030270333333333,SPI,MOSI: 0x00;  MISO: 0xF5
0.030279833333333,SPI,MOSI: 0x00;  MISO: 0x24
0.030287833333333,SPI,MOSI: 0x00;  MISO: 0x64
0.030297333333333,SPI,MOSI: 0x00;  MISO: 0xC0
0.030305333333333,SPI,MOSI: 0x00;  MISO: 0x51
0.030314833333333,SPI,MOSI: 0x00;  MISO: 0x93
0.030322833333333,SPI,MOSI: 0x00;  MISO: 0x44
0.030332333333333,SPI,MOSI: 0x00;  MISO: 0x05
0.030340333333333,SPI,MOSI: 0x00;  MISO: 0x14
0.030349833333333,SPI,MOSI: 0x00;  MISO: 0xF3
0.030357833333333,SPI,MOSI: 0x00;  MISO: 0x27
0.030367333333333,SPI,MOSI: 0x00;  MISO: 0xE0
0.030375333333333,SPI,MOSI: 0x00;  MISO: 0xFF
0.030384833333333,SPI,MOSI: 0x00;  MISO: 0xFF
0.030392833333333,SPI,MOSI: 0x00;  MISO: 0xFF
0.030402333333333,SPI,MOSI: 0x00;  MISO: 0xFF
0.030410333333333,SPI,MOSI: 0x00;  MISO: 0xFF
0.030419833333333,SPI,MOSI: 0x00;  MISO: 0xFF
0.030427833333333,SPI,MOSI: 0x00;  MISO: 0xFF
0.030437333333333,SPI,MOSI: 0x00;  MISO: 0xFF
0.030445333333333,SPI,MOSI: 0x00;  MISO: 0xFF
0.030454833333333,SPI,MOSI: 0x00;  MISO: 0xFF
0.030462833333333,SPI,MOSI: 0x00;  MISO: 0xFF
0.030472333333333,SPI,MOSI: 0x00;  MISO: 0xFF
0.030480333333333,SPI,MOSI: 0x00;  MISO: 0xFF
0.030489833333333,SPI,MOSI: 0x00;  MISO: 0xFF
0.030497833333333,SPI,MOSI: 0x00;  MISO: 0xFF
0.030507333333333,SPI,MOSI: 0x00;  MISO: 0xFF
0.030515333333333,SPI,MOSI: 0x00;  MISO: 0xFF
0.030524833333333,SPI,MOSI: 0x00;  MISO: 0xFF
0.030532833333333,SPI,MOSI: 0x00;  MISO: 0xFF
0.030542333333333,SPI,MOSI: 0x00;  MISO: 0xFF
0.030550333333333,SPI,MOSI: 0x00;  MISO: 0xFF
0.030559833333333,SPI,MOSI: 0x00;  MISO: 0xFF
0.030567833333333,SPI,MOSI: 0x00;  MISO: 0xFF
0.030577333333333,SPI,MOSI: 0x00;  MISO: 0xFF
0.030585333333333,SPI,MOSI: 0x00;  MISO: 0xFF
0.030594833333333,SPI,MOSI: 0x00;  MISO: 0xFF
0.030602833333333,SPI,MOSI: 0x00;  MISO: 0xFF
0.030612333333333,SPI,MOSI: 0x00;  MISO: 0xFF
0.030620333333333,SPI,MOSI: 0x00;  MISO: 0xFF
0.030629833333333,SPI,MOSI: 0x00;  MISO: 0xFF
0.030637833333333,SPI,MOSI: 0x00;  MISO: 0xFF
0.030647333333333,SPI,MOSI: 0x00;  MISO: 0xFF
0.030655333333333,SPI,MOSI: 0x00;  MISO: 0xFF
0.030664833333333,SPI,MOSI: 0x00;  MISO: 0xFF
0.030672833333333,SPI,MOSI: 0x00;  MISO: 0xFF
0.030682333333333,SPI,MOSI: 0x00;  MISO: 0xFF
