Time [s], Analyzer Name, Decoded Protocol Result,,,
0.067661833,SPI,MOSI, 0x2A,  MISO, 0xFF
0.067669833,SPI,MOSI, 0xD4,  MISO, 0xFF
0.067679333,SPI,MOSI, 0x00,  MISO, 0xFF
0.067687333,SPI,MOSI, 0x00,  MISO, 0xFF
0.067718583,SPI,MOSI, 0x2A,  MISO, 0xFF
0.067726583,SPI,MOSI, 0xD4,  MISO, 0xFF
0.067736083,SPI,MOSI, 0x00,  MISO, 0x3F
0.067744083,SPI,MOSI, 0x00,  MISO, 0xFF
0.067773917,SPI,MOSI, 0x2A,  MISO, 0xFF
0.067781917,SPI,MOSI, 0xD4,  MISO, 0xFF
0.067791417,SPI,MOSI, 0x00,  MISO, 0x0F
0.067799417,SPI,MOSI, 0x00,  MISO, 0xFF
0.067830208,SPI,MOSI, 0x2A,  MISO, 0xFF
0.06783825,SPI,MOSI, 0xD4,  MISO, 0xFF
0.067847708,SPI,MOSI, 0x00,  MISO, 0x0F
0.06785575,SPI,MOSI, 0x00,  MISO, 0xFF
0.067893125,SPI,MOSI, 0x2A,  MISO, 0xFF
0.067901125,SPI,MOSI, 0xD4,  MISO, 0xFF
0.067910625,SPI,MOSI, 0x00,  MISO, 0x0F
0.067918625,SPI,MOSI, 0x00,  MISO, 0xFF
0.067948542,SPI,MOSI, 0x2A,  MISO, 0xFF
0.067956542,SPI,MOSI, 0xD4,  MISO, 0xFF
0.067966042,SPI,MOSI, 0x00,  MISO, 0x0F
0.067974042,SPI,MOSI, 0x00,  MISO, 0xFF
0.068221583,SPI,MOSI, 0x2A,  MISO, 0xFF
0.068229542,SPI,MOSI, 0xD4,  MISO, 0xFF
0.068239083,SPI,MOSI, 0x00,  MISO, 0x0F
0.068247042,SPI,MOSI, 0x00,  MISO, 0xFF
0.068310292,SPI,MOSI, 0x2A,  MISO, 0xFF
0.068318292,SPI,MOSI, 0xD4,  MISO, 0xFF
0.068327792,SPI,MOSI, 0x00,  MISO, 0x0F
0.068335792,SPI,MOSI, 0x00,  MISO, 0xFF
0.068365667,SPI,MOSI, 0x2A,  MISO, 0xFF
0.068373667,SPI,MOSI, 0xD4,  MISO, 0xFF
0.068383167,SPI,MOSI, 0x00,  MISO, 0x0F
0.068391167,SPI,MOSI, 0x00,  MISO, 0xFF
0.068422542,SPI,MOSI, 0x2A,  MISO, 0xFF
0.068430542,SPI,MOSI, 0xD4,  MISO, 0xFF
0.068440042,SPI,MOSI, 0x00,  MISO, 0xFF
0.068448042,SPI,MOSI, 0x00,  MISO, 0xFF
0.068477875,SPI,MOSI, 0x2A,  MISO, 0xFF
0.068485875,SPI,MOSI, 0xD4,  MISO, 0xFF
0.068495375,SPI,MOSI, 0x00,  MISO, 0xFF
0.068503375,SPI,MOSI, 0x00,  MISO, 0xFF
0.068532958,SPI,MOSI, 0x2A,  MISO, 0xFF
0.068540958,SPI,MOSI, 0xD4,  MISO, 0xFF
0.068550458,SPI,MOSI, 0x00,  MISO, 0xFF
0.068558458,SPI,MOSI, 0x00,  MISO, 0xFF
0.068588083,SPI,MOSI, 0x2A,  MISO, 0xFF
0.068596083,SPI,MOSI, 0xD4,  MISO, 0xFF
0.068605583,SPI,MOSI, 0x00,  MISO, 0xFF
0.068613583,SPI,MOSI, 0x00,  MISO, 0xFF
0.068643292,SPI,MOSI, 0x2A,  MISO, 0xFF
0.068651292,SPI,MOSI, 0xD4,  MISO, 0xFF
0.068660792,SPI,MOSI, 0x00,  MISO, 0xFF
0.068668792,SPI,MOSI, 0x00,  MISO, 0xFF
0.068698458,SPI,MOSI, 0x2A,  MISO, 0xFF
0.068706458,SPI,MOSI, 0xD4,  MISO, 0xFF
0.068715958,SPI,MOSI, 0x00,  MISO, 0xFF
0.068723958,SPI,MOSI, 0x00,  MISO, 0xFF
0.068753542,SPI,MOSI, 0x2A,  MISO, 0xFF
0.068761542,SPI,MOSI, 0xD4,  MISO, 0xFF
0.068771042,SPI,MOSI, 0x00,  MISO, 0xFF
0.068779042,SPI,MOSI, 0x00,  MISO, 0xFF
0.068809833,SPI,MOSI, 0x2A,  MISO, 0xFF
0.068817833,SPI,MOSI, 0xD4,  MISO, 0xFF
0.068827333,SPI,MOSI, 0x00,  MISO, 0xFF
0.068835333,SPI,MOSI, 0x00,  MISO, 0xFF
0.068865292,SPI,MOSI, 0x2A,  MISO, 0xFF
0.068873292,SPI,MOSI, 0xD4,  MISO, 0xFF
0.068882792,SPI,MOSI, 0x00,  MISO, 0xFF
0.068890792,SPI,MOSI, 0x00,  MISO, 0xFF
0.068920083,SPI,MOSI, 0x21,  MISO, 0xFF
0.068928083,SPI,MOSI, 0xF2,  MISO, 0xFF
0.068958292,SPI,MOSI, 0x21,  MISO, 0xFF
0.068966292,SPI,MOSI, 0xF2,  MISO, 0xFF
0.069246417,SPI,MOSI, 0x4D,  MISO, 0xFF
0.069254417,SPI,MOSI, 0x83,  MISO, 0xFF
0.069263917,SPI,MOSI, 0x9A,  MISO, 0xFF
0.069271917,SPI,MOSI, 0x00,  MISO, 0xFF
0.069281417,SPI,MOSI, 0x00,  MISO, 0xFF
0.069289417,SPI,MOSI, 0x00,  MISO, 0xFF
0.069298917,SPI,MOSI, 0x00,  MISO, 0xFF
0.069306917,SPI,MOSI, 0x00,  MISO, 0xFF
0.069316417,SPI,MOSI, 0x00,  MISO, 0xFF
0.069324417,SPI,MOSI, 0x00,  MISO, 0xFF
0.069333917,SPI,MOSI, 0x00,  MISO, 0xFF
0.069341917,SPI,MOSI, 0x00,  MISO, 0xFF
0.069351417,SPI,MOSI, 0x00,  MISO, 0xFF
0.069359417,SPI,MOSI, 0x00,  MISO, 0xFF
0.069368917,SPI,MOSI, 0x00,  MISO, 0xFF
0.069376917,SPI,MOSI, 0x00,  MISO, 0xFF
0.069386417,SPI,MOSI, 0x00,  MISO, 0xFF
0.069394417,SPI,MOSI, 0x00,  MISO, 0xFF
0.069403917,SPI,MOSI, 0x00,  MISO, 0xFF
0.069411917,SPI,MOSI, 0x00,  MISO, 0xFF
0.069421417,SPI,MOSI, 0x00,  MISO, 0xFF
0.069429417,SPI,MOSI, 0x00,  MISO, 0xFF
0.069438917,SPI,MOSI, 0x00,  MISO, 0xFF
0.069446917,SPI,MOSI, 0x00,  MISO, 0xFF
0.069456417,SPI,MOSI, 0x00,  MISO, 0xFF
0.069464417,SPI,MOSI, 0x00,  MISO, 0xFF
0.069473917,SPI,MOSI, 0x00,  MISO, 0xFF
0.069481917,SPI,MOSI, 0x00,  MISO, 0xFF
0.069491417,SPI,MOSI, 0x00,  MISO, 0xFF
0.069499417,SPI,MOSI, 0x00,  MISO, 0xFF
0.069508917,SPI,MOSI, 0x00,  MISO, 0xFF
0.069516917,SPI,MOSI, 0x00,  MISO, 0xFF
0.069526417,SPI,MOSI, 0x00,  MISO, 0xFF
0.069534417,SPI,MOSI, 0x00,  MISO, 0xFF
0.069543917,SPI,MOSI, 0x00,  MISO, 0xFF
0.069551917,SPI,MOSI, 0x00,  MISO, 0xFF
0.069561417,SPI,MOSI, 0x00,  MISO, 0xFF
0.069569417,SPI,MOSI, 0x00,  MISO, 0xFF
0.069578917,SPI,MOSI, 0x00,  MISO, 0xFF
0.069586917,SPI,MOSI, 0x00,  MISO, 0xFF
0.069596417,SPI,MOSI, 0x00,  MISO, 0xFF
0.069604417,SPI,MOSI, 0x00,  MISO, 0xFF
0.069613917,SPI,MOSI, 0x00,  MISO, 0xFF
0.069621917,SPI,MOSI, 0x00,  MISO, 0xFF
0.069631417,SPI,MOSI, 0x00,  MISO, 0xFF
0.069639417,SPI,MOSI, 0x00,  MISO, 0xFF
0.069648917,SPI,MOSI, 0x00,  MISO, 0xFF
0.069656917,SPI,MOSI, 0x00,  MISO, 0xFF
0.069666417,SPI,MOSI, 0x00,  MISO, 0xFF
0.069674417,SPI,MOSI, 0x00,  MISO, 0xFF
0.069683917,SPI,MOSI, 0x00,  MISO, 0xFF
0.069691917,SPI,MOSI, 0x00,  MISO, 0xFF
0.069701417,SPI,MOSI, 0x00,  MISO, 0xFF
0.069709417,SPI,MOSI, 0x00,  MISO, 0xFF
0.069718917,SPI,MOSI, 0x00,  MISO, 0xFF
0.069726917,SPI,MOSI, 0x00,  MISO, 0xFF
0.069736417,SPI,MOSI, 0x00,  MISO, 0xFF
0.069744417,SPI,MOSI, 0x00,  MISO, 0xFF
0.069753917,SPI,MOSI, 0x00,  MISO, 0xFF
0.069761917,SPI,MOSI, 0x00,  MISO, 0xFF
0.069771417,SPI,MOSI, 0x00,  MISO, 0xFF
0.069779417,SPI,MOSI, 0x00,  MISO, 0xFF
0.069788917,SPI,MOSI, 0x00,  MISO, 0xFF
0.069796917,SPI,MOSI, 0x00,  MISO, 0xFF
0.069806417,SPI,MOSI, 0x00,  MISO, 0xFF
0.069814417,SPI,MOSI, 0x00,  MISO, 0xFF
0.069823917,SPI,MOSI, 0x00,  MISO, 0xFF
0.069831917,SPI,MOSI, 0x00,  MISO, 0xFF
0.069841417,SPI,MOSI, 0x00,  MISO, 0xFF
0.069849417,SPI,MOSI, 0x00,  MISO, 0xFF
0.069858917,SPI,MOSI, 0x00,  MISO, 0xFF
0.069866917,SPI,MOSI, 0x00,  MISO, 0xFF
0.069876417,SPI,MOSI, 0x00,  MISO, 0xFF
0.069884417,SPI,MOSI, 0x00,  MISO, 0xFF
0.069893917,SPI,MOSI, 0x00,  MISO, 0xFF
0.069901917,SPI,MOSI, 0x00,  MISO, 0xFF
0.069935583,SPI,MOSI, 0x2A,  MISO, 0xFF
0.069943583,SPI,MOSI, 0xD4,  MISO, 0xFF
0.069953083,SPI,MOSI, 0x00,  MISO, 0x0F
0.069961083,SPI,MOSI, 0x00,  MISO, 0xFF
0.0702185,SPI,MOSI, 0x2A,  MISO, 0xFF
0.0702265,SPI,MOSI, 0xD4,  MISO, 0xFF
0.070236,SPI,MOSI, 0x00,  MISO, 0x0F
0.070244,SPI,MOSI, 0x00,  MISO, 0xFF
0.070275042,SPI,MOSI, 0x2A,  MISO, 0xFF
0.070283042,SPI,MOSI, 0xD4,  MISO, 0xFF
0.070292542,SPI,MOSI, 0x00,  MISO, 0x0F
0.070300542,SPI,MOSI, 0x00,  MISO, 0xFF
0.070330083,SPI,MOSI, 0x2A,  MISO, 0xFF
0.070338125,SPI,MOSI, 0xD4,  MISO, 0xFF
0.070347625,SPI,MOSI, 0x00,  MISO, 0x0F
0.070355625,SPI,MOSI, 0x00,  MISO, 0xFF
0.070385208,SPI,MOSI, 0x2A,  MISO, 0xFF
0.070393208,SPI,MOSI, 0xD4,  MISO, 0xFF
0.070402708,SPI,MOSI, 0x00,  MISO, 0x0F
0.070410708,SPI,MOSI, 0x00,  MISO, 0xFF
0.070440375,SPI,MOSI, 0x2A,  MISO, 0xFF
0.070448375,SPI,MOSI, 0xD4,  MISO, 0xFF
0.070457875,SPI,MOSI, 0x00,  MISO, 0x0F
0.070465875,SPI,MOSI, 0x00,  MISO, 0xFF
0.070495667,SPI,MOSI, 0x2A,  MISO, 0xFF
0.070503667,SPI,MOSI, 0xD4,  MISO, 0xFF
0.070513167,SPI,MOSI, 0x00,  MISO, 0x0F
0.070521167,SPI,MOSI, 0x00,  MISO, 0xFF
0.070550708,SPI,MOSI, 0x2A,  MISO, 0xFF
0.070558708,SPI,MOSI, 0xD4,  MISO, 0xFF
0.070568208,SPI,MOSI, 0x00,  MISO, 0x0F
0.070576208,SPI,MOSI, 0x00,  MISO, 0xFF
0.070605833,SPI,MOSI, 0x2A,  MISO, 0xFF
0.070613833,SPI,MOSI, 0xD4,  MISO, 0xFF
0.070623292,SPI,MOSI, 0x00,  MISO, 0x0F
0.070631333,SPI,MOSI, 0x00,  MISO, 0xFF
0.070685833,SPI,MOSI, 0x4D,  MISO, 0xFF
0.070693833,SPI,MOSI, 0x83,  MISO, 0xFF
0.070703333,SPI,MOSI, 0x9A,  MISO, 0xFF
0.070711333,SPI,MOSI, 0x00,  MISO, 0x83
0.070720833,SPI,MOSI, 0x00,  MISO, 0xCA
0.070728833,SPI,MOSI, 0x00,  MISO, 0x2C
0.070738333,SPI,MOSI, 0x00,  MISO, 0xF0
0.070746333,SPI,MOSI, 0x00,  MISO, 0xF4
0.070755833,SPI,MOSI, 0x00,  MISO, 0xDF
0.070763833,SPI,MOSI, 0x00,  MISO, 0x14
0.070773333,SPI,MOSI, 0x00,  MISO, 0x1D
0.070781333,SPI,MOSI, 0x00,  MISO, 0xB7
0.070790833,SPI,MOSI, 0x00,  MISO, 0x83
0.070798833,SPI,MOSI, 0x00,  MISO, 0xD8
0.070808333,SPI,MOSI, 0x00,  MISO, 0x14
0.070816333,SPI,MOSI, 0x00,  MISO, 0x21
0.070825833,SPI,MOSI, 0x00,  MISO, 0xF5
0.070833833,SPI,MOSI, 0x00,  MISO, 0x40
0.070843333,SPI,MOSI, 0x00,  MISO, 0x15
0.070851333,SPI,MOSI, 0x00,  MISO, 0x21
0.070860833,SPI,MOSI, 0x00,  MISO, 0xF1
0.070868833,SPI,MOSI, 0x00,  MISO, 0xFF
0.070878333,SPI,MOSI, 0x00,  MISO, 0xFF
0.070886333,SPI,MOSI, 0x00,  MISO, 0xFF
0.070895833,SPI,MOSI, 0x00,  MISO, 0xFF
0.070903833,SPI,MOSI, 0x00,  MISO, 0xFF
0.070913333,SPI,MOSI, 0x00,  MISO, 0xFF
0.070921333,SPI,MOSI, 0x00,  MISO, 0xFF
0.070930833,SPI,MOSI, 0x00,  MISO, 0xFF
0.070938833,SPI,MOSI, 0x00,  MISO, 0xFF
0.070948333,SPI,MOSI, 0x00,  MISO, 0xFF
0.070956333,SPI,MOSI, 0x00,  MISO, 0xFF
0.070965833,SPI,MOSI, 0x00,  MISO, 0xFF
0.070973833,SPI,MOSI, 0x00,  MISO, 0xFF
0.070983333,SPI,MOSI, 0x00,  MISO, 0xFF
0.070991333,SPI,MOSI, 0x00,  MISO, 0xFF
0.071000833,SPI,MOSI, 0x00,  MISO, 0xFF
0.071008833,SPI,MOSI, 0x00,  MISO, 0xFF
0.071018333,SPI,MOSI, 0x00,  MISO, 0xFF
0.071026333,SPI,MOSI, 0x00,  MISO, 0xFF
0.071035833,SPI,MOSI, 0x00,  MISO, 0xFF
0.071043833,SPI,MOSI, 0x00,  MISO, 0xFF
0.071053333,SPI,MOSI, 0x00,  MISO, 0xFF
0.071061333,SPI,MOSI, 0x00,  MISO, 0xFF
0.071070833,SPI,MOSI, 0x00,  MISO, 0xFF
0.071078833,SPI,MOSI, 0x00,  MISO, 0xFF
0.071088333,SPI,MOSI, 0x00,  MISO, 0xFF
0.071096333,SPI,MOSI, 0x00,  MISO, 0xFF
0.071105833,SPI,MOSI, 0x00,  MISO, 0xFF
0.071113833,SPI,MOSI, 0x00,  MISO, 0xFF
0.071123333,SPI,MOSI, 0x00,  MISO, 0xFF
0.071131333,SPI,MOSI, 0x00,  MISO, 0xFF
0.071140833,SPI,MOSI, 0x00,  MISO, 0xFF
0.071148833,SPI,MOSI, 0x00,  MISO, 0xFF
0.071158333,SPI,MOSI, 0x00,  MISO, 0xFF
0.071166333,SPI,MOSI, 0x00,  MISO, 0xFF
0.071175833,SPI,MOSI, 0x00,  MISO, 0xFF
0.071183833,SPI,MOSI, 0x00,  MISO, 0xFF
0.071193333,SPI,MOSI, 0x00,  MISO, 0xFF
0.071201333,SPI,MOSI, 0x00,  MISO, 0xFF
0.071210833,SPI,MOSI, 0x00,  MISO, 0xFF
0.071218833,SPI,MOSI, 0x00,  MISO, 0xFF
0.071228333,SPI,MOSI, 0x00,  MISO, 0xFF
0.071236333,SPI,MOSI, 0x00,  MISO, 0xFF
0.071245833,SPI,MOSI, 0x00,  MISO, 0xFF
0.071253833,SPI,MOSI, 0x00,  MISO, 0xFF
0.071263333,SPI,MOSI, 0x00,  MISO, 0xFF
0.071271333,SPI,MOSI, 0x00,  MISO, 0xFF
0.071280833,SPI,MOSI, 0x00,  MISO, 0xFF
0.071288875,SPI,MOSI, 0x00,  MISO, 0xFF
0.071298333,SPI,MOSI, 0x00,  MISO, 0xFF
0.071306375,SPI,MOSI, 0x00,  MISO, 0xFF
0.071315833,SPI,MOSI, 0x00,  MISO, 0xFF
0.071323875,SPI,MOSI, 0x00,  MISO, 0xFF
0.071333333,SPI,MOSI, 0x00,  MISO, 0xFF
0.071341375,SPI,MOSI, 0x00,  MISO, 0xFF
0.071393417,SPI,MOSI, 0x4E,  MISO, 0xFF
0.071401417,SPI,MOSI, 0x83,  MISO, 0xFF
0.071410917,SPI,MOSI, 0x8E,  MISO, 0xFF
0.071418917,SPI,MOSI, 0x00,  MISO, 0xFF
0.071428417,SPI,MOSI, 0x00,  MISO, 0xFF
0.071436417,SPI,MOSI, 0x00,  MISO, 0xFF
0.071445917,SPI,MOSI, 0x00,  MISO, 0xFF
0.071453917,SPI,MOSI, 0x00,  MISO, 0xFF
0.071463417,SPI,MOSI, 0x00,  MISO, 0xFF
0.071471417,SPI,MOSI, 0x00,  MISO, 0xFF
0.071480917,SPI,MOSI, 0x00,  MISO, 0xFF
0.071488917,SPI,MOSI, 0x00,  MISO, 0xFF
0.071498417,SPI,MOSI, 0x00,  MISO, 0xFF
0.071506417,SPI,MOSI, 0x00,  MISO, 0xFF
0.071515917,SPI,MOSI, 0x00,  MISO, 0xFF
0.071523917,SPI,MOSI, 0x00,  MISO, 0xFF
0.071533417,SPI,MOSI, 0x00,  MISO, 0xFF
0.071541417,SPI,MOSI, 0x00,  MISO, 0xFF
0.071550917,SPI,MOSI, 0x00,  MISO, 0xFF
0.071558917,SPI,MOSI, 0x00,  MISO, 0xFF
0.071568417,SPI,MOSI, 0x00,  MISO, 0xFF
0.071576417,SPI,MOSI, 0x00,  MISO, 0xFF
0.071585917,SPI,MOSI, 0x00,  MISO, 0xFF
0.071593917,SPI,MOSI, 0x00,  MISO, 0xFF
0.071603417,SPI,MOSI, 0x00,  MISO, 0xFF
0.071611417,SPI,MOSI, 0x00,  MISO, 0xFF
0.071620917,SPI,MOSI, 0x00,  MISO, 0xFF
0.071628917,SPI,MOSI, 0x00,  MISO, 0xFF
0.071638417,SPI,MOSI, 0x00,  MISO, 0xFF
0.071646417,SPI,MOSI, 0x00,  MISO, 0xFF
0.071655917,SPI,MOSI, 0x00,  MISO, 0xFF
0.071663917,SPI,MOSI, 0x00,  MISO, 0xFF
0.071673417,SPI,MOSI, 0x00,  MISO, 0xFF
0.071681417,SPI,MOSI, 0x00,  MISO, 0xFF
0.071690917,SPI,MOSI, 0x00,  MISO, 0xFF
0.071698917,SPI,MOSI, 0x00,  MISO, 0xFF
0.071708417,SPI,MOSI, 0x00,  MISO, 0xFF
0.071716417,SPI,MOSI, 0x00,  MISO, 0xFF
0.071725917,SPI,MOSI, 0x00,  MISO, 0xFF
0.071733917,SPI,MOSI, 0x00,  MISO, 0xFF
0.071743417,SPI,MOSI, 0x00,  MISO, 0xFF
0.071751417,SPI,MOSI, 0x00,  MISO, 0xFF
0.071760917,SPI,MOSI, 0x00,  MISO, 0xFF
0.071768917,SPI,MOSI, 0x00,  MISO, 0xFF
0.071778417,SPI,MOSI, 0x00,  MISO, 0xFF
0.071786417,SPI,MOSI, 0x00,  MISO, 0xFF
0.071795917,SPI,MOSI, 0x00,  MISO, 0xFF
0.071803917,SPI,MOSI, 0x00,  MISO, 0xFF
0.071813417,SPI,MOSI, 0x00,  MISO, 0xFF
0.071821417,SPI,MOSI, 0x00,  MISO, 0xFF
0.071830917,SPI,MOSI, 0x00,  MISO, 0xFF
0.071838917,SPI,MOSI, 0x00,  MISO, 0xFF
0.071848417,SPI,MOSI, 0x00,  MISO, 0xFF
0.071856417,SPI,MOSI, 0x00,  MISO, 0xFF
0.071865917,SPI,MOSI, 0x00,  MISO, 0xFF
0.071873917,SPI,MOSI, 0x00,  MISO, 0xFF
0.071883417,SPI,MOSI, 0x00,  MISO, 0xFF
0.071891417,SPI,MOSI, 0x00,  MISO, 0xFF
0.071900917,SPI,MOSI, 0x00,  MISO, 0xFF
0.071908917,SPI,MOSI, 0x00,  MISO, 0xFF
0.071918417,SPI,MOSI, 0x00,  MISO, 0xFF
0.071926417,SPI,MOSI, 0x00,  MISO, 0xFF
0.071935917,SPI,MOSI, 0x00,  MISO, 0xFF
0.071943917,SPI,MOSI, 0x00,  MISO, 0xFF
0.071953417,SPI,MOSI, 0x00,  MISO, 0xFF
0.071961417,SPI,MOSI, 0x00,  MISO, 0xFF
0.071970917,SPI,MOSI, 0x00,  MISO, 0xFF
0.071978917,SPI,MOSI, 0x00,  MISO, 0xFF
0.071988417,SPI,MOSI, 0x00,  MISO, 0xFF
0.071996417,SPI,MOSI, 0x00,  MISO, 0xFF
0.072005917,SPI,MOSI, 0x00,  MISO, 0xFF
0.072013917,SPI,MOSI, 0x00,  MISO, 0xFF
0.072023417,SPI,MOSI, 0x00,  MISO, 0xFF
0.072031417,SPI,MOSI, 0x00,  MISO, 0xFF
0.072040917,SPI,MOSI, 0x00,  MISO, 0xFF
0.072048917,SPI,MOSI, 0x00,  MISO, 0xFF
0.07222,SPI,MOSI, 0x2A,  MISO, 0xFF
0.072228,SPI,MOSI, 0xD4,  MISO, 0xFF
0.0722375,SPI,MOSI, 0x00,  MISO, 0x0F
0.0722455,SPI,MOSI, 0x00,  MISO, 0xFF
0.072277375,SPI,MOSI, 0x2A,  MISO, 0xFF
0.072285375,SPI,MOSI, 0xD4,  MISO, 0xFF
0.072294875,SPI,MOSI, 0x00,  MISO, 0x0F
0.072302875,SPI,MOSI, 0x00,  MISO, 0xFF
0.072332792,SPI,MOSI, 0x2A,  MISO, 0xFF
0.072340792,SPI,MOSI, 0xD4,  MISO, 0xFF
0.072350292,SPI,MOSI, 0x00,  MISO, 0x0F
0.072358292,SPI,MOSI, 0x00,  MISO, 0xFF
0.072387917,SPI,MOSI, 0x2A,  MISO, 0xFF
0.072395917,SPI,MOSI, 0xD4,  MISO, 0xFF
0.072405417,SPI,MOSI, 0x00,  MISO, 0x0F
0.072413417,SPI,MOSI, 0x00,  MISO, 0xFF
0.072454,SPI,MOSI, 0x2A,  MISO, 0xFF
0.072462,SPI,MOSI, 0xD4,  MISO, 0xFF
0.0724715,SPI,MOSI, 0x00,  MISO, 0x0F
0.0724795,SPI,MOSI, 0x00,  MISO, 0xFF
0.07250925,SPI,MOSI, 0x2A,  MISO, 0xFF
0.07251725,SPI,MOSI, 0xD4,  MISO, 0xFF
0.07252675,SPI,MOSI, 0x00,  MISO, 0x0F
0.07253475,SPI,MOSI, 0x00,  MISO, 0xFF
0.072565292,SPI,MOSI, 0x2A,  MISO, 0xFF
0.072573292,SPI,MOSI, 0xD4,  MISO, 0xFF
0.072582792,SPI,MOSI, 0x00,  MISO, 0x0F
0.072590792,SPI,MOSI, 0x00,  MISO, 0xFF
0.072620583,SPI,MOSI, 0x2A,  MISO, 0xFF
0.072628583,SPI,MOSI, 0xD4,  MISO, 0xFF
0.072638083,SPI,MOSI, 0x00,  MISO, 0x0F
0.072646083,SPI,MOSI, 0x00,  MISO, 0xFF
0.072675875,SPI,MOSI, 0x2A,  MISO, 0xFF
0.072683875,SPI,MOSI, 0xD4,  MISO, 0xFF
0.072693375,SPI,MOSI, 0x00,  MISO, 0x0F
0.072701375,SPI,MOSI, 0x00,  MISO, 0xFF
0.072743667,SPI,MOSI, 0x4E,  MISO, 0xFF
0.072751708,SPI,MOSI, 0x83,  MISO, 0xFF
0.072761167,SPI,MOSI, 0x8E,  MISO, 0xFF
0.072769167,SPI,MOSI, 0x00,  MISO, 0x83
0.072778667,SPI,MOSI, 0x00,  MISO, 0xB1
0.072786667,SPI,MOSI, 0x00,  MISO, 0x93
0.072796167,SPI,MOSI, 0x00,  MISO, 0x83
0.072804167,SPI,MOSI, 0x00,  MISO, 0x05
0.072813667,SPI,MOSI, 0x00,  MISO, 0x00
0.072821667,SPI,MOSI, 0x00,  MISO, 0xF5
0.072831208,SPI,MOSI, 0x00,  MISO, 0x30
0.072839167,SPI,MOSI, 0x00,  MISO, 0xF6
0.072848708,SPI,MOSI, 0x00,  MISO, 0x83
0.072856667,SPI,MOSI, 0x00,  MISO, 0x06
0.072866208,SPI,MOSI, 0x00,  MISO, 0x93
0.072874167,SPI,MOSI, 0x00,  MISO, 0x52
0.072883708,SPI,MOSI, 0x00,  MISO, 0x05
0.072891667,SPI,MOSI, 0x00,  MISO, 0x51
0.072901208,SPI,MOSI, 0x00,  MISO, 0xF3
0.072909167,SPI,MOSI, 0x00,  MISO, 0x3B
0.072918708,SPI,MOSI, 0x00,  MISO, 0xB8
0.072926708,SPI,MOSI, 0x00,  MISO, 0xFF
0.072936208,SPI,MOSI, 0x00,  MISO, 0xFF
0.072944208,SPI,MOSI, 0x00,  MISO, 0xFF
0.072953708,SPI,MOSI, 0x00,  MISO, 0xFF
0.072961708,SPI,MOSI, 0x00,  MISO, 0xFF
0.072971208,SPI,MOSI, 0x00,  MISO, 0xFF
0.072979208,SPI,MOSI, 0x00,  MISO, 0xFF
0.072988708,SPI,MOSI, 0x00,  MISO, 0xFF
0.072996708,SPI,MOSI, 0x00,  MISO, 0xFF
0.073006167,SPI,MOSI, 0x00,  MISO, 0xFF
0.073014208,SPI,MOSI, 0x00,  MISO, 0xFF
0.073023708,SPI,MOSI, 0x00,  MISO, 0xFF
0.073031708,SPI,MOSI, 0x00,  MISO, 0xFF
0.073041208,SPI,MOSI, 0x00,  MISO, 0xFF
0.073049208,SPI,MOSI, 0x00,  MISO, 0xFF
0.073058708,SPI,MOSI, 0x00,  MISO, 0xFF
0.073066708,SPI,MOSI, 0x00,  MISO, 0xFF
0.073076208,SPI,MOSI, 0x00,  MISO, 0xFF
0.073084208,SPI,MOSI, 0x00,  MISO, 0xFF
0.073093708,SPI,MOSI, 0x00,  MISO, 0xFF
0.073101708,SPI,MOSI, 0x00,  MISO, 0xFF
0.073111208,SPI,MOSI, 0x00,  MISO, 0xFF
0.073119208,SPI,MOSI, 0x00,  MISO, 0xFF
0.073128708,SPI,MOSI, 0x00,  MISO, 0xFF
0.073136708,SPI,MOSI, 0x00,  MISO, 0xFF
0.073146208,SPI,MOSI, 0x00,  MISO, 0xFF
0.073154208,SPI,MOSI, 0x00,  MISO, 0xFF
0.073163708,SPI,MOSI, 0x00,  MISO, 0xFF
0.073171708,SPI,MOSI, 0x00,  MISO, 0xFF
0.073181208,SPI,MOSI, 0x00,  MISO, 0xFF
0.073189208,SPI,MOSI, 0x00,  MISO, 0xFF
0.073198708,SPI,MOSI, 0x00,  MISO, 0xFF
0.073206708,SPI,MOSI, 0x00,  MISO, 0xFF
0.073216208,SPI,MOSI, 0x00,  MISO, 0xFF
0.073224208,SPI,MOSI, 0x00,  MISO, 0xFF
0.073233708,SPI,MOSI, 0x00,  MISO, 0xFF
0.073241708,SPI,MOSI, 0x00,  MISO, 0xFF
0.073251208,SPI,MOSI, 0x00,  MISO, 0xFF
0.073259208,SPI,MOSI, 0x00,  MISO, 0xFF
0.073268708,SPI,MOSI, 0x00,  MISO, 0xFF
0.073276708,SPI,MOSI, 0x00,  MISO, 0xFF
0.073286208,SPI,MOSI, 0x00,  MISO, 0xFF
0.073294208,SPI,MOSI, 0x00,  MISO, 0xFF
0.073303708,SPI,MOSI, 0x00,  MISO, 0xFF
0.073311708,SPI,MOSI, 0x00,  MISO, 0xFF
0.073321208,SPI,MOSI, 0x00,  MISO, 0xFF
0.073329208,SPI,MOSI, 0x00,  MISO, 0xFF
0.073338708,SPI,MOSI, 0x00,  MISO, 0xFF
0.073346708,SPI,MOSI, 0x00,  MISO, 0xFF
0.073356208,SPI,MOSI, 0x00,  MISO, 0xFF
0.073364208,SPI,MOSI, 0x00,  MISO, 0xFF
0.073373708,SPI,MOSI, 0x00,  MISO, 0xFF
0.073381708,SPI,MOSI, 0x00,  MISO, 0xFF
0.073391208,SPI,MOSI, 0x00,  MISO, 0xFF
0.073399208,SPI,MOSI, 0x00,  MISO, 0xFF
0.073443333,SPI,MOSI, 0x50,  MISO, 0xFF
0.073451333,SPI,MOSI, 0x83,  MISO, 0xFF
0.073460833,SPI,MOSI, 0x06,  MISO, 0xFF
0.073468833,SPI,MOSI, 0x00,  MISO, 0xFF
0.073478333,SPI,MOSI, 0x00,  MISO, 0xFF
0.073486333,SPI,MOSI, 0x00,  MISO, 0xFF
0.073495833,SPI,MOSI, 0x00,  MISO, 0xFF
0.073503833,SPI,MOSI, 0x00,  MISO, 0xFF
0.073513333,SPI,MOSI, 0x00,  MISO, 0xFF
0.073521333,SPI,MOSI, 0x00,  MISO, 0xFF
0.073530833,SPI,MOSI, 0x00,  MISO, 0xFF
0.073538833,SPI,MOSI, 0x00,  MISO, 0xFF
0.073548333,SPI,MOSI, 0x00,  MISO, 0xFF
0.073556333,SPI,MOSI, 0x00,  MISO, 0xFF
0.073565833,SPI,MOSI, 0x00,  MISO, 0xFF
0.073573833,SPI,MOSI, 0x00,  MISO, 0xFF
0.073583333,SPI,MOSI, 0x00,  MISO, 0xFF
0.073591333,SPI,MOSI, 0x00,  MISO, 0xFF
0.073600833,SPI,MOSI, 0x00,  MISO, 0xFF
0.073608833,SPI,MOSI, 0x00,  MISO, 0xFF
0.073618333,SPI,MOSI, 0x00,  MISO, 0xFF
0.073626333,SPI,MOSI, 0x00,  MISO, 0xFF
0.073635833,SPI,MOSI, 0x00,  MISO, 0xFF
0.073643833,SPI,MOSI, 0x00,  MISO, 0xFF
0.073653333,SPI,MOSI, 0x00,  MISO, 0xFF
0.073661333,SPI,MOSI, 0x00,  MISO, 0xFF
0.073670833,SPI,MOSI, 0x00,  MISO, 0xFF
0.073678833,SPI,MOSI, 0x00,  MISO, 0xFF
0.073688333,SPI,MOSI, 0x00,  MISO, 0xFF
0.073696333,SPI,MOSI, 0x00,  MISO, 0xFF
0.073705833,SPI,MOSI, 0x00,  MISO, 0xFF
0.073713833,SPI,MOSI, 0x00,  MISO, 0xFF
0.073723333,SPI,MOSI, 0x00,  MISO, 0xFF
0.073731333,SPI,MOSI, 0x00,  MISO, 0xFF
0.073740833,SPI,MOSI, 0x00,  MISO, 0xFF
0.073748833,SPI,MOSI, 0x00,  MISO, 0xFF
0.073758333,SPI,MOSI, 0x00,  MISO, 0xFF
0.073766333,SPI,MOSI, 0x00,  MISO, 0xFF
0.073775833,SPI,MOSI, 0x00,  MISO, 0xFF
0.073783833,SPI,MOSI, 0x00,  MISO, 0xFF
0.073793333,SPI,MOSI, 0x00,  MISO, 0xFF
0.073801333,SPI,MOSI, 0x00,  MISO, 0xFF
0.073810833,SPI,MOSI, 0x00,  MISO, 0xFF
0.073818833,SPI,MOSI, 0x00,  MISO, 0xFF
0.073828333,SPI,MOSI, 0x00,  MISO, 0xFF
0.073836333,SPI,MOSI, 0x00,  MISO, 0xFF
0.073845833,SPI,MOSI, 0x00,  MISO, 0xFF
