Time [s], Analyzer Name, Decoded Protocol Result,,,
0.067661833,SPI,MOSI, 0x2A,  MISO, 0xFF
0.067669833,SPI,MOSI, 0xD4,  MISO, 0xFF
0.067679333,SPI,MOSI, 0x00,  MISO, 0xFF
0.067687333,SPI,MOSI, 0x00,  MISO, 0xFF
0.067718583,SPI,MOSI, 0x2A,  MISO, 0xFF
0.067726583,SPI,MOSI, 0xD4,  MISO, 0xFF
0.067736083,SPI,MOSI, 0x00,  MISO, 0x3F
0.067744083,SPI,MOSI, 0x00,  MISO, 0xFF
0.067773917,SPI,MOSI, 0x2A,  MISO, 0xFF
0.067781917,SPI,MOSI, 0xD4,  MISO, 0xFF
0.067791417,SPI,MOSI, 0x00,  MISO, 0x0F
0.067799417,SPI,MOSI, 0x00,  MISO, 0xFF
0.067830208,SPI,MOSI, 0x2A,  MISO, 0xFF
0.06783825,SPI,MOSI, 0xD4,  MISO, 0xFF
0.067847708,SPI,MOSI, 0x00,  MISO, 0x0F
0.06785575,SPI,MOSI, 0x00,  MISO, 0xFF
0.067893125,SPI,MOSI, 0x2A,  MISO, 0xFF
0.067901125,SPI,MOSI, 0xD4,  MISO, 0xFF
0.067910625,SPI,MOSI, 0x00,  MISO, 0x0F
0.067918625,SPI,MOSI, 0x00,  MISO, 0xFF
0.067948542,SPI,MOSI, 0x2A,  MISO, 0xFF
0.067956542,SPI,MOSI, 0xD4,  MISO, 0xFF
0.067966042,SPI,MOSI, 0x00,  MISO, 0x0F
0.067974042,SPI,MOSI, 0x00,  MISO, 0xFF
0.068221583,SPI,MOSI, 0x2A,  MISO, 0xFF
0.068229542,SPI,MOSI, 0xD4,  MISO, 0xFF
0.068239083,SPI,MOSI, 0x00,  MISO, 0x0F
0.068247042,SPI,MOSI, 0x00,  MISO, 0xFF
0.068310292,SPI,MOSI, 0x2A,  MISO, 0xFF
0.068318292,SPI,MOSI, 0xD4,  MISO, 0xFF
0.068327792,SPI,MOSI, 0x00,  MISO, 0x0F
0.068335792,SPI,MOSI, 0x00,  MISO, 0xFF
0.068365667,SPI,MOSI, 0x2A,  MISO, 0xFF
0.068373667,SPI,MOSI, 0xD4,  MISO, 0xFF
0.068383167,SPI,MOSI, 0x00,  MISO, 0x0F
0.068391167,SPI,MOSI, 0x00,  MISO, 0xFF
0.068422542,SPI,MOSI, 0x2A,  MISO, 0xFF
0.068430542,SPI,MOSI, 0xD4,  MISO, 0xFF
0.068440042,SPI,MOSI, 0x00,  MISO, 0xFF
0.068448042,SPI,MOSI, 0x00,  MISO, 0xFF
0.068477875,SPI,MOSI, 0x2A,  MISO, 0xFF
0.068485875,SPI,MOSI, 0xD4,  MISO, 0xFF
0.068495375,SPI,MOSI, 0x00,  MISO, 0xFF
0.068503375,SPI,MOSI, 0x00,  MISO, 0xFF
0.068532958,SPI,MOSI, 0x2A,  MISO, 0xFF
0.068540958,SPI,MOSI, 0xD4,  MISO, 0xFF
0.068550458,SPI,MOSI, 0x00,  MISO, 0xFF
0.068558458,SPI,MOSI, 0x00,  MISO, 0xFF
0.068588083,SPI,MOSI, 0x2A,  MISO, 0xFF
0.068596083,SPI,MOSI, 0xD4,  MISO, 0xFF
0.068605583,SPI,MOSI, 0x00,  MISO, 0xFF
0.068613583,SPI,MOSI, 0x00,  MISO, 0xFF
0.068643292,SPI,MOSI, 0x2A,  MISO, 0xFF
0.068651292,SPI,MOSI, 0xD4,  MISO, 0xFF
0.068660792,SPI,MOSI, 0x00,  MISO, 0xFF
0.068668792,SPI,MOSI, 0x00,  MISO, 0xFF
0.068698458,SPI,MOSI, 0x2A,  MISO, 0xFF
0.068706458,SPI,MOSI, 0xD4,  MISO, 0xFF
0.068715958,SPI,MOSI, 0x00,  MISO, 0xFF
0.068723958,SPI,MOSI, 0x00,  MISO, 0xFF
0.068753542,SPI,MOSI, 0x2A,  MISO, 0xFF
0.068761542,SPI,MOSI, 0xD4,  MISO, 0xFF
0.068771042,SPI,MOSI, 0x00,  MISO, 0xFF
0.068779042,SPI,MOSI, 0x00,  MISO, 0xFF
0.068809833,SPI,MOSI, 0x2A,  MISO, 0xFF
0.068817833,SPI,MOSI, 0xD4,  MISO, 0xFF
0.068827333,SPI,MOSI, 0x00,  MISO, 0xFF
0.068835333,SPI,MOSI, 0x00,  MISO, 0xFF
0.068865292,SPI,MOSI, 0x2A,  MISO, 0xFF
0.068873292,SPI,MOSI, 0xD4,  MISO, 0xFF
0.068882792,SPI,MOSI, 0x00,  MISO, 0xFF
0.068890792,SPI,MOSI, 0x00,  MISO, 0xFF
0.068920083,SPI,MOSI, 0x21,  MISO, 0xFF
0.068928083,SPI,MOSI, 0xF2,  MISO, 0xFF
0.068958292,SPI,MOSI, 0x21,  MISO, 0xFF
0.068966292,SPI,MOSI, 0xF2,  MISO, 0xFF
0.069246417,SPI,MOSI, 0x4D,  MISO, 0xFF
0.069254417,SPI,MOSI, 0x83,  MISO, 0xFF
0.069263917,SPI,MOSI, 0x9A,  MISO, 0xFF
0.069271917,SPI,MOSI, 0x00,  MISO, 0xFF
0.069281417,SPI,MOSI, 0x00,  MISO, 0xFF
0.069289417,SPI,MOSI, 0x00,  MISO, 0xFF
0.069298917,SPI,MOSI, 0x00,  MISO, 0xFF
0.069306917,SPI,MOSI, 0x00,  MISO, 0xFF
0.069316417,SPI,MOSI, 0x00,  MISO, 0xFF
0.069324417,SPI,MOSI, 0x00,  MISO, 0xFF
0.069333917,SPI,MOSI, 0x00,  MISO, 0xFF
0.069341917,SPI,MOSI, 0x00,  MISO, 0xFF
0.069351417,SPI,MOSI, 0x00,  MISO, 0xFF
0.069359417,SPI,MOSI, 0x00,  MISO, 0xFF
0.069368917,SPI,MOSI, 0x00,  MISO, 0xFF
0.069376917,SPI,MOSI, 0x00,  MISO, 0xFF
0.069386417,SPI,MOSI, 0x00,  MISO, 0xFF
0.069394417,SPI,MOSI, 0x00,  MISO, 0xFF
0.069403917,SPI,MOSI, 0x00,  MISO, 0xFF
0.069411917,SPI,MOSI, 0x00,  MISO, 0xFF
0.069421417,SPI,MOSI, 0x00,  MISO, 0xFF
0.069429417,SPI,MOSI, 0x00,  MISO, 0xFF
0.069438917,SPI,MOSI, 0x00,  MISO, 0xFF
0.069446917,SPI,MOSI, 0x00,  MISO, 0xFF
0.069456417,SPI,MOSI, 0x00,  MISO, 0xFF
0.069464417,SPI,MOSI, 0x00,  MISO, 0xFF
0.069473917,SPI,MOSI, 0x00,  MISO, 0xFF
0.069481917,SPI,MOSI, 0x00,  MISO, 0xFF
0.069491417,SPI,MOSI, 0x00,  MISO, 0xFF
0.069499417,SPI,MOSI, 0x00,  MISO, 0xFF
0.069508917,SPI,MOSI, 0x00,  MISO, 0xFF
0.069516917,SPI,MOSI, 0x00,  MISO, 0xFF
0.069526417,SPI,MOSI, 0x00,  MISO, 0xFF
0.069534417,SPI,MOSI, 0x00,  MISO, 0xFF
0.069543917,SPI,MOSI, 0x00,  MISO, 0xFF
0.069551917,SPI,MOSI, 0x00,  MISO, 0xFF
0.069561417,SPI,MOSI, 0x00,  MISO, 0xFF
0.069569417,SPI,MOSI, 0x00,  MISO, 0xFF
0.069578917,SPI,MOSI, 0x00,  MISO, 0xFF
0.069586917,SPI,MOSI, 0x00,  MISO, 0xFF
0.069596417,SPI,MOSI, 0x00,  MISO, 0xFF
0.069604417,SPI,MOSI, 0x00,  MISO, 0xFF
0.069613917,SPI,MOSI, 0x00,  MISO, 0xFF
0.069621917,SPI,MOSI, 0x00,  MISO, 0xFF
0.069631417,SPI,MOSI, 0x00,  MISO, 0xFF
0.069639417,SPI,MOSI, 0x00,  MISO, 0xFF
0.069648917,SPI,MOSI, 0x00,  MISO, 0xFF
0.069656917,SPI,MOSI, 0x00,  MISO, 0xFF
0.069666417,SPI,MOSI, 0x00,  MISO, 0xFF
0.069674417,SPI,MOSI, 0x00,  MISO, 0xFF
0.069683917,SPI,MOSI, 0x00,  MISO, 0xFF
0.069691917,SPI,MOSI, 0x00,  MISO, 0xFF
0.069701417,SPI,MOSI, 0x00,  MISO, 0xFF
0.069709417,SPI,MOSI, 0x00,  MISO, 0xFF
0.069718917,SPI,MOSI, 0x00,  MISO, 0xFF
0.069726917,SPI,MOSI, 0x00,  MISO, 0xFF
0.069736417,SPI,MOSI, 0x00,  MISO, 0xFF
0.069744417,SPI,MOSI, 0x00,  MISO, 0xFF
0.069753917,SPI,MOSI, 0x00,  MISO, 0xFF
0.069761917,SPI,MOSI, 0x00,  MISO, 0xFF
0.069771417,SPI,MOSI, 0x00,  MISO, 0xFF
0.069779417,SPI,MOSI, 0x00,  MISO, 0xFF
0.069788917,SPI,MOSI, 0x00,  MISO, 0xFF
0.069796917,SPI,MOSI, 0x00,  MISO, 0xFF
0.069806417,SPI,MOSI, 0x00,  MISO, 0xFF
0.069814417,SPI,MOSI, 0x00,  MISO, 0xFF
0.069823917,SPI,MOSI, 0x00,  MISO, 0xFF
0.069831917,SPI,MOSI, 0x00,  MISO, 0xFF
0.069841417,SPI,MOSI, 0x00,  MISO, 0xFF
0.069849417,SPI,MOSI, 0x00,  MISO, 0xFF
0.069858917,SPI,MOSI, 0x00,  MISO, 0xFF
0.069866917,SPI,MOSI, 0x00,  MISO, 0xFF
0.069876417,SPI,MOSI, 0x00,  MISO, 0xFF
0.069884417,SPI,MOSI, 0x00,  MISO, 0xFF
0.069893917,SPI,MOSI, 0x00,  MISO, 0xFF
0.069901917,SPI,MOSI, 0x00,  MISO, 0xFF
0.069935583,SPI,MOSI, 0x2A,  MISO, 0xFF
0.069943583,SPI,MOSI, 0xD4,  MISO, 0xFF
0.069953083,SPI,MOSI, 0x00,  MISO, 0x0F
0.069961083,SPI,MOSI, 0x00,  MISO, 0xFF
0.0702185,SPI,MOSI, 0x2A,  MISO, 0xFF
0.0702265,SPI,MOSI, 0xD4,  MISO, 0xFF
0.070236,SPI,MOSI, 0x00,  MISO, 0x0F
0.070244,SPI,MOSI, 0x00,  MISO, 0xFF
0.070275042,SPI,MOSI, 0x2A,  MISO, 0xFF
0.070283042,SPI,MOSI, 0xD4,  MISO, 0xFF
0.070292542,SPI,MOSI, 0x00,  MISO, 0x0F
0.070300542,SPI,MOSI, 0x00,  MISO, 0xFF
0.070330083,SPI,MOSI, 0x2A,  MISO, 0xFF
0.070338125,SPI,MOSI, 0xD4,  MISO, 0xFF
0.070347625,SPI,MOSI, 0x00,  MISO, 0x0F
0.070355625,SPI,MOSI, 0x00,  MISO, 0xFF
0.070385208,SPI,MOSI, 0x2A,  MISO, 0xFF
0.070393208,SPI,MOSI, 0xD4,  MISO, 0xFF
0.070402708,SPI,MOSI, 0x00,  MISO, 0x0F
0.070410708,SPI,MOSI, 0x00,  MISO, 0xFF
0.070440375,SPI,MOSI, 0x2A,  MISO, 0xFF
0.070448375,SPI,MOSI, 0xD4,  MISO, 0xFF
0.070457875,SPI,MOSI, 0x00,  MISO, 0x0F
0.070465875,SPI,MOSI, 0x00,  MISO, 0xFF
0.070495667,SPI,MOSI, 0x2A,  MISO, 0xFF
0.070503667,SPI,MOSI, 0xD4,  MISO, 0xFF
0.070513167,SPI,MOSI, 0x00,  MISO, 0x0F
0.070521167,SPI,MOSI, 0x00,  MISO, 0xFF
0.070550708,SPI,MOSI, 0x2A,  MISO, 0xFF
0.070558708,SPI,MOSI, 0xD4,  MISO, 0xFF
0.070568208,SPI,MOSI, 0x00,  MISO, 0x0F
0.070576208,SPI,MOSI, 0x00,  MISO, 0xFF
0.070605833,SPI,MOSI, 0x2A,  MISO, 0xFF
0.070613833,SPI,MOSI, 0xD4,  MISO, 0xFF
0.070623292,SPI,MOSI, 0x00,  MISO, 0x0F
0.070631333,SPI,MOSI, 0x00,  MISO, 0xFF
0.070685833,SPI,MOSI, 0x4D,  MISO, 0xFF
0.070693833,SPI,MOSI, 0x83,  MISO, 0xFF
0.070703333,SPI,MOSI, 0x9A,  MISO, 0xFF
0.070711333,SPI,MOSI, 0x00,  MISO, 0x83
0.070720833,SPI,MOSI, 0x00,  MISO, 0xCA
0.070728833,SPI,MOSI, 0x00,  MISO, 0x2C
0.070738333,SPI,MOSI, 0x00,  MISO, 0xF0
0.070746333,SPI,MOSI, 0x00,  MISO, 0xF4
0.070755833,SPI,MOSI, 0x00,  MISO, 0xDF
0.070763833,SPI,MOSI, 0x00,  MISO, 0x14
0.070773333,SPI,MOSI, 0x00,  MISO, 0x1D
0.070781333,SPI,MOSI, 0x00,  MISO, 0xB7
0.070790833,SPI,MOSI, 0x00,  MISO, 0x83
0.070798833,SPI,MOSI, 0x00,  MISO, 0xD8
0.070808333,SPI,MOSI, 0x00,  MISO, 0x14
0.070816333,SPI,MOSI, 0x00,  MISO, 0x21
0.070825833,SPI,MOSI, 0x00,  MISO, 0xF5
0.070833833,SPI,MOSI, 0x00,  MISO, 0x40
0.070843333,SPI,MOSI, 0x00,  MISO, 0x15
0.070851333,SPI,MOSI, 0x00,  MISO, 0x21
0.070860833,SPI,MOSI, 0x00,  MISO, 0xF1
0.070868833,SPI,MOSI, 0x00,  MISO, 0xFF
0.070878333,SPI,MOSI, 0x00,  MISO, 0xFF
0.070886333,SPI,MOSI, 0x00,  MISO, 0xFF
0.070895833,SPI,MOSI, 0x00,  MISO, 0xFF
0.070903833,SPI,MOSI, 0x00,  MISO, 0xFF
0.070913333,SPI,MOSI, 0x00,  MISO, 0xFF
0.070921333,SPI,MOSI, 0x00,  MISO, 0xFF
0.070930833,SPI,MOSI, 0x00,  MISO, 0xFF
0.070938833,SPI,MOSI, 0x00,  MISO, 0xFF
0.070948333,SPI,MOSI, 0x00,  MISO, 0xFF
0.070956333,SPI,MOSI, 0x00,  MISO, 0xFF
0.070965833,SPI,MOSI, 0x00,  MISO, 0xFF
0.070973833,SPI,MOSI, 0x00,  MISO, 0xFF
0.070983333,SPI,MOSI, 0x00,  MISO, 0xFF
0.070991333,SPI,MOSI, 0x00,  MISO, 0xFF
0.071000833,SPI,MOSI, 0x00,  MISO, 0xFF
0.071008833,SPI,MOSI, 0x00,  MISO, 0xFF
0.071018333,SPI,MOSI, 0x00,  MISO, 0xFF
0.071026333,SPI,MOSI, 0x00,  MISO, 0xFF
0.071035833,SPI,MOSI, 0x00,  MISO, 0xFF
0.071043833,SPI,MOSI, 0x00,  MISO, 0xFF
0.071053333,SPI,MOSI, 0x00,  MISO, 0xFF
0.071061333,SPI,MOSI, 0x00,  MISO, 0xFF
0.071070833,SPI,MOSI, 0x00,  MISO, 0xFF
0.071078833,SPI,MOSI, 0x00,  MISO, 0xFF
0.071088333,SPI,MOSI, 0x00,  MISO, 0xFF
0.071096333,SPI,MOSI, 0x00,  MISO, 0xFF
0.071105833,SPI,MOSI, 0x00,  MISO, 0xFF
0.071113833,SPI,MOSI, 0x00,  MISO, 0xFF
0.071123333,SPI,MOSI, 0x00,  MISO, 0xFF
0.071131333,SPI,MOSI, 0x00,  MISO, 0xFF
0.071140833,SPI,MOSI, 0x00,  MISO, 0xFF
0.071148833,SPI,MOSI, 0x00,  MISO, 0xFF
0.071158333,SPI,MOSI, 0x00,  MISO, 0xFF
0.071166333,SPI,MOSI, 0x00,  MISO, 0xFF
0.071175833,SPI,MOSI, 0x00,  MISO, 0xFF
0.071183833,SPI,MOSI, 0x00,  MISO, 0xFF
0.071193333,SPI,MOSI, 0x00,  MISO, 0xFF
0.071201333,SPI,MOSI, 0x00,  MISO, 0xFF
0.071210833,SPI,MOSI, 0x00,  MISO, 0xFF
0.071218833,SPI,MOSI, 0x00,  MISO, 0xFF
0.071228333,SPI,MOSI, 0x00,  MISO, 0xFF
0.071236333,SPI,MOSI, 0x00,  MISO, 0xFF
0.071245833,SPI,MOSI, 0x00,  MISO, 0xFF
0.071253833,SPI,MOSI, 0x00,  MISO, 0xFF
0.071263333,SPI,MOSI, 0x00,  MISO, 0xFF
0.071271333,SPI,MOSI, 0x00,  MISO, 0xFF
0.071280833,SPI,MOSI, 0x00,  MISO, 0xFF
0.071288875,SPI,MOSI, 0x00,  MISO, 0xFF
0.071298333,SPI,MOSI, 0x00,  MISO, 0xFF
0.071306375,SPI,MOSI, 0x00,  MISO, 0xFF
0.071315833,SPI,MOSI, 0x00,  MISO, 0xFF
0.071323875,SPI,MOSI, 0x00,  MISO, 0xFF
0.071333333,SPI,MOSI, 0x00,  MISO, 0xFF
0.071341375,SPI,MOSI, 0x00,  MISO, 0xFF
0.071393417,SPI,MOSI, 0x4E,  MISO, 0xFF
0.071401417,SPI,MOSI, 0x83,  MISO, 0xFF
0.071410917,SPI,MOSI, 0x8E,  MISO, 0xFF
0.071418917,SPI,MOSI, 0x00,  MISO, 0xFF
0.071428417,SPI,MOSI, 0x00,  MISO, 0xFF
0.071436417,SPI,MOSI, 0x00,  MISO, 0xFF
0.071445917,SPI,MOSI, 0x00,  MISO, 0xFF
0.071453917,SPI,MOSI, 0x00,  MISO, 0xFF
0.071463417,SPI,MOSI, 0x00,  MISO, 0xFF
0.071471417,SPI,MOSI, 0x00,  MISO, 0xFF
0.071480917,SPI,MOSI, 0x00,  MISO, 0xFF
0.071488917,SPI,MOSI, 0x00,  MISO, 0xFF
0.071498417,SPI,MOSI, 0x00,  MISO, 0xFF
0.071506417,SPI,MOSI, 0x00,  MISO, 0xFF
0.071515917,SPI,MOSI, 0x00,  MISO, 0xFF
0.071523917,SPI,MOSI, 0x00,  MISO, 0xFF
0.071533417,SPI,MOSI, 0x00,  MISO, 0xFF
0.071541417,SPI,MOSI, 0x00,  MISO, 0xFF
0.071550917,SPI,MOSI, 0x00,  MISO, 0xFF
0.071558917,SPI,MOSI, 0x00,  MISO, 0xFF
0.071568417,SPI,MOSI, 0x00,  MISO, 0xFF
0.071576417,SPI,MOSI, 0x00,  MISO, 0xFF
0.071585917,SPI,MOSI, 0x00,  MISO, 0xFF
0.071593917,SPI,MOSI, 0x00,  MISO, 0xFF
0.071603417,SPI,MOSI, 0x00,  MISO, 0xFF
0.071611417,SPI,MOSI, 0x00,  MISO, 0xFF
0.071620917,SPI,MOSI, 0x00,  MISO, 0xFF
0.071628917,SPI,MOSI, 0x00,  MISO, 0xFF
0.071638417,SPI,MOSI, 0x00,  MISO, 0xFF
0.071646417,SPI,MOSI, 0x00,  MISO, 0xFF
0.071655917,SPI,MOSI, 0x00,  MISO, 0xFF
0.071663917,SPI,MOSI, 0x00,  MISO, 0xFF
0.071673417,SPI,MOSI, 0x00,  MISO, 0xFF
0.071681417,SPI,MOSI, 0x00,  MISO, 0xFF
0.071690917,SPI,MOSI, 0x00,  MISO, 0xFF
0.071698917,SPI,MOSI, 0x00,  MISO, 0xFF
0.071708417,SPI,MOSI, 0x00,  MISO, 0xFF
0.071716417,SPI,MOSI, 0x00,  MISO, 0xFF
0.071725917,SPI,MOSI, 0x00,  MISO, 0xFF
0.071733917,SPI,MOSI, 0x00,  MISO, 0xFF
0.071743417,SPI,MOSI, 0x00,  MISO, 0xFF
0.071751417,SPI,MOSI, 0x00,  MISO, 0xFF
0.071760917,SPI,MOSI, 0x00,  MISO, 0xFF
0.071768917,SPI,MOSI, 0x00,  MISO, 0xFF
0.071778417,SPI,MOSI, 0x00,  MISO, 0xFF
0.071786417,SPI,MOSI, 0x00,  MISO, 0xFF
0.071795917,SPI,MOSI, 0x00,  MISO, 0xFF
0.071803917,SPI,MOSI, 0x00,  MISO, 0xFF
0.071813417,SPI,MOSI, 0x00,  MISO, 0xFF
0.071821417,SPI,MOSI, 0x00,  MISO, 0xFF
0.071830917,SPI,MOSI, 0x00,  MISO, 0xFF
0.071838917,SPI,MOSI, 0x00,  MISO, 0xFF
0.071848417,SPI,MOSI, 0x00,  MISO, 0xFF
0.071856417,SPI,MOSI, 0x00,  MISO, 0xFF
0.071865917,SPI,MOSI, 0x00,  MISO, 0xFF
0.071873917,SPI,MOSI, 0x00,  MISO, 0xFF
0.071883417,SPI,MOSI, 0x00,  MISO, 0xFF
0.071891417,SPI,MOSI, 0x00,  MISO, 0xFF
0.071900917,SPI,MOSI, 0x00,  MISO, 0xFF
0.071908917,SPI,MOSI, 0x00,  MISO, 0xFF
0.071918417,SPI,MOSI, 0x00,  MISO, 0xFF
0.071926417,SPI,MOSI, 0x00,  MISO, 0xFF
0.071935917,SPI,MOSI, 0x00,  MISO, 0xFF
0.071943917,SPI,MOSI, 0x00,  MISO, 0xFF
0.071953417,SPI,MOSI, 0x00,  MISO, 0xFF
0.071961417,SPI,MOSI, 0x00,  MISO, 0xFF
0.071970917,SPI,MOSI, 0x00,  MISO, 0xFF
0.071978917,SPI,MOSI, 0x00,  MISO, 0xFF
0.071988417,SPI,MOSI, 0x00,  MISO, 0xFF
0.071996417,SPI,MOSI, 0x00,  MISO, 0xFF
0.072005917,SPI,MOSI, 0x00,  MISO, 0xFF
0.072013917,SPI,MOSI, 0x00,  MISO, 0xFF
0.072023417,SPI,MOSI, 0x00,  MISO, 0xFF
0.072031417,SPI,MOSI, 0x00,  MISO, 0xFF
0.072040917,SPI,MOSI, 0x00,  MISO, 0xFF
0.072048917,SPI,MOSI, 0x00,  MISO, 0xFF
0.07222,SPI,MOSI, 0x2A,  MISO, 0xFF
0.072228,SPI,MOSI, 0xD4,  MISO, 0xFF
0.0722375,SPI,MOSI, 0x00,  MISO, 0x0F
0.0722455,SPI,MOSI, 0x00,  MISO, 0xFF
0.072277375,SPI,MOSI, 0x2A,  MISO, 0xFF
0.072285375,SPI,MOSI, 0xD4,  MISO, 0xFF
0.072294875,SPI,MOSI, 0x00,  MISO, 0x0F
0.072302875,SPI,MOSI, 0x00,  MISO, 0xFF
0.072332792,SPI,MOSI, 0x2A,  MISO, 0xFF
0.072340792,SPI,MOSI, 0xD4,  MISO, 0xFF
0.072350292,SPI,MOSI, 0x00,  MISO, 0x0F
0.072358292,SPI,MOSI, 0x00,  MISO, 0xFF
0.072387917,SPI,MOSI, 0x2A,  MISO, 0xFF
0.072395917,SPI,MOSI, 0xD4,  MISO, 0xFF
0.072405417,SPI,MOSI, 0x00,  MISO, 0x0F
0.072413417,SPI,MOSI, 0x00,  MISO, 0xFF
0.072454,SPI,MOSI, 0x2A,  MISO, 0xFF
0.072462,SPI,MOSI, 0xD4,  MISO, 0xFF
0.0724715,SPI,MOSI, 0x00,  MISO, 0x0F
0.0724795,SPI,MOSI, 0x00,  MISO, 0xFF
0.07250925,SPI,MOSI, 0x2A,  MISO, 0xFF
0.07251725,SPI,MOSI, 0xD4,  MISO, 0xFF
0.07252675,SPI,MOSI, 0x00,  MISO, 0x0F
0.07253475,SPI,MOSI, 0x00,  MISO, 0xFF
0.072565292,SPI,MOSI, 0x2A,  MISO, 0xFF
0.072573292,SPI,MOSI, 0xD4,  MISO, 0xFF
0.072582792,SPI,MOSI, 0x00,  MISO, 0x0F
0.072590792,SPI,MOSI, 0x00,  MISO, 0xFF
0.072620583,SPI,MOSI, 0x2A,  MISO, 0xFF
0.072628583,SPI,MOSI, 0xD4,  MISO, 0xFF
0.072638083,SPI,MOSI, 0x00,  MISO, 0x0F
0.072646083,SPI,MOSI, 0x00,  MISO, 0xFF
0.072675875,SPI,MOSI, 0x2A,  MISO, 0xFF
0.072683875,SPI,MOSI, 0xD4,  MISO, 0xFF
0.072693375,SPI,MOSI, 0x00,  MISO, 0x0F
0.072701375,SPI,MOSI, 0x00,  MISO, 0xFF
0.072743667,SPI,MOSI, 0x4E,  MISO, 0xFF
0.072751708,SPI,MOSI, 0x83,  MISO, 0xFF
0.072761167,SPI,MOSI, 0x8E,  MISO, 0xFF
0.072769167,SPI,MOSI, 0x00,  MISO, 0x83
0.072778667,SPI,MOSI, 0x00,  MISO, 0xB1
0.072786667,SPI,MOSI, 0x00,  MISO, 0x93
0.072796167,SPI,MOSI, 0x00,  MISO, 0x83
0.072804167,SPI,MOSI, 0x00,  MISO, 0x05
0.072813667,SPI,MOSI, 0x00,  MISO, 0x00
0.072821667,SPI,MOSI, 0x00,  MISO, 0xF5
0.072831208,SPI,MOSI, 0x00,  MISO, 0x30
0.072839167,SPI,MOSI, 0x00,  MISO, 0xF6
0.072848708,SPI,MOSI, 0x00,  MISO, 0x83
0.072856667,SPI,MOSI, 0x00,  MISO, 0x06
0.072866208,SPI,MOSI, 0x00,  MISO, 0x93
0.072874167,SPI,MOSI, 0x00,  MISO, 0x52
0.072883708,SPI,MOSI, 0x00,  MISO, 0x05
0.072891667,SPI,MOSI, 0x00,  MISO, 0x51
0.072901208,SPI,MOSI, 0x00,  MISO, 0xF3
0.072909167,SPI,MOSI, 0x00,  MISO, 0x3B
0.072918708,SPI,MOSI, 0x00,  MISO, 0xB8
0.072926708,SPI,MOSI, 0x00,  MISO, 0xFF
0.072936208,SPI,MOSI, 0x00,  MISO, 0xFF
0.072944208,SPI,MOSI, 0x00,  MISO, 0xFF
0.072953708,SPI,MOSI, 0x00,  MISO, 0xFF
0.072961708,SPI,MOSI, 0x00,  MISO, 0xFF
0.072971208,SPI,MOSI, 0x00,  MISO, 0xFF
0.072979208,SPI,MOSI, 0x00,  MISO, 0xFF
0.072988708,SPI,MOSI, 0x00,  MISO, 0xFF
0.072996708,SPI,MOSI, 0x00,  MISO, 0xFF
0.073006167,SPI,MOSI, 0x00,  MISO, 0xFF
0.073014208,SPI,MOSI, 0x00,  MISO, 0xFF
0.073023708,SPI,MOSI, 0x00,  MISO, 0xFF
0.073031708,SPI,MOSI, 0x00,  MISO, 0xFF
0.073041208,SPI,MOSI, 0x00,  MISO, 0xFF
0.073049208,SPI,MOSI, 0x00,  MISO, 0xFF
0.073058708,SPI,MOSI, 0x00,  MISO, 0xFF
0.073066708,SPI,MOSI, 0x00,  MISO, 0xFF
0.073076208,SPI,MOSI, 0x00,  MISO, 0xFF
0.073084208,SPI,MOSI, 0x00,  MISO, 0xFF
0.073093708,SPI,MOSI, 0x00,  MISO, 0xFF
0.073101708,SPI,MOSI, 0x00,  MISO, 0xFF
0.073111208,SPI,MOSI, 0x00,  MISO, 0xFF
0.073119208,SPI,MOSI, 0x00,  MISO, 0xFF
0.073128708,SPI,MOSI, 0x00,  MISO, 0xFF
0.073136708,SPI,MOSI, 0x00,  MISO, 0xFF
0.073146208,SPI,MOSI, 0x00,  MISO, 0xFF
0.073154208,SPI,MOSI, 0x00,  MISO, 0xFF
0.073163708,SPI,MOSI, 0x00,  MISO, 0xFF
0.073171708,SPI,MOSI, 0x00,  MISO, 0xFF
0.073181208,SPI,MOSI, 0x00,  MISO, 0xFF
0.073189208,SPI,MOSI, 0x00,  MISO, 0xFF
0.073198708,SPI,MOSI, 0x00,  MISO, 0xFF
0.073206708,SPI,MOSI, 0x00,  MISO, 0xFF
0.073216208,SPI,MOSI, 0x00,  MISO, 0xFF
0.073224208,SPI,MOSI, 0x00,  MISO, 0xFF
0.073233708,SPI,MOSI, 0x00,  MISO, 0xFF
0.073241708,SPI,MOSI, 0x00,  MISO, 0xFF
0.073251208,SPI,MOSI, 0x00,  MISO, 0xFF
0.073259208,SPI,MOSI, 0x00,  MISO, 0xFF
0.073268708,SPI,MOSI, 0x00,  MISO, 0xFF
0.073276708,SPI,MOSI, 0x00,  MISO, 0xFF
0.073286208,SPI,MOSI, 0x00,  MISO, 0xFF
0.073294208,SPI,MOSI, 0x00,  MISO, 0xFF
0.073303708,SPI,MOSI, 0x00,  MISO, 0xFF
0.073311708,SPI,MOSI, 0x00,  MISO, 0xFF
0.073321208,SPI,MOSI, 0x00,  MISO, 0xFF
0.073329208,SPI,MOSI, 0x00,  MISO, 0xFF
0.073338708,SPI,MOSI, 0x00,  MISO, 0xFF
0.073346708,SPI,MOSI, 0x00,  MISO, 0xFF
0.073356208,SPI,MOSI, 0x00,  MISO, 0xFF
0.073364208,SPI,MOSI, 0x00,  MISO, 0xFF
0.073373708,SPI,MOSI, 0x00,  MISO, 0xFF
0.073381708,SPI,MOSI, 0x00,  MISO, 0xFF
0.073391208,SPI,MOSI, 0x00,  MISO, 0xFF
0.073399208,SPI,MOSI, 0x00,  MISO, 0xFF
0.073443333,SPI,MOSI, 0x50,  MISO, 0xFF
0.073451333,SPI,MOSI, 0x83,  MISO, 0xFF
0.073460833,SPI,MOSI, 0x06,  MISO, 0xFF
0.073468833,SPI,MOSI, 0x00,  MISO, 0xFF
0.073478333,SPI,MOSI, 0x00,  MISO, 0xFF
0.073486333,SPI,MOSI, 0x00,  MISO, 0xFF
0.073495833,SPI,MOSI, 0x00,  MISO, 0xFF
0.073503833,SPI,MOSI, 0x00,  MISO, 0xFF
0.073513333,SPI,MOSI, 0x00,  MISO, 0xFF
0.073521333,SPI,MOSI, 0x00,  MISO, 0xFF
0.073530833,SPI,MOSI, 0x00,  MISO, 0xFF
0.073538833,SPI,MOSI, 0x00,  MISO, 0xFF
0.073548333,SPI,MOSI, 0x00,  MISO, 0xFF
0.073556333,SPI,MOSI, 0x00,  MISO, 0xFF
0.073565833,SPI,MOSI, 0x00,  MISO, 0xFF
0.073573833,SPI,MOSI, 0x00,  MISO, 0xFF
0.073583333,SPI,MOSI, 0x00,  MISO, 0xFF
0.073591333,SPI,MOSI, 0x00,  MISO, 0xFF
0.073600833,SPI,MOSI, 0x00,  MISO, 0xFF
0.073608833,SPI,MOSI, 0x00,  MISO, 0xFF
0.073618333,SPI,MOSI, 0x00,  MISO, 0xFF
0.073626333,SPI,MOSI, 0x00,  MISO, 0xFF
0.073635833,SPI,MOSI, 0x00,  MISO, 0xFF
0.073643833,SPI,MOSI, 0x00,  MISO, 0xFF
0.073653333,SPI,MOSI, 0x00,  MISO, 0xFF
0.073661333,SPI,MOSI, 0x00,  MISO, 0xFF
0.073670833,SPI,MOSI, 0x00,  MISO, 0xFF
0.073678833,SPI,MOSI, 0x00,  MISO, 0xFF
0.073688333,SPI,MOSI, 0x00,  MISO, 0xFF
0.073696333,SPI,MOSI, 0x00,  MISO, 0xFF
0.073705833,SPI,MOSI, 0x00,  MISO, 0xFF
0.073713833,SPI,MOSI, 0x00,  MISO, 0xFF
0.073723333,SPI,MOSI, 0x00,  MISO, 0xFF
0.073731333,SPI,MOSI, 0x00,  MISO, 0xFF
0.073740833,SPI,MOSI, 0x00,  MISO, 0xFF
0.073748833,SPI,MOSI, 0x00,  MISO, 0xFF
0.073758333,SPI,MOSI, 0x00,  MISO, 0xFF
0.073766333,SPI,MOSI, 0x00,  MISO, 0xFF
0.073775833,SPI,MOSI, 0x00,  MISO, 0xFF
0.073783833,SPI,MOSI, 0x00,  MISO, 0xFF
0.073793333,SPI,MOSI, 0x00,  MISO, 0xFF
0.073801333,SPI,MOSI, 0x00,  MISO, 0xFF
0.073810833,SPI,MOSI, 0x00,  MISO, 0xFF
0.073818833,SPI,MOSI, 0x00,  MISO, 0xFF
0.073828333,SPI,MOSI, 0x00,  MISO, 0xFF
0.073836333,SPI,MOSI, 0x00,  MISO, 0xFF
0.073845833,SPI,MOSI, 0x00,  MISO, 0xFF
0.073853833,SPI,MOSI, 0x00,  MISO, 0xFF
0.073863333,SPI,MOSI, 0x00,  MISO, 0xFF
0.073871333,SPI,MOSI, 0x00,  MISO, 0xFF
0.073880833,SPI,MOSI, 0x00,  MISO, 0xFF
0.073888833,SPI,MOSI, 0x00,  MISO, 0xFF
0.073898333,SPI,MOSI, 0x00,  MISO, 0xFF
0.073906333,SPI,MOSI, 0x00,  MISO, 0xFF
0.073915833,SPI,MOSI, 0x00,  MISO, 0xFF
0.073923833,SPI,MOSI, 0x00,  MISO, 0xFF
0.073933333,SPI,MOSI, 0x00,  MISO, 0xFF
0.073941333,SPI,MOSI, 0x00,  MISO, 0xFF
0.073950833,SPI,MOSI, 0x00,  MISO, 0xFF
0.073958833,SPI,MOSI, 0x00,  MISO, 0xFF
0.074186083,SPI,MOSI, 0x2A,  MISO, 0xFF
0.074194083,SPI,MOSI, 0xD4,  MISO, 0xFF
0.074203583,SPI,MOSI, 0x00,  MISO, 0x0F
0.074211583,SPI,MOSI, 0x00,  MISO, 0xFF
0.074242708,SPI,MOSI, 0x2A,  MISO, 0xFF
0.074250708,SPI,MOSI, 0xD4,  MISO, 0xFF
0.074260208,SPI,MOSI, 0x00,  MISO, 0x0F
0.074268208,SPI,MOSI, 0x00,  MISO, 0xFF
0.074297917,SPI,MOSI, 0x2A,  MISO, 0xFF
0.074305917,SPI,MOSI, 0xD4,  MISO, 0xFF
0.074315417,SPI,MOSI, 0x00,  MISO, 0x0F
0.074323417,SPI,MOSI, 0x00,  MISO, 0xFF
0.074353125,SPI,MOSI, 0x2A,  MISO, 0xFF
0.074361167,SPI,MOSI, 0xD4,  MISO, 0xFF
0.074370625,SPI,MOSI, 0x00,  MISO, 0x0F
0.074378667,SPI,MOSI, 0x00,  MISO, 0xFF
0.074408208,SPI,MOSI, 0x2A,  MISO, 0xFF
0.074416208,SPI,MOSI, 0xD4,  MISO, 0xFF
0.074425708,SPI,MOSI, 0x00,  MISO, 0x0F
0.074433708,SPI,MOSI, 0x00,  MISO, 0xFF
0.074463333,SPI,MOSI, 0x2A,  MISO, 0xFF
0.074471333,SPI,MOSI, 0xD4,  MISO, 0xFF
0.074480833,SPI,MOSI, 0x00,  MISO, 0x0F
0.074488833,SPI,MOSI, 0x00,  MISO, 0xFF
0.074518458,SPI,MOSI, 0x2A,  MISO, 0xFF
0.074526458,SPI,MOSI, 0xD4,  MISO, 0xFF
0.074535958,SPI,MOSI, 0x00,  MISO, 0x0F
0.074543958,SPI,MOSI, 0x00,  MISO, 0xFF
0.074573583,SPI,MOSI, 0x2A,  MISO, 0xFF
0.074581583,SPI,MOSI, 0xD4,  MISO, 0xFF
0.074591083,SPI,MOSI, 0x00,  MISO, 0x0F
0.074599083,SPI,MOSI, 0x00,  MISO, 0xFF
0.074674,SPI,MOSI, 0x2A,  MISO, 0xFF
0.074682,SPI,MOSI, 0xD4,  MISO, 0xFF
0.0746915,SPI,MOSI, 0x00,  MISO, 0x0F
0.0746995,SPI,MOSI, 0x00,  MISO, 0xFF
0.074731792,SPI,MOSI, 0x50,  MISO, 0xFF
0.074739792,SPI,MOSI, 0x83,  MISO, 0xFF
0.074749292,SPI,MOSI, 0x06,  MISO, 0xFF
0.074757292,SPI,MOSI, 0x00,  MISO, 0x83
0.074766792,SPI,MOSI, 0x00,  MISO, 0xF3
0.074774792,SPI,MOSI, 0x00,  MISO, 0x00
0.074784292,SPI,MOSI, 0x00,  MISO, 0x00
0.074792292,SPI,MOSI, 0x00,  MISO, 0x00
0.074801792,SPI,MOSI, 0x00,  MISO, 0x25
0.074809792,SPI,MOSI, 0x00,  MISO, 0xAA
0.074819292,SPI,MOSI, 0x00,  MISO, 0x83
0.074827292,SPI,MOSI, 0x00,  MISO, 0xF3
0.074836792,SPI,MOSI, 0x00,  MISO, 0x00
0.074844792,SPI,MOSI, 0x00,  MISO, 0x00
0.074854292,SPI,MOSI, 0x00,  MISO, 0x00
0.074862292,SPI,MOSI, 0x00,  MISO, 0x25
0.074871792,SPI,MOSI, 0x00,  MISO, 0xAA
0.074879792,SPI,MOSI, 0x00,  MISO, 0xFF
0.074889292,SPI,MOSI, 0x00,  MISO, 0xFF
0.074897292,SPI,MOSI, 0x00,  MISO, 0xFF
0.074906792,SPI,MOSI, 0x00,  MISO, 0xFF
0.074914792,SPI,MOSI, 0x00,  MISO, 0xFF
0.074924292,SPI,MOSI, 0x00,  MISO, 0xFF
0.074932292,SPI,MOSI, 0x00,  MISO, 0xFF
0.074941792,SPI,MOSI, 0x00,  MISO, 0xFF
0.074949792,SPI,MOSI, 0x00,  MISO, 0xFF
0.074959292,SPI,MOSI, 0x00,  MISO, 0xFF
0.074967292,SPI,MOSI, 0x00,  MISO, 0xFF
0.074976792,SPI,MOSI, 0x00,  MISO, 0xFF
0.074984792,SPI,MOSI, 0x00,  MISO, 0xFF
0.074994292,SPI,MOSI, 0x00,  MISO, 0xFF
0.075002292,SPI,MOSI, 0x00,  MISO, 0xFF
0.075011792,SPI,MOSI, 0x00,  MISO, 0xFF
0.075019792,SPI,MOSI, 0x00,  MISO, 0xFF
0.075029292,SPI,MOSI, 0x00,  MISO, 0xFF
0.075037292,SPI,MOSI, 0x00,  MISO, 0xFF
0.075046792,SPI,MOSI, 0x00,  MISO, 0xFF
0.075054792,SPI,MOSI, 0x00,  MISO, 0xFF
0.075064292,SPI,MOSI, 0x00,  MISO, 0xFF
0.075072292,SPI,MOSI, 0x00,  MISO, 0xFF
0.075081792,SPI,MOSI, 0x00,  MISO, 0xFF
0.075089792,SPI,MOSI, 0x00,  MISO, 0xFF
0.075099292,SPI,MOSI, 0x00,  MISO, 0xFF
0.075107333,SPI,MOSI, 0x00,  MISO, 0xFF
0.075116792,SPI,MOSI, 0x00,  MISO, 0xFF
0.075124833,SPI,MOSI, 0x00,  MISO, 0xFF
0.075134333,SPI,MOSI, 0x00,  MISO, 0xFF
0.075142292,SPI,MOSI, 0x00,  MISO, 0xFF
0.075151833,SPI,MOSI, 0x00,  MISO, 0xFF
0.075159833,SPI,MOSI, 0x00,  MISO, 0xFF
0.075169292,SPI,MOSI, 0x00,  MISO, 0xFF
0.075177333,SPI,MOSI, 0x00,  MISO, 0xFF
0.075186833,SPI,MOSI, 0x00,  MISO, 0xFF
0.075194833,SPI,MOSI, 0x00,  MISO, 0xFF
0.075204333,SPI,MOSI, 0x00,  MISO, 0xFF
0.075212333,SPI,MOSI, 0x00,  MISO, 0xFF
0.075221833,SPI,MOSI, 0x00,  MISO, 0xFF
0.075229833,SPI,MOSI, 0x00,  MISO, 0xFF
0.075239333,SPI,MOSI, 0x00,  MISO, 0xFF
0.075247333,SPI,MOSI, 0x00,  MISO, 0xFF
0.075288542,SPI,MOSI, 0x2B,  MISO, 0xFF
0.075296542,SPI,MOSI, 0xFB,  MISO, 0xFF
0.075326833,SPI,MOSI, 0x2B,  MISO, 0xFF
0.075334833,SPI,MOSI, 0xFB,  MISO, 0xFF
0.075367125,SPI,MOSI, 0x4F,  MISO, 0xFF
0.075375125,SPI,MOSI, 0x83,  MISO, 0xFF
0.075384625,SPI,MOSI, 0x67,  MISO, 0xFF
0.075392625,SPI,MOSI, 0x00,  MISO, 0xFF
0.075402125,SPI,MOSI, 0x00,  MISO, 0xFF
0.075410125,SPI,MOSI, 0x00,  MISO, 0xFF
0.075419625,SPI,MOSI, 0x00,  MISO, 0xFF
0.075427625,SPI,MOSI, 0x00,  MISO, 0xFF
0.075437125,SPI,MOSI, 0x00,  MISO, 0xFF
0.075445125,SPI,MOSI, 0x00,  MISO, 0xFF
0.075454625,SPI,MOSI, 0x00,  MISO, 0xFF
0.075462625,SPI,MOSI, 0x00,  MISO, 0xFF
0.075472125,SPI,MOSI, 0x00,  MISO, 0xFF
0.075480125,SPI,MOSI, 0x00,  MISO, 0xFF
0.075489625,SPI,MOSI, 0x00,  MISO, 0xFF
0.075497625,SPI,MOSI, 0x00,  MISO, 0xFF
0.075507125,SPI,MOSI, 0x00,  MISO, 0xFF
0.075515125,SPI,MOSI, 0x00,  MISO, 0xFF
0.075524625,SPI,MOSI, 0x00,  MISO, 0xFF
0.075532625,SPI,MOSI, 0x00,  MISO, 0xFF
0.075542125,SPI,MOSI, 0x00,  MISO, 0xFF
0.075550125,SPI,MOSI, 0x00,  MISO, 0xFF
0.075559625,SPI,MOSI, 0x00,  MISO, 0xFF
0.075567625,SPI,MOSI, 0x00,  MISO, 0xFF
0.075577125,SPI,MOSI, 0x00,  MISO, 0xFF
0.075585125,SPI,MOSI, 0x00,  MISO, 0xFF
0.075594625,SPI,MOSI, 0x00,  MISO, 0xFF
0.075602625,SPI,MOSI, 0x00,  MISO, 0xFF
0.075612125,SPI,MOSI, 0x00,  MISO, 0xFF
0.075620125,SPI,MOSI, 0x00,  MISO, 0xFF
0.075629625,SPI,MOSI, 0x00,  MISO, 0xFF
0.075637625,SPI,MOSI, 0x00,  MISO, 0xFF
0.075647125,SPI,MOSI, 0x00,  MISO, 0xFF
0.075655125,SPI,MOSI, 0x00,  MISO, 0xFF
0.075664625,SPI,MOSI, 0x00,  MISO, 0xFF
0.075672625,SPI,MOSI, 0x00,  MISO, 0xFF
0.075682125,SPI,MOSI, 0x00,  MISO, 0xFF
0.075690125,SPI,MOSI, 0x00,  MISO, 0xFF
0.075699625,SPI,MOSI, 0x00,  MISO, 0xFF
0.075707625,SPI,MOSI, 0x00,  MISO, 0xFF
0.075717125,SPI,MOSI, 0x00,  MISO, 0xFF
0.075725125,SPI,MOSI, 0x00,  MISO, 0xFF
0.075734625,SPI,MOSI, 0x00,  MISO, 0xFF
0.075742625,SPI,MOSI, 0x00,  MISO, 0xFF
0.075752125,SPI,MOSI, 0x00,  MISO, 0xFF
0.075760125,SPI,MOSI, 0x00,  MISO, 0xFF
0.075769625,SPI,MOSI, 0x00,  MISO, 0xFF
0.075777625,SPI,MOSI, 0x00,  MISO, 0xFF
0.075787125,SPI,MOSI, 0x00,  MISO, 0xFF
0.075795125,SPI,MOSI, 0x00,  MISO, 0xFF
0.075804625,SPI,MOSI, 0x00,  MISO, 0xFF
0.075812625,SPI,MOSI, 0x00,  MISO, 0xFF
0.075822125,SPI,MOSI, 0x00,  MISO, 0xFF
0.075830125,SPI,MOSI, 0x00,  MISO, 0xFF
0.075839625,SPI,MOSI, 0x00,  MISO, 0xFF
0.075847625,SPI,MOSI, 0x00,  MISO, 0xFF
0.075857125,SPI,MOSI, 0x00,  MISO, 0xFF
0.075865125,SPI,MOSI, 0x00,  MISO, 0xFF
0.075874625,SPI,MOSI, 0x00,  MISO, 0xFF
0.075882625,SPI,MOSI, 0x00,  MISO, 0xFF
0.075947167,SPI,MOSI, 0x2A,  MISO, 0xFF
0.075955167,SPI,MOSI, 0xD4,  MISO, 0xFF
0.075964667,SPI,MOSI, 0x00,  MISO, 0x0F
0.075972667,SPI,MOSI, 0x00,  MISO, 0xFF
0.076189875,SPI,MOSI, 0x2A,  MISO, 0xFF
0.076197875,SPI,MOSI, 0xD4,  MISO, 0xFF
0.076207375,SPI,MOSI, 0x00,  MISO, 0x0F
0.076215375,SPI,MOSI, 0x00,  MISO, 0xFF
0.0762465,SPI,MOSI, 0x2A,  MISO, 0xFF
0.0762545,SPI,MOSI, 0xD4,  MISO, 0xFF
0.076264,SPI,MOSI, 0x00,  MISO, 0x0F
0.076272,SPI,MOSI, 0x00,  MISO, 0xFF
0.0763015,SPI,MOSI, 0x2A,  MISO, 0xFF
0.0763095,SPI,MOSI, 0xD4,  MISO, 0xFF
0.076319,SPI,MOSI, 0x00,  MISO, 0x0F
0.076327,SPI,MOSI, 0x00,  MISO, 0xFF
0.076356667,SPI,MOSI, 0x2A,  MISO, 0xFF
0.076364667,SPI,MOSI, 0xD4,  MISO, 0xFF
0.076374167,SPI,MOSI, 0x00,  MISO, 0x0F
0.076382167,SPI,MOSI, 0x00,  MISO, 0xFF
0.076411708,SPI,MOSI, 0x2A,  MISO, 0xFF
0.076419708,SPI,MOSI, 0xD4,  MISO, 0xFF
0.076429208,SPI,MOSI, 0x00,  MISO, 0x0F
0.076437208,SPI,MOSI, 0x00,  MISO, 0xFF
0.076466875,SPI,MOSI, 0x2A,  MISO, 0xFF
0.076474875,SPI,MOSI, 0xD4,  MISO, 0xFF
0.076484375,SPI,MOSI, 0x00,  MISO, 0x0F
0.076492375,SPI,MOSI, 0x00,  MISO, 0xFF
0.076522042,SPI,MOSI, 0x2A,  MISO, 0xFF
0.076530042,SPI,MOSI, 0xD4,  MISO, 0xFF
0.076539542,SPI,MOSI, 0x00,  MISO, 0x0F
0.076547542,SPI,MOSI, 0x00,  MISO, 0xFF
0.07657725,SPI,MOSI, 0x2A,  MISO, 0xFF
0.07658525,SPI,MOSI, 0xD4,  MISO, 0xFF
0.07659475,SPI,MOSI, 0x00,  MISO, 0x0F
0.07660275,SPI,MOSI, 0x00,  MISO, 0xFF
0.076679083,SPI,MOSI, 0x4F,  MISO, 0xFF
0.076687083,SPI,MOSI, 0x83,  MISO, 0xFF
0.076696583,SPI,MOSI, 0x67,  MISO, 0xFF
0.076704583,SPI,MOSI, 0x00,  MISO, 0x83
0.076714083,SPI,MOSI, 0x00,  MISO, 0xFF
0.076722083,SPI,MOSI, 0x00,  MISO, 0x40
0.076731583,SPI,MOSI, 0x00,  MISO, 0xC0
0.076739583,SPI,MOSI, 0x00,  MISO, 0x4E
0.076749083,SPI,MOSI, 0x00,  MISO, 0x23
0.076757083,SPI,MOSI, 0x00,  MISO, 0xCD
0.076766583,SPI,MOSI, 0x00,  MISO, 0x83
0.076774583,SPI,MOSI, 0x00,  MISO, 0xFF
0.076784083,SPI,MOSI, 0x00,  MISO, 0x40
0.076792083,SPI,MOSI, 0x00,  MISO, 0xC0
0.076801583,SPI,MOSI, 0x00,  MISO, 0x2F
0.076809583,SPI,MOSI, 0x00,  MISO, 0x05
0.076819083,SPI,MOSI, 0x00,  MISO, 0xCE
0.076827083,SPI,MOSI, 0x00,  MISO, 0xFF
0.076836583,SPI,MOSI, 0x00,  MISO, 0xFF
0.076844583,SPI,MOSI, 0x00,  MISO, 0xFF
0.076854083,SPI,MOSI, 0x00,  MISO, 0xFF
0.076862083,SPI,MOSI, 0x00,  MISO, 0xFF
0.076871583,SPI,MOSI, 0x00,  MISO, 0xFF
0.076879583,SPI,MOSI, 0x00,  MISO, 0xFF
0.076889083,SPI,MOSI, 0x00,  MISO, 0xFF
0.076897083,SPI,MOSI, 0x00,  MISO, 0xFF
0.076906583,SPI,MOSI, 0x00,  MISO, 0xFF
0.076914583,SPI,MOSI, 0x00,  MISO, 0xFF
0.076924083,SPI,MOSI, 0x00,  MISO, 0xFF
0.076932083,SPI,MOSI, 0x00,  MISO, 0xFF
0.076941583,SPI,MOSI, 0x00,  MISO, 0xFF
0.076949583,SPI,MOSI, 0x00,  MISO, 0xFF
0.076959083,SPI,MOSI, 0x00,  MISO, 0xFF
0.076967083,SPI,MOSI, 0x00,  MISO, 0xFF
0.076976583,SPI,MOSI, 0x00,  MISO, 0xFF
0.076984583,SPI,MOSI, 0x00,  MISO, 0xFF
0.076994083,SPI,MOSI, 0x00,  MISO, 0xFF
0.077002083,SPI,MOSI, 0x00,  MISO, 0xFF
0.077011583,SPI,MOSI, 0x00,  MISO, 0xFF
0.077019583,SPI,MOSI, 0x00,  MISO, 0xFF
0.077029083,SPI,MOSI, 0x00,  MISO, 0xFF
0.077037125,SPI,MOSI, 0x00,  MISO, 0xFF
0.077046583,SPI,MOSI, 0x00,  MISO, 0xFF
0.077054625,SPI,MOSI, 0x00,  MISO, 0xFF
0.077064125,SPI,MOSI, 0x00,  MISO, 0xFF
0.077072083,SPI,MOSI, 0x00,  MISO, 0xFF
0.077081625,SPI,MOSI, 0x00,  MISO, 0xFF
0.077089583,SPI,MOSI, 0x00,  MISO, 0xFF
0.077099125,SPI,MOSI, 0x00,  MISO, 0xFF
0.077107125,SPI,MOSI, 0x00,  MISO, 0xFF
0.077116625,SPI,MOSI, 0x00,  MISO, 0xFF
0.077124625,SPI,MOSI, 0x00,  MISO, 0xFF
0.077134083,SPI,MOSI, 0x00,  MISO, 0xFF
0.077142125,SPI,MOSI, 0x00,  MISO, 0xFF
0.077151625,SPI,MOSI, 0x00,  MISO, 0xFF
0.077159625,SPI,MOSI, 0x00,  MISO, 0xFF
0.077169125,SPI,MOSI, 0x00,  MISO, 0xFF
0.077177083,SPI,MOSI, 0x00,  MISO, 0xFF
0.077186625,SPI,MOSI, 0x00,  MISO, 0xFF
0.077194625,SPI,MOSI, 0x00,  MISO, 0xFF
0.077572458,SPI,MOSI, 0x47,  MISO, 0xFF
0.077580458,SPI,MOSI, 0x83,  MISO, 0xFF
0.077589958,SPI,MOSI, 0xE2,  MISO, 0xFF
0.077597958,SPI,MOSI, 0x00,  MISO, 0xFF
0.077607458,SPI,MOSI, 0x00,  MISO, 0xFF
0.077615458,SPI,MOSI, 0x00,  MISO, 0xFF
0.077624958,SPI,MOSI, 0x00,  MISO, 0xFF
0.077632917,SPI,MOSI, 0x00,  MISO, 0xFF
0.077642458,SPI,MOSI, 0x00,  MISO, 0xFF
0.077650417,SPI,MOSI, 0x00,  MISO, 0xFF
0.077659958,SPI,MOSI, 0x00,  MISO, 0xFF
0.077667917,SPI,MOSI, 0x00,  MISO, 0xFF
0.077677458,SPI,MOSI, 0x00,  MISO, 0xFF
0.077685417,SPI,MOSI, 0x00,  MISO, 0xFF
0.077694958,SPI,MOSI, 0x00,  MISO, 0xFF
0.077702917,SPI,MOSI, 0x00,  MISO, 0xFF
0.077712458,SPI,MOSI, 0x00,  MISO, 0xFF
0.077720417,SPI,MOSI, 0x00,  MISO, 0xFF
0.077729958,SPI,MOSI, 0x00,  MISO, 0xFF
0.077737958,SPI,MOSI, 0x00,  MISO, 0xFF
0.077747458,SPI,MOSI, 0x00,  MISO, 0xFF
0.077755458,SPI,MOSI, 0x00,  MISO, 0xFF
0.077764958,SPI,MOSI, 0x00,  MISO, 0xFF
0.077772958,SPI,MOSI, 0x00,  MISO, 0xFF
0.077782458,SPI,MOSI, 0x00,  MISO, 0xFF
0.077790458,SPI,MOSI, 0x00,  MISO, 0xFF
0.077799958,SPI,MOSI, 0x00,  MISO, 0xFF
0.077807958,SPI,MOSI, 0x00,  MISO, 0xFF
0.077817458,SPI,MOSI, 0x00,  MISO, 0xFF
0.077825458,SPI,MOSI, 0x00,  MISO, 0xFF
0.077834958,SPI,MOSI, 0x00,  MISO, 0xFF
0.077842958,SPI,MOSI, 0x00,  MISO, 0xFF
0.077852458,SPI,MOSI, 0x00,  MISO, 0xFF
0.077860458,SPI,MOSI, 0x00,  MISO, 0xFF
0.077869958,SPI,MOSI, 0x00,  MISO, 0xFF
0.077877958,SPI,MOSI, 0x00,  MISO, 0xFF
0.077887458,SPI,MOSI, 0x00,  MISO, 0xFF
0.077895458,SPI,MOSI, 0x00,  MISO, 0xFF
0.077904958,SPI,MOSI, 0x00,  MISO, 0xFF
0.077912958,SPI,MOSI, 0x00,  MISO, 0xFF
0.077922458,SPI,MOSI, 0x00,  MISO, 0xFF
0.077930458,SPI,MOSI, 0x00,  MISO, 0xFF
0.077939958,SPI,MOSI, 0x00,  MISO, 0xFF
0.077947958,SPI,MOSI, 0x00,  MISO, 0xFF
0.077957458,SPI,MOSI, 0x00,  MISO, 0xFF
0.077965458,SPI,MOSI, 0x00,  MISO, 0xFF
0.077974958,SPI,MOSI, 0x00,  MISO, 0xFF
0.077982958,SPI,MOSI, 0x00,  MISO, 0xFF
0.077992458,SPI,MOSI, 0x00,  MISO, 0xFF
0.078000458,SPI,MOSI, 0x00,  MISO, 0xFF
0.078009958,SPI,MOSI, 0x00,  MISO, 0xFF
0.078017958,SPI,MOSI, 0x00,  MISO, 0xFF
0.078027458,SPI,MOSI, 0x00,  MISO, 0xFF
0.078035458,SPI,MOSI, 0x00,  MISO, 0xFF
0.078044958,SPI,MOSI, 0x00,  MISO, 0xFF
0.078052958,SPI,MOSI, 0x00,  MISO, 0xFF
0.078062458,SPI,MOSI, 0x00,  MISO, 0xFF
0.078070458,SPI,MOSI, 0x00,  MISO, 0xFF
0.078079958,SPI,MOSI, 0x00,  MISO, 0xFF
0.078087958,SPI,MOSI, 0x00,  MISO, 0xFF
0.078097458,SPI,MOSI, 0x00,  MISO, 0xFF
0.078105458,SPI,MOSI, 0x00,  MISO, 0xFF
0.078114958,SPI,MOSI, 0x00,  MISO, 0xFF
0.078122958,SPI,MOSI, 0x00,  MISO, 0xFF
0.078132458,SPI,MOSI, 0x00,  MISO, 0xFF
0.078140458,SPI,MOSI, 0x00,  MISO, 0xFF
0.078149958,SPI,MOSI, 0x00,  MISO, 0xFF
0.078157958,SPI,MOSI, 0x00,  MISO, 0xFF
0.078167458,SPI,MOSI, 0x00,  MISO, 0xFF
0.078175458,SPI,MOSI, 0x00,  MISO, 0xFF
0.078184958,SPI,MOSI, 0x00,  MISO, 0xFF
0.078192958,SPI,MOSI, 0x00,  MISO, 0xFF
0.078202458,SPI,MOSI, 0x00,  MISO, 0xFF
0.078210458,SPI,MOSI, 0x00,  MISO, 0xFF
0.078219958,SPI,MOSI, 0x00,  MISO, 0xFF
0.078227958,SPI,MOSI, 0x00,  MISO, 0xFF
0.078296458,SPI,MOSI, 0x2A,  MISO, 0xFF
0.078304458,SPI,MOSI, 0xD4,  MISO, 0xFF
0.078313958,SPI,MOSI, 0x00,  MISO, 0x0F
0.078321958,SPI,MOSI, 0x00,  MISO, 0xFF
0.078351958,SPI,MOSI, 0x2A,  MISO, 0xFF
0.078359958,SPI,MOSI, 0xD4,  MISO, 0xFF
0.078369458,SPI,MOSI, 0x00,  MISO, 0x0F
0.078377458,SPI,MOSI, 0x00,  MISO, 0xFF
0.078407125,SPI,MOSI, 0x2A,  MISO, 0xFF
0.078415125,SPI,MOSI, 0xD4,  MISO, 0xFF
0.078424625,SPI,MOSI, 0x00,  MISO, 0x0F
0.078432625,SPI,MOSI, 0x00,  MISO, 0xFF
0.078462125,SPI,MOSI, 0x2A,  MISO, 0xFF
0.078470125,SPI,MOSI, 0xD4,  MISO, 0xFF
0.078479625,SPI,MOSI, 0x00,  MISO, 0x0F
0.078487625,SPI,MOSI, 0x00,  MISO, 0xFF
0.078517125,SPI,MOSI, 0x2A,  MISO, 0xFF
0.078525125,SPI,MOSI, 0xD4,  MISO, 0xFF
0.078534625,SPI,MOSI, 0x00,  MISO, 0x0F
0.078542625,SPI,MOSI, 0x00,  MISO, 0xFF
0.078572292,SPI,MOSI, 0x2A,  MISO, 0xFF
0.078580292,SPI,MOSI, 0xD4,  MISO, 0xFF
0.078589792,SPI,MOSI, 0x00,  MISO, 0x0F
0.078597792,SPI,MOSI, 0x00,  MISO, 0xFF
0.078627542,SPI,MOSI, 0x2A,  MISO, 0xFF
0.078635542,SPI,MOSI, 0xD4,  MISO, 0xFF
0.078645042,SPI,MOSI, 0x00,  MISO, 0x0F
0.078653042,SPI,MOSI, 0x00,  MISO, 0xFF
0.078682667,SPI,MOSI, 0x2A,  MISO, 0xFF
0.078690667,SPI,MOSI, 0xD4,  MISO, 0xFF
0.078700167,SPI,MOSI, 0x00,  MISO, 0x0F
0.078708167,SPI,MOSI, 0x00,  MISO, 0xFF
0.07874875,SPI,MOSI, 0x2A,  MISO, 0xFF
0.07875675,SPI,MOSI, 0xD4,  MISO, 0xFF
0.07876625,SPI,MOSI, 0x00,  MISO, 0x0F
0.07877425,SPI,MOSI, 0x00,  MISO, 0xFF
0.078848958,SPI,MOSI, 0x47,  MISO, 0xFF
0.078856958,SPI,MOSI, 0x83,  MISO, 0xFF
0.078866458,SPI,MOSI, 0xE2,  MISO, 0xFF
0.078874458,SPI,MOSI, 0x00,  MISO, 0x83
0.078883958,SPI,MOSI, 0x00,  MISO, 0x5A
0.078891958,SPI,MOSI, 0x00,  MISO, 0x9F
0.078901458,SPI,MOSI, 0x00,  MISO, 0xA9
0.078909458,SPI,MOSI, 0x00,  MISO, 0x9F
0.078918958,SPI,MOSI, 0x00,  MISO, 0xB1
0.078926958,SPI,MOSI, 0x00,  MISO, 0x9F
0.078936458,SPI,MOSI, 0x00,  MISO, 0x07
0.078944458,SPI,MOSI, 0x00,  MISO, 0x69
0.078953958,SPI,MOSI, 0x00,  MISO, 0x83
0.078961958,SPI,MOSI, 0x00,  MISO, 0xC7
0.078971458,SPI,MOSI, 0x00,  MISO, 0x9F
0.078979458,SPI,MOSI, 0x00,  MISO, 0xC2
0.078988958,SPI,MOSI, 0x00,  MISO, 0x9F
0.078996958,SPI,MOSI, 0x00,  MISO, 0xB8
0.079006458,SPI,MOSI, 0x00,  MISO, 0x9F
0.079014458,SPI,MOSI, 0x00,  MISO, 0x17
0.079023958,SPI,MOSI, 0x00,  MISO, 0x8A
0.079031958,SPI,MOSI, 0x00,  MISO, 0xFF
0.079041458,SPI,MOSI, 0x00,  MISO, 0xFF
0.079049458,SPI,MOSI, 0x00,  MISO, 0xFF
0.079058958,SPI,MOSI, 0x00,  MISO, 0xFF
0.079066958,SPI,MOSI, 0x00,  MISO, 0xFF
0.079076458,SPI,MOSI, 0x00,  MISO, 0xFF
0.079084458,SPI,MOSI, 0x00,  MISO, 0xFF
0.079093958,SPI,MOSI, 0x00,  MISO, 0xFF
0.079101958,SPI,MOSI, 0x00,  MISO, 0xFF
0.079111458,SPI,MOSI, 0x00,  MISO, 0xFF
0.079119458,SPI,MOSI, 0x00,  MISO, 0xFF
0.079128958,SPI,MOSI, 0x00,  MISO, 0xFF
0.079136958,SPI,MOSI, 0x00,  MISO, 0xFF
0.079146458,SPI,MOSI, 0x00,  MISO, 0xFF
0.079154458,SPI,MOSI, 0x00,  MISO, 0xFF
0.079163958,SPI,MOSI, 0x00,  MISO, 0xFF
0.079171958,SPI,MOSI, 0x00,  MISO, 0xFF
0.079181458,SPI,MOSI, 0x00,  MISO, 0xFF
0.079189458,SPI,MOSI, 0x00,  MISO, 0xFF
0.079198958,SPI,MOSI, 0x00,  MISO, 0xFF
0.079206958,SPI,MOSI, 0x00,  MISO, 0xFF
0.079216458,SPI,MOSI, 0x00,  MISO, 0xFF
0.079224458,SPI,MOSI, 0x00,  MISO, 0xFF
0.079233958,SPI,MOSI, 0x00,  MISO, 0xFF
0.079241958,SPI,MOSI, 0x00,  MISO, 0xFF
0.079251458,SPI,MOSI, 0x00,  MISO, 0xFF
0.079259458,SPI,MOSI, 0x00,  MISO, 0xFF
0.079268958,SPI,MOSI, 0x00,  MISO, 0xFF
0.079276958,SPI,MOSI, 0x00,  MISO, 0xFF
0.079286458,SPI,MOSI, 0x00,  MISO, 0xFF
0.079294458,SPI,MOSI, 0x00,  MISO, 0xFF
0.079303958,SPI,MOSI, 0x00,  MISO, 0xFF
0.079311958,SPI,MOSI, 0x00,  MISO, 0xFF
0.079321458,SPI,MOSI, 0x00,  MISO, 0xFF
0.079329458,SPI,MOSI, 0x00,  MISO, 0xFF
0.079338958,SPI,MOSI, 0x00,  MISO, 0xFF
0.079346958,SPI,MOSI, 0x00,  MISO, 0xFF
0.079356458,SPI,MOSI, 0x00,  MISO, 0xFF
0.079364458,SPI,MOSI, 0x00,  MISO, 0xFF
0.079373958,SPI,MOSI, 0x00,  MISO, 0xFF
0.079381958,SPI,MOSI, 0x00,  MISO, 0xFF
0.079391458,SPI,MOSI, 0x00,  MISO, 0xFF
0.079399458,SPI,MOSI, 0x00,  MISO, 0xFF
0.079408958,SPI,MOSI, 0x00,  MISO, 0xFF
0.079416958,SPI,MOSI, 0x00,  MISO, 0xFF
0.079426458,SPI,MOSI, 0x00,  MISO, 0xFF
0.079434458,SPI,MOSI, 0x00,  MISO, 0xFF
0.079443958,SPI,MOSI, 0x00,  MISO, 0xFF
0.079451958,SPI,MOSI, 0x00,  MISO, 0xFF
0.079461458,SPI,MOSI, 0x00,  MISO, 0xFF
0.079469458,SPI,MOSI, 0x00,  MISO, 0xFF
0.079478958,SPI,MOSI, 0x00,  MISO, 0xFF
0.079486958,SPI,MOSI, 0x00,  MISO, 0xFF
0.079496458,SPI,MOSI, 0x00,  MISO, 0xFF
0.079504458,SPI,MOSI, 0x00,  MISO, 0xFF
0.079578625,SPI,MOSI, 0x48,  MISO, 0xFF
0.079586625,SPI,MOSI, 0x83,  MISO, 0xFF
0.079596125,SPI,MOSI, 0xA6,  MISO, 0xFF
0.079604125,SPI,MOSI, 0x00,  MISO, 0xFF
0.079613625,SPI,MOSI, 0x00,  MISO, 0xFF
0.079621625,SPI,MOSI, 0x00,  MISO, 0xFF
0.079631125,SPI,MOSI, 0x00,  MISO, 0xFF
0.079639125,SPI,MOSI, 0x00,  MISO, 0xFF
0.079648625,SPI,MOSI, 0x00,  MISO, 0xFF
0.079656625,SPI,MOSI, 0x00,  MISO, 0xFF
0.079666125,SPI,MOSI, 0x00,  MISO, 0xFF
0.079674125,SPI,MOSI, 0x00,  MISO, 0xFF
0.079683625,SPI,MOSI, 0x00,  MISO, 0xFF
0.079691625,SPI,MOSI, 0x00,  MISO, 0xFF
0.079701125,SPI,MOSI, 0x00,  MISO, 0xFF
0.079709125,SPI,MOSI, 0x00,  MISO, 0xFF
0.079718625,SPI,MOSI, 0x00,  MISO, 0xFF
0.079726625,SPI,MOSI, 0x00,  MISO, 0xFF
0.079736125,SPI,MOSI, 0x00,  MISO, 0xFF
0.079744125,SPI,MOSI, 0x00,  MISO, 0xFF
0.079753625,SPI,MOSI, 0x00,  MISO, 0xFF
0.079761625,SPI,MOSI, 0x00,  MISO, 0xFF
0.079771125,SPI,MOSI, 0x00,  MISO, 0xFF
0.079779125,SPI,MOSI, 0x00,  MISO, 0xFF
0.079788625,SPI,MOSI, 0x00,  MISO, 0xFF
0.079796625,SPI,MOSI, 0x00,  MISO, 0xFF
0.079806125,SPI,MOSI, 0x00,  MISO, 0xFF
0.079814125,SPI,MOSI, 0x00,  MISO, 0xFF
0.079823625,SPI,MOSI, 0x00,  MISO, 0xFF
0.079831625,SPI,MOSI, 0x00,  MISO, 0xFF
0.079841125,SPI,MOSI, 0x00,  MISO, 0xFF
0.079849125,SPI,MOSI, 0x00,  MISO, 0xFF
0.079858625,SPI,MOSI, 0x00,  MISO, 0xFF
0.079866625,SPI,MOSI, 0x00,  MISO, 0xFF
0.079876125,SPI,MOSI, 0x00,  MISO, 0xFF
0.079884125,SPI,MOSI, 0x00,  MISO, 0xFF
0.079893625,SPI,MOSI, 0x00,  MISO, 0xFF
0.079901625,SPI,MOSI, 0x00,  MISO, 0xFF
0.079911125,SPI,MOSI, 0x00,  MISO, 0xFF
0.079919125,SPI,MOSI, 0x00,  MISO, 0xFF
0.079928625,SPI,MOSI, 0x00,  MISO, 0xFF
0.079936625,SPI,MOSI, 0x00,  MISO, 0xFF
0.079946125,SPI,MOSI, 0x00,  MISO, 0xFF
0.079954125,SPI,MOSI, 0x00,  MISO, 0xFF
0.079963625,SPI,MOSI, 0x00,  MISO, 0xFF
0.079971625,SPI,MOSI, 0x00,  MISO, 0xFF
0.079981125,SPI,MOSI, 0x00,  MISO, 0xFF
0.079989125,SPI,MOSI, 0x00,  MISO, 0xFF
0.079998625,SPI,MOSI, 0x00,  MISO, 0xFF
0.080006625,SPI,MOSI, 0x00,  MISO, 0xFF
0.080016125,SPI,MOSI, 0x00,  MISO, 0xFF
0.080024125,SPI,MOSI, 0x00,  MISO, 0xFF
0.080033625,SPI,MOSI, 0x00,  MISO, 0xFF
0.080041625,SPI,MOSI, 0x00,  MISO, 0xFF
0.080051125,SPI,MOSI, 0x00,  MISO, 0xFF
0.080059125,SPI,MOSI, 0x00,  MISO, 0xFF
0.080068625,SPI,MOSI, 0x00,  MISO, 0xFF
0.080076625,SPI,MOSI, 0x00,  MISO, 0xFF
0.080086125,SPI,MOSI, 0x00,  MISO, 0xFF
0.080094125,SPI,MOSI, 0x00,  MISO, 0xFF
0.080103625,SPI,MOSI, 0x00,  MISO, 0xFF
0.080111625,SPI,MOSI, 0x00,  MISO, 0xFF
0.080121125,SPI,MOSI, 0x00,  MISO, 0xFF
0.080129125,SPI,MOSI, 0x00,  MISO, 0xFF
0.080138625,SPI,MOSI, 0x00,  MISO, 0xFF
0.080146625,SPI,MOSI, 0x00,  MISO, 0xFF
0.080156125,SPI,MOSI, 0x00,  MISO, 0xFF
0.080164125,SPI,MOSI, 0x00,  MISO, 0xFF
0.080173625,SPI,MOSI, 0x00,  MISO, 0xFF
0.080181625,SPI,MOSI, 0x00,  MISO, 0xFF
0.080191125,SPI,MOSI, 0x00,  MISO, 0xFF
0.080199125,SPI,MOSI, 0x00,  MISO, 0xFF
0.080208625,SPI,MOSI, 0x00,  MISO, 0xFF
0.080216625,SPI,MOSI, 0x00,  MISO, 0xFF
0.080226125,SPI,MOSI, 0x00,  MISO, 0xFF
0.080234125,SPI,MOSI, 0x00,  MISO, 0xFF
0.080269167,SPI,MOSI, 0x2A,  MISO, 0xFF
0.080277167,SPI,MOSI, 0xD4,  MISO, 0xFF
0.080286667,SPI,MOSI, 0x00,  MISO, 0x0F
0.080294667,SPI,MOSI, 0x00,  MISO, 0xFF
0.080324625,SPI,MOSI, 0x2A,  MISO, 0xFF
0.080332625,SPI,MOSI, 0xD4,  MISO, 0xFF
0.080342125,SPI,MOSI, 0x00,  MISO, 0x0F
0.080350125,SPI,MOSI, 0x00,  MISO, 0xFF
0.080379958,SPI,MOSI, 0x2A,  MISO, 0xFF
0.080387958,SPI,MOSI, 0xD4,  MISO, 0xFF
0.080397458,SPI,MOSI, 0x00,  MISO, 0x0F
0.080405458,SPI,MOSI, 0x00,  MISO, 0xFF
0.08043525,SPI,MOSI, 0x2A,  MISO, 0xFF
0.08044325,SPI,MOSI, 0xD4,  MISO, 0xFF
0.08045275,SPI,MOSI, 0x00,  MISO, 0x0F
0.08046075,SPI,MOSI, 0x00,  MISO, 0xFF
0.080490292,SPI,MOSI, 0x2A,  MISO, 0xFF
0.080498292,SPI,MOSI, 0xD4,  MISO, 0xFF
0.080507792,SPI,MOSI, 0x00,  MISO, 0x0F
0.080515792,SPI,MOSI, 0x00,  MISO, 0xFF
0.080545458,SPI,MOSI, 0x2A,  MISO, 0xFF
0.080553458,SPI,MOSI, 0xD4,  MISO, 0xFF
0.080562958,SPI,MOSI, 0x00,  MISO, 0x0F
0.080570958,SPI,MOSI, 0x00,  MISO, 0xFF
0.080600542,SPI,MOSI, 0x2A,  MISO, 0xFF
0.080608542,SPI,MOSI, 0xD4,  MISO, 0xFF
0.080618042,SPI,MOSI, 0x00,  MISO, 0x0F
0.080626042,SPI,MOSI, 0x00,  MISO, 0xFF
0.080684292,SPI,MOSI, 0x2A,  MISO, 0xFF
0.080692292,SPI,MOSI, 0xD4,  MISO, 0xFF
0.080701792,SPI,MOSI, 0x00,  MISO, 0x0F
0.080709792,SPI,MOSI, 0x00,  MISO, 0xFF
0.080740875,SPI,MOSI, 0x2A,  MISO, 0xFF
0.080748875,SPI,MOSI, 0xD4,  MISO, 0xFF
0.080758375,SPI,MOSI, 0x00,  MISO, 0x0F
0.080766375,SPI,MOSI, 0x00,  MISO, 0xFF
0.080798083,SPI,MOSI, 0x48,  MISO, 0xFF
0.080806083,SPI,MOSI, 0x83,  MISO, 0xFF
0.080815583,SPI,MOSI, 0xA6,  MISO, 0xFF
0.080823583,SPI,MOSI, 0x00,  MISO, 0x83
0.080833083,SPI,MOSI, 0x00,  MISO, 0xD2
0.080841083,SPI,MOSI, 0x00,  MISO, 0x9F
0.080850583,SPI,MOSI, 0x00,  MISO, 0xAA
0.080858583,SPI,MOSI, 0x00,  MISO, 0x9F
0.080868083,SPI,MOSI, 0x00,  MISO, 0xD2
0.080876083,SPI,MOSI, 0x00,  MISO, 0x9F
0.080885583,SPI,MOSI, 0x00,  MISO, 0x1C
0.080893583,SPI,MOSI, 0x00,  MISO, 0x32
0.080903083,SPI,MOSI, 0x00,  MISO, 0x83
0.080911083,SPI,MOSI, 0x00,  MISO, 0xB6
0.080920583,SPI,MOSI, 0x00,  MISO, 0x9F
0.080928583,SPI,MOSI, 0x00,  MISO, 0xA8
0.080938083,SPI,MOSI, 0x00,  MISO, 0x9F
0.080946083,SPI,MOSI, 0x00,  MISO, 0xC6
0.080955583,SPI,MOSI, 0x00,  MISO, 0x9F
0.080963583,SPI,MOSI, 0x00,  MISO, 0x10
0.080973083,SPI,MOSI, 0x00,  MISO, 0xD6
0.080981083,SPI,MOSI, 0x00,  MISO, 0xFF
0.080990583,SPI,MOSI, 0x00,  MISO, 0xFF
0.080998583,SPI,MOSI, 0x00,  MISO, 0xFF
0.081008083,SPI,MOSI, 0x00,  MISO, 0xFF
0.081016083,SPI,MOSI, 0x00,  MISO, 0xFF
0.081025583,SPI,MOSI, 0x00,  MISO, 0xFF
0.081033583,SPI,MOSI, 0x00,  MISO, 0xFF
0.081043083,SPI,MOSI, 0x00,  MISO, 0xFF
0.081051083,SPI,MOSI, 0x00,  MISO, 0xFF
0.081060583,SPI,MOSI, 0x00,  MISO, 0xFF
0.081068583,SPI,MOSI, 0x00,  MISO, 0xFF
0.081078083,SPI,MOSI, 0x00,  MISO, 0xFF
0.081086083,SPI,MOSI, 0x00,  MISO, 0xFF
0.081095583,SPI,MOSI, 0x00,  MISO, 0xFF
0.081103583,SPI,MOSI, 0x00,  MISO, 0xFF
0.081113083,SPI,MOSI, 0x00,  MISO, 0xFF
0.081121083,SPI,MOSI, 0x00,  MISO, 0xFF
0.081130583,SPI,MOSI, 0x00,  MISO, 0xFF
0.081138583,SPI,MOSI, 0x00,  MISO, 0xFF
0.081148083,SPI,MOSI, 0x00,  MISO, 0xFF
0.081156083,SPI,MOSI, 0x00,  MISO, 0xFF
0.081165583,SPI,MOSI, 0x00,  MISO, 0xFF
0.081173583,SPI,MOSI, 0x00,  MISO, 0xFF
0.081183083,SPI,MOSI, 0x00,  MISO, 0xFF
0.081191083,SPI,MOSI, 0x00,  MISO, 0xFF
0.081200583,SPI,MOSI, 0x00,  MISO, 0xFF
0.081208583,SPI,MOSI, 0x00,  MISO, 0xFF
0.081218083,SPI,MOSI, 0x00,  MISO, 0xFF
0.081226083,SPI,MOSI, 0x00,  MISO, 0xFF
0.081235583,SPI,MOSI, 0x00,  MISO, 0xFF
0.081243583,SPI,MOSI, 0x00,  MISO, 0xFF
0.081253083,SPI,MOSI, 0x00,  MISO, 0xFF
0.081261083,SPI,MOSI, 0x00,  MISO, 0xFF
0.081270583,SPI,MOSI, 0x00,  MISO, 0xFF
0.081278583,SPI,MOSI, 0x00,  MISO, 0xFF
0.081288083,SPI,MOSI, 0x00,  MISO, 0xFF
0.081296083,SPI,MOSI, 0x00,  MISO, 0xFF
0.081305583,SPI,MOSI, 0x00,  MISO, 0xFF
0.081313583,SPI,MOSI, 0x00,  MISO, 0xFF
0.081323083,SPI,MOSI, 0x00,  MISO, 0xFF
0.081331083,SPI,MOSI, 0x00,  MISO, 0xFF
0.081340583,SPI,MOSI, 0x00,  MISO, 0xFF
0.081348583,SPI,MOSI, 0x00,  MISO, 0xFF
0.081358083,SPI,MOSI, 0x00,  MISO, 0xFF
0.081366083,SPI,MOSI, 0x00,  MISO, 0xFF
0.081375583,SPI,MOSI, 0x00,  MISO, 0xFF
0.081383583,SPI,MOSI, 0x00,  MISO, 0xFF
0.081393083,SPI,MOSI, 0x00,  MISO, 0xFF
0.081401083,SPI,MOSI, 0x00,  MISO, 0xFF
0.081410583,SPI,MOSI, 0x00,  MISO, 0xFF
0.081418583,SPI,MOSI, 0x00,  MISO, 0xFF
0.081428083,SPI,MOSI, 0x00,  MISO, 0xFF
0.081436083,SPI,MOSI, 0x00,  MISO, 0xFF
0.081445583,SPI,MOSI, 0x00,  MISO, 0xFF
0.081453583,SPI,MOSI, 0x00,  MISO, 0xFF
0.081498292,SPI,MOSI, 0x49,  MISO, 0xFF
0.081506292,SPI,MOSI, 0x83,  MISO, 0xFF
0.081515792,SPI,MOSI, 0x4F,  MISO, 0xFF
0.081523792,SPI,MOSI, 0x00,  MISO, 0xFF
0.081533292,SPI,MOSI, 0x00,  MISO, 0xFF
0.081541292,SPI,MOSI, 0x00,  MISO, 0xFF
0.081550792,SPI,MOSI, 0x00,  MISO, 0xFF
0.081558792,SPI,MOSI, 0x00,  MISO, 0xFF
0.081568292,SPI,MOSI, 0x00,  MISO, 0xFF
0.081576292,SPI,MOSI, 0x00,  MISO, 0xFF
0.081585792,SPI,MOSI, 0x00,  MISO, 0xFF
0.081593792,SPI,MOSI, 0x00,  MISO, 0xFF
0.081603292,SPI,MOSI, 0x00,  MISO, 0xFF
0.081611292,SPI,MOSI, 0x00,  MISO, 0xFF
0.081620792,SPI,MOSI, 0x00,  MISO, 0xFF
0.081628792,SPI,MOSI, 0x00,  MISO, 0xFF
0.081638292,SPI,MOSI, 0x00,  MISO, 0xFF
0.081646292,SPI,MOSI, 0x00,  MISO, 0xFF
0.081655792,SPI,MOSI, 0x00,  MISO, 0xFF
0.081663792,SPI,MOSI, 0x00,  MISO, 0xFF
0.081673292,SPI,MOSI, 0x00,  MISO, 0xFF
0.081681292,SPI,MOSI, 0x00,  MISO, 0xFF
0.081690792,SPI,MOSI, 0x00,  MISO, 0xFF
0.081698792,SPI,MOSI, 0x00,  MISO, 0xFF
0.081708292,SPI,MOSI, 0x00,  MISO, 0xFF
0.081716292,SPI,MOSI, 0x00,  MISO, 0xFF
0.081725792,SPI,MOSI, 0x00,  MISO, 0xFF
0.081733792,SPI,MOSI, 0x00,  MISO, 0xFF
0.081743292,SPI,MOSI, 0x00,  MISO, 0xFF
0.081751292,SPI,MOSI, 0x00,  MISO, 0xFF
0.081760792,SPI,MOSI, 0x00,  MISO, 0xFF
0.081768792,SPI,MOSI, 0x00,  MISO, 0xFF
0.081778292,SPI,MOSI, 0x00,  MISO, 0xFF
0.081786292,SPI,MOSI, 0x00,  MISO, 0xFF
0.081795792,SPI,MOSI, 0x00,  MISO, 0xFF
0.081803792,SPI,MOSI, 0x00,  MISO, 0xFF
0.081813292,SPI,MOSI, 0x00,  MISO, 0xFF
0.081821292,SPI,MOSI, 0x00,  MISO, 0xFF
0.081830792,SPI,MOSI, 0x00,  MISO, 0xFF
0.081838792,SPI,MOSI, 0x00,  MISO, 0xFF
0.081848292,SPI,MOSI, 0x00,  MISO, 0xFF
0.081856292,SPI,MOSI, 0x00,  MISO, 0xFF
0.081865792,SPI,MOSI, 0x00,  MISO, 0xFF
0.081873792,SPI,MOSI, 0x00,  MISO, 0xFF
0.081883292,SPI,MOSI, 0x00,  MISO, 0xFF
0.081891292,SPI,MOSI, 0x00,  MISO, 0xFF
0.081900792,SPI,MOSI, 0x00,  MISO, 0xFF
0.081908792,SPI,MOSI, 0x00,  MISO, 0xFF
0.081918292,SPI,MOSI, 0x00,  MISO, 0xFF
0.081926292,SPI,MOSI, 0x00,  MISO, 0xFF
0.081935792,SPI,MOSI, 0x00,  MISO, 0xFF
0.081943792,SPI,MOSI, 0x00,  MISO, 0xFF
0.081953292,SPI,MOSI, 0x00,  MISO, 0xFF
0.081961292,SPI,MOSI, 0x00,  MISO, 0xFF
0.081970792,SPI,MOSI, 0x00,  MISO, 0xFF
0.081978792,SPI,MOSI, 0x00,  MISO, 0xFF
0.081988292,SPI,MOSI, 0x00,  MISO, 0xFF
0.081996292,SPI,MOSI, 0x00,  MISO, 0xFF
0.082005792,SPI,MOSI, 0x00,  MISO, 0xFF
0.082013833,SPI,MOSI, 0x00,  MISO, 0xFF
0.082023292,SPI,MOSI, 0x00,  MISO, 0xFF
0.082031333,SPI,MOSI, 0x00,  MISO, 0xFF
0.082040792,SPI,MOSI, 0x00,  MISO, 0xFF
0.082048833,SPI,MOSI, 0x00,  MISO, 0xFF
0.082058333,SPI,MOSI, 0x00,  MISO, 0xFF
0.082066292,SPI,MOSI, 0x00,  MISO, 0xFF
0.082075833,SPI,MOSI, 0x00,  MISO, 0xFF
0.082083792,SPI,MOSI, 0x00,  MISO, 0xFF
0.082093333,SPI,MOSI, 0x00,  MISO, 0xFF
0.082101333,SPI,MOSI, 0x00,  MISO, 0xFF
0.082110792,SPI,MOSI, 0x00,  MISO, 0xFF
0.082118833,SPI,MOSI, 0x00,  MISO, 0xFF
0.082128292,SPI,MOSI, 0x00,  MISO, 0xFF
0.082136333,SPI,MOSI, 0x00,  MISO, 0xFF
0.082145833,SPI,MOSI, 0x00,  MISO, 0xFF
0.082153833,SPI,MOSI, 0x00,  MISO, 0xFF
0.08222025,SPI,MOSI, 0x2A,  MISO, 0xFF
0.08222825,SPI,MOSI, 0xD4,  MISO, 0xFF
0.08223775,SPI,MOSI, 0x00,  MISO, 0x0F
0.08224575,SPI,MOSI, 0x00,  MISO, 0xFF
0.082276083,SPI,MOSI, 0x2A,  MISO, 0xFF
0.082284083,SPI,MOSI, 0xD4,  MISO, 0xFF
0.082293583,SPI,MOSI, 0x00,  MISO, 0x0F
0.082301583,SPI,MOSI, 0x00,  MISO, 0xFF
0.082331125,SPI,MOSI, 0x2A,  MISO, 0xFF
0.082339125,SPI,MOSI, 0xD4,  MISO, 0xFF
0.082348625,SPI,MOSI, 0x00,  MISO, 0x0F
0.082356625,SPI,MOSI, 0x00,  MISO, 0xFF
0.082386208,SPI,MOSI, 0x2A,  MISO, 0xFF
0.082394208,SPI,MOSI, 0xD4,  MISO, 0xFF
0.082403708,SPI,MOSI, 0x00,  MISO, 0x0F
0.082411708,SPI,MOSI, 0x00,  MISO, 0xFF
0.082441333,SPI,MOSI, 0x2A,  MISO, 0xFF
0.082449333,SPI,MOSI, 0xD4,  MISO, 0xFF
0.082458833,SPI,MOSI, 0x00,  MISO, 0x0F
0.082466833,SPI,MOSI, 0x00,  MISO, 0xFF
0.0824965,SPI,MOSI, 0x2A,  MISO, 0xFF
0.0825045,SPI,MOSI, 0xD4,  MISO, 0xFF
0.082514,SPI,MOSI, 0x00,  MISO, 0x0F
0.082522,SPI,MOSI, 0x00,  MISO, 0xFF
0.082551667,SPI,MOSI, 0x2A,  MISO, 0xFF
0.082559667,SPI,MOSI, 0xD4,  MISO, 0xFF
0.082569167,SPI,MOSI, 0x00,  MISO, 0x0F
0.082577167,SPI,MOSI, 0x00,  MISO, 0xFF
0.082606958,SPI,MOSI, 0x2A,  MISO, 0xFF
0.082614958,SPI,MOSI, 0xD4,  MISO, 0xFF
0.082624458,SPI,MOSI, 0x00,  MISO, 0x0F
0.082632458,SPI,MOSI, 0x00,  MISO, 0xFF
0.082686583,SPI,MOSI, 0x2A,  MISO, 0xFF
0.082694583,SPI,MOSI, 0xD4,  MISO, 0xFF
0.082704083,SPI,MOSI, 0x00,  MISO, 0x0F
0.082712083,SPI,MOSI, 0x00,  MISO, 0xFF
0.082755542,SPI,MOSI, 0x49,  MISO, 0xFF
0.082763542,SPI,MOSI, 0x83,  MISO, 0xFF
0.082773042,SPI,MOSI, 0x4F,  MISO, 0xFF
0.082781042,SPI,MOSI, 0x00,  MISO, 0x83
0.082790542,SPI,MOSI, 0x00,  MISO, 0xB6
0.082798542,SPI,MOSI, 0x00,  MISO, 0x9F
0.082808042,SPI,MOSI, 0x00,  MISO, 0xCA
0.082816042,SPI,MOSI, 0x00,  MISO, 0x9F
0.082825542,SPI,MOSI, 0x00,  MISO, 0x42
0.082833542,SPI,MOSI, 0x00,  MISO, 0x9F
0.082843042,SPI,MOSI, 0x00,  MISO, 0x23
0.082851042,SPI,MOSI, 0x00,  MISO, 0x99
0.082860542,SPI,MOSI, 0x00,  MISO, 0x83
0.082868542,SPI,MOSI, 0x00,  MISO, 0xB4
0.082878042,SPI,MOSI, 0x00,  MISO, 0x9F
0.082886042,SPI,MOSI, 0x00,  MISO, 0xB6
0.082895542,SPI,MOSI, 0x00,  MISO, 0x9F
0.082903542,SPI,MOSI, 0x00,  MISO, 0xBB
0.082913042,SPI,MOSI, 0x00,  MISO, 0x9F
0.082921042,SPI,MOSI, 0x00,  MISO, 0x0F
0.082930542,SPI,MOSI, 0x00,  MISO, 0x1D
0.082938542,SPI,MOSI, 0x00,  MISO, 0xFF
0.082948042,SPI,MOSI, 0x00,  MISO, 0xFF
0.082956042,SPI,MOSI, 0x00,  MISO, 0xFF
0.082965542,SPI,MOSI, 0x00,  MISO, 0xFF
0.082973542,SPI,MOSI, 0x00,  MISO, 0xFF
0.082983042,SPI,MOSI, 0x00,  MISO, 0xFF
0.082991042,SPI,MOSI, 0x00,  MISO, 0xFF
0.083000542,SPI,MOSI, 0x00,  MISO, 0xFF
0.083008542,SPI,MOSI, 0x00,  MISO, 0xFF
0.083018042,SPI,MOSI, 0x00,  MISO, 0xFF
0.083026042,SPI,MOSI, 0x00,  MISO, 0xFF
0.083035542,SPI,MOSI, 0x00,  MISO, 0xFF
0.083043542,SPI,MOSI, 0x00,  MISO, 0xFF
0.083053042,SPI,MOSI, 0x00,  MISO, 0xFF
0.083061042,SPI,MOSI, 0x00,  MISO, 0xFF
0.083070542,SPI,MOSI, 0x00,  MISO, 0xFF
0.083078542,SPI,MOSI, 0x00,  MISO, 0xFF
0.083088042,SPI,MOSI, 0x00,  MISO, 0xFF
0.083096042,SPI,MOSI, 0x00,  MISO, 0xFF
0.083105542,SPI,MOSI, 0x00,  MISO, 0xFF
0.083113542,SPI,MOSI, 0x00,  MISO, 0xFF
0.083123042,SPI,MOSI, 0x00,  MISO, 0xFF
0.083131042,SPI,MOSI, 0x00,  MISO, 0xFF
0.083140542,SPI,MOSI, 0x00,  MISO, 0xFF
0.083148583,SPI,MOSI, 0x00,  MISO, 0xFF
0.083158042,SPI,MOSI, 0x00,  MISO, 0xFF
0.083166042,SPI,MOSI, 0x00,  MISO, 0xFF
0.083175583,SPI,MOSI, 0x00,  MISO, 0xFF
0.083183542,SPI,MOSI, 0x00,  MISO, 0xFF
0.083193083,SPI,MOSI, 0x00,  MISO, 0xFF
0.083201042,SPI,MOSI, 0x00,  MISO, 0xFF
0.083210583,SPI,MOSI, 0x00,  MISO, 0xFF
0.083218542,SPI,MOSI, 0x00,  MISO, 0xFF
0.083228083,SPI,MOSI, 0x00,  MISO, 0xFF
0.083236042,SPI,MOSI, 0x00,  MISO, 0xFF
0.083245583,SPI,MOSI, 0x00,  MISO, 0xFF
0.083253542,SPI,MOSI, 0x00,  MISO, 0xFF
0.083263083,SPI,MOSI, 0x00,  MISO, 0xFF
0.083271083,SPI,MOSI, 0x00,  MISO, 0xFF
0.083280583,SPI,MOSI, 0x00,  MISO, 0xFF
0.083288583,SPI,MOSI, 0x00,  MISO, 0xFF
0.083298083,SPI,MOSI, 0x00,  MISO, 0xFF
0.083306083,SPI,MOSI, 0x00,  MISO, 0xFF
0.083315583,SPI,MOSI, 0x00,  MISO, 0xFF
0.083323583,SPI,MOSI, 0x00,  MISO, 0xFF
0.083333083,SPI,MOSI, 0x00,  MISO, 0xFF
0.083341083,SPI,MOSI, 0x00,  MISO, 0xFF
0.083350583,SPI,MOSI, 0x00,  MISO, 0xFF
0.083358583,SPI,MOSI, 0x00,  MISO, 0xFF
0.083368083,SPI,MOSI, 0x00,  MISO, 0xFF
0.083376083,SPI,MOSI, 0x00,  MISO, 0xFF
0.083385583,SPI,MOSI, 0x00,  MISO, 0xFF
0.083393583,SPI,MOSI, 0x00,  MISO, 0xFF
0.083403083,SPI,MOSI, 0x00,  MISO, 0xFF
0.083411083,SPI,MOSI, 0x00,  MISO, 0xFF
0.083455708,SPI,MOSI, 0x4A,  MISO, 0xFF
0.083463708,SPI,MOSI, 0x83,  MISO, 0xFF
0.083473208,SPI,MOSI, 0x5B,  MISO, 0xFF
0.083481208,SPI,MOSI, 0x00,  MISO, 0xFF
0.083490708,SPI,MOSI, 0x00,  MISO, 0xFF
0.083498708,SPI,MOSI, 0x00,  MISO, 0xFF
0.083508208,SPI,MOSI, 0x00,  MISO, 0xFF
0.083516208,SPI,MOSI, 0x00,  MISO, 0xFF
0.083525708,SPI,MOSI, 0x00,  MISO, 0xFF
0.083533708,SPI,MOSI, 0x00,  MISO, 0xFF
0.083543208,SPI,MOSI, 0x00,  MISO, 0xFF
0.083551208,SPI,MOSI, 0x00,  MISO, 0xFF
0.083560708,SPI,MOSI, 0x00,  MISO, 0xFF
0.083568708,SPI,MOSI, 0x00,  MISO, 0xFF
0.083578208,SPI,MOSI, 0x00,  MISO, 0xFF
0.083586208,SPI,MOSI, 0x00,  MISO, 0xFF
0.083595708,SPI,MOSI, 0x00,  MISO, 0xFF
0.083603708,SPI,MOSI, 0x00,  MISO, 0xFF
0.083613208,SPI,MOSI, 0x00,  MISO, 0xFF
0.083621208,SPI,MOSI, 0x00,  MISO, 0xFF
0.083630708,SPI,MOSI, 0x00,  MISO, 0xFF
0.083638708,SPI,MOSI, 0x00,  MISO, 0xFF
0.083648208,SPI,MOSI, 0x00,  MISO, 0xFF
0.083656208,SPI,MOSI, 0x00,  MISO, 0xFF
0.083665708,SPI,MOSI, 0x00,  MISO, 0xFF
0.083673708,SPI,MOSI, 0x00,  MISO, 0xFF
0.083683208,SPI,MOSI, 0x00,  MISO, 0xFF
0.083691208,SPI,MOSI, 0x00,  MISO, 0xFF
0.083700708,SPI,MOSI, 0x00,  MISO, 0xFF
0.083708708,SPI,MOSI, 0x00,  MISO, 0xFF
0.083718208,SPI,MOSI, 0x00,  MISO, 0xFF
0.083726208,SPI,MOSI, 0x00,  MISO, 0xFF
0.083735708,SPI,MOSI, 0x00,  MISO, 0xFF
0.083743708,SPI,MOSI, 0x00,  MISO, 0xFF
0.083753208,SPI,MOSI, 0x00,  MISO, 0xFF
0.083761208,SPI,MOSI, 0x00,  MISO, 0xFF
0.083770708,SPI,MOSI, 0x00,  MISO, 0xFF
0.083778708,SPI,MOSI, 0x00,  MISO, 0xFF
0.083788208,SPI,MOSI, 0x00,  MISO, 0xFF
0.083796208,SPI,MOSI, 0x00,  MISO, 0xFF
0.083805708,SPI,MOSI, 0x00,  MISO, 0xFF
0.083813708,SPI,MOSI, 0x00,  MISO, 0xFF
0.083823208,SPI,MOSI, 0x00,  MISO, 0xFF
0.083831208,SPI,MOSI, 0x00,  MISO, 0xFF
0.083840708,SPI,MOSI, 0x00,  MISO, 0xFF
0.083848708,SPI,MOSI, 0x00,  MISO, 0xFF
0.083858208,SPI,MOSI, 0x00,  MISO, 0xFF
0.083866208,SPI,MOSI, 0x00,  MISO, 0xFF
0.083875708,SPI,MOSI, 0x00,  MISO, 0xFF
0.083883708,SPI,MOSI, 0x00,  MISO, 0xFF
0.083893208,SPI,MOSI, 0x00,  MISO, 0xFF
0.083901208,SPI,MOSI, 0x00,  MISO, 0xFF
0.083910708,SPI,MOSI, 0x00,  MISO, 0xFF
0.083918708,SPI,MOSI, 0x00,  MISO, 0xFF
0.083928208,SPI,MOSI, 0x00,  MISO, 0xFF
0.083936208,SPI,MOSI, 0x00,  MISO, 0xFF
0.083945708,SPI,MOSI, 0x00,  MISO, 0xFF
0.08395375,SPI,MOSI, 0x00,  MISO, 0xFF
0.083963208,SPI,MOSI, 0x00,  MISO, 0xFF
0.08397125,SPI,MOSI, 0x00,  MISO, 0xFF
0.083980708,SPI,MOSI, 0x00,  MISO, 0xFF
0.08398875,SPI,MOSI, 0x00,  MISO, 0xFF
0.08399825,SPI,MOSI, 0x00,  MISO, 0xFF
0.084006208,SPI,MOSI, 0x00,  MISO, 0xFF
0.08401575,SPI,MOSI, 0x00,  MISO, 0xFF
0.084023708,SPI,MOSI, 0x00,  MISO, 0xFF
0.08403325,SPI,MOSI, 0x00,  MISO, 0xFF
0.08404125,SPI,MOSI, 0x00,  MISO, 0xFF
0.08405075,SPI,MOSI, 0x00,  MISO, 0xFF
0.08405875,SPI,MOSI, 0x00,  MISO, 0xFF
0.084068208,SPI,MOSI, 0x00,  MISO, 0xFF
0.08407625,SPI,MOSI, 0x00,  MISO, 0xFF
0.08408575,SPI,MOSI, 0x00,  MISO, 0xFF
0.08409375,SPI,MOSI, 0x00,  MISO, 0xFF
0.08410325,SPI,MOSI, 0x00,  MISO, 0xFF
0.08411125,SPI,MOSI, 0x00,  MISO, 0xFF
0.084192667,SPI,MOSI, 0x2A,  MISO, 0xFF
0.084200667,SPI,MOSI, 0xD4,  MISO, 0xFF
0.084210167,SPI,MOSI, 0x00,  MISO, 0x0F
0.084218167,SPI,MOSI, 0x00,  MISO, 0xFF
0.084248542,SPI,MOSI, 0x2A,  MISO, 0xFF
0.084256542,SPI,MOSI, 0xD4,  MISO, 0xFF
0.084266042,SPI,MOSI, 0x00,  MISO, 0x0F
0.084274042,SPI,MOSI, 0x00,  MISO, 0xFF
0.084303667,SPI,MOSI, 0x2A,  MISO, 0xFF
0.084311667,SPI,MOSI, 0xD4,  MISO, 0xFF
0.084321167,SPI,MOSI, 0x00,  MISO, 0x0F
0.084329167,SPI,MOSI, 0x00,  MISO, 0xFF
0.08435875,SPI,MOSI, 0x2A,  MISO, 0xFF
0.08436675,SPI,MOSI, 0xD4,  MISO, 0xFF
0.08437625,SPI,MOSI, 0x00,  MISO, 0x0F
0.08438425,SPI,MOSI, 0x00,  MISO, 0xFF
0.084413917,SPI,MOSI, 0x2A,  MISO, 0xFF
0.084421958,SPI,MOSI, 0xD4,  MISO, 0xFF
0.084431458,SPI,MOSI, 0x00,  MISO, 0x0F
0.084439458,SPI,MOSI, 0x00,  MISO, 0xFF
0.084469208,SPI,MOSI, 0x2A,  MISO, 0xFF
0.084477208,SPI,MOSI, 0xD4,  MISO, 0xFF
0.084486708,SPI,MOSI, 0x00,  MISO, 0x0F
0.084494667,SPI,MOSI, 0x00,  MISO, 0xFF
0.084524292,SPI,MOSI, 0x2A,  MISO, 0xFF
0.084532292,SPI,MOSI, 0xD4,  MISO, 0xFF
0.084541792,SPI,MOSI, 0x00,  MISO, 0x0F
0.084549792,SPI,MOSI, 0x00,  MISO, 0xFF
0.0845795,SPI,MOSI, 0x2A,  MISO, 0xFF
0.0845875,SPI,MOSI, 0xD4,  MISO, 0xFF
0.084597,SPI,MOSI, 0x00,  MISO, 0x0F
0.084605,SPI,MOSI, 0x00,  MISO, 0xFF
0.084679833,SPI,MOSI, 0x2A,  MISO, 0xFF
0.084687833,SPI,MOSI, 0xD4,  MISO, 0xFF
0.084697333,SPI,MOSI, 0x00,  MISO, 0x0F
0.084705333,SPI,MOSI, 0x00,  MISO, 0xFF
0.0847425,SPI,MOSI, 0x4A,  MISO, 0xFF
0.0847505,SPI,MOSI, 0x83,  MISO, 0xFF
0.08476,SPI,MOSI, 0x5B,  MISO, 0xFF
0.084768,SPI,MOSI, 0x00,  MISO, 0x83
0.0847775,SPI,MOSI, 0x00,  MISO, 0xD9
0.0847855,SPI,MOSI, 0x00,  MISO, 0x9F
0.084795,SPI,MOSI, 0x00,  MISO, 0xD3
0.084803,SPI,MOSI, 0x00,  MISO, 0x9F
0.0848125,SPI,MOSI, 0x00,  MISO, 0x99
0.0848205,SPI,MOSI, 0x00,  MISO, 0xA1
0.08483,SPI,MOSI, 0x00,  MISO, 0x1B
0.084838,SPI,MOSI, 0x00,  MISO, 0xE9
0.0848475,SPI,MOSI, 0x00,  MISO, 0x83
0.0848555,SPI,MOSI, 0x00,  MISO, 0x65
0.084865,SPI,MOSI, 0x00,  MISO, 0x9F
0.084873,SPI,MOSI, 0x00,  MISO, 0xC3
0.0848825,SPI,MOSI, 0x00,  MISO, 0x9F
0.0848905,SPI,MOSI, 0x00,  MISO, 0xCA
0.0849,SPI,MOSI, 0x00,  MISO, 0x9F
0.084908,SPI,MOSI, 0x00,  MISO, 0x1F
0.0849175,SPI,MOSI, 0x00,  MISO, 0xE7
0.0849255,SPI,MOSI, 0x00,  MISO, 0xFF
0.084935,SPI,MOSI, 0x00,  MISO, 0xFF
0.084943,SPI,MOSI, 0x00,  MISO, 0xFF
0.0849525,SPI,MOSI, 0x00,  MISO, 0xFF
0.0849605,SPI,MOSI, 0x00,  MISO, 0xFF
0.08497,SPI,MOSI, 0x00,  MISO, 0xFF
0.084978,SPI,MOSI, 0x00,  MISO, 0xFF
0.0849875,SPI,MOSI, 0x00,  MISO, 0xFF
0.0849955,SPI,MOSI, 0x00,  MISO, 0xFF
0.085005,SPI,MOSI, 0x00,  MISO, 0xFF
0.085013,SPI,MOSI, 0x00,  MISO, 0xFF
0.0850225,SPI,MOSI, 0x00,  MISO, 0xFF
0.0850305,SPI,MOSI, 0x00,  MISO, 0xFF
0.08504,SPI,MOSI, 0x00,  MISO, 0xFF
0.085048,SPI,MOSI, 0x00,  MISO, 0xFF
0.0850575,SPI,MOSI, 0x00,  MISO, 0xFF
0.0850655,SPI,MOSI, 0x00,  MISO, 0xFF
0.085075,SPI,MOSI, 0x00,  MISO, 0xFF
0.085083,SPI,MOSI, 0x00,  MISO, 0xFF
0.0850925,SPI,MOSI, 0x00,  MISO, 0xFF
0.0851005,SPI,MOSI, 0x00,  MISO, 0xFF
0.08511,SPI,MOSI, 0x00,  MISO, 0xFF
0.085118,SPI,MOSI, 0x00,  MISO, 0xFF
0.0851275,SPI,MOSI, 0x00,  MISO, 0xFF
0.0851355,SPI,MOSI, 0x00,  MISO, 0xFF
0.085145,SPI,MOSI, 0x00,  MISO, 0xFF
0.085153,SPI,MOSI, 0x00,  MISO, 0xFF
0.0851625,SPI,MOSI, 0x00,  MISO, 0xFF
0.0851705,SPI,MOSI, 0x00,  MISO, 0xFF
0.08518,SPI,MOSI, 0x00,  MISO, 0xFF
0.085188,SPI,MOSI, 0x00,  MISO, 0xFF
0.0851975,SPI,MOSI, 0x00,  MISO, 0xFF
0.0852055,SPI,MOSI, 0x00,  MISO, 0xFF
0.085215,SPI,MOSI, 0x00,  MISO, 0xFF
0.085223,SPI,MOSI, 0x00,  MISO, 0xFF
0.0852325,SPI,MOSI, 0x00,  MISO, 0xFF
0.0852405,SPI,MOSI, 0x00,  MISO, 0xFF
0.08525,SPI,MOSI, 0x00,  MISO, 0xFF
0.085258,SPI,MOSI, 0x00,  MISO, 0xFF
0.0852675,SPI,MOSI, 0x00,  MISO, 0xFF
0.0852755,SPI,MOSI, 0x00,  MISO, 0xFF
0.085285,SPI,MOSI, 0x00,  MISO, 0xFF
0.085293,SPI,MOSI, 0x00,  MISO, 0xFF
0.0853025,SPI,MOSI, 0x00,  MISO, 0xFF
0.0853105,SPI,MOSI, 0x00,  MISO, 0xFF
0.08532,SPI,MOSI, 0x00,  MISO, 0xFF
0.085328,SPI,MOSI, 0x00,  MISO, 0xFF
0.0853375,SPI,MOSI, 0x00,  MISO, 0xFF
0.0853455,SPI,MOSI, 0x00,  MISO, 0xFF
0.085355,SPI,MOSI, 0x00,  MISO, 0xFF
0.085363,SPI,MOSI, 0x00,  MISO, 0xFF
0.0853725,SPI,MOSI, 0x00,  MISO, 0xFF
0.0853805,SPI,MOSI, 0x00,  MISO, 0xFF
0.08539,SPI,MOSI, 0x00,  MISO, 0xFF
0.085398,SPI,MOSI, 0x00,  MISO, 0xFF
0.085442958,SPI,MOSI, 0x4B,  MISO, 0xFF
0.085450958,SPI,MOSI, 0x83,  MISO, 0xFF
0.085460458,SPI,MOSI, 0xB2,  MISO, 0xFF
0.085468458,SPI,MOSI, 0x00,  MISO, 0xFF
0.085477958,SPI,MOSI, 0x00,  MISO, 0xFF
0.085485958,SPI,MOSI, 0x00,  MISO, 0xFF
0.085495458,SPI,MOSI, 0x00,  MISO, 0xFF
0.085503458,SPI,MOSI, 0x00,  MISO, 0xFF
0.085512958,SPI,MOSI, 0x00,  MISO, 0xFF
0.085520958,SPI,MOSI, 0x00,  MISO, 0xFF
0.085530458,SPI,MOSI, 0x00,  MISO, 0xFF
0.085538458,SPI,MOSI, 0x00,  MISO, 0xFF
0.085547958,SPI,MOSI, 0x00,  MISO, 0xFF
0.085555958,SPI,MOSI, 0x00,  MISO, 0xFF
0.085565458,SPI,MOSI, 0x00,  MISO, 0xFF
0.085573458,SPI,MOSI, 0x00,  MISO, 0xFF
0.085582958,SPI,MOSI, 0x00,  MISO, 0xFF
0.085590958,SPI,MOSI, 0x00,  MISO, 0xFF
0.085600458,SPI,MOSI, 0x00,  MISO, 0xFF
0.085608458,SPI,MOSI, 0x00,  MISO, 0xFF
0.085617958,SPI,MOSI, 0x00,  MISO, 0xFF
0.085625958,SPI,MOSI, 0x00,  MISO, 0xFF
0.085635458,SPI,MOSI, 0x00,  MISO, 0xFF
0.085643458,SPI,MOSI, 0x00,  MISO, 0xFF
0.085652958,SPI,MOSI, 0x00,  MISO, 0xFF
0.085660958,SPI,MOSI, 0x00,  MISO, 0xFF
0.085670458,SPI,MOSI, 0x00,  MISO, 0xFF
0.085678458,SPI,MOSI, 0x00,  MISO, 0xFF
0.085687958,SPI,MOSI, 0x00,  MISO, 0xFF
0.085695958,SPI,MOSI, 0x00,  MISO, 0xFF
0.085705458,SPI,MOSI, 0x00,  MISO, 0xFF
0.085713458,SPI,MOSI, 0x00,  MISO, 0xFF
0.085722958,SPI,MOSI, 0x00,  MISO, 0xFF
0.085730958,SPI,MOSI, 0x00,  MISO, 0xFF
0.085740458,SPI,MOSI, 0x00,  MISO, 0xFF
0.085748458,SPI,MOSI, 0x00,  MISO, 0xFF
0.085757958,SPI,MOSI, 0x00,  MISO, 0xFF
0.085765958,SPI,MOSI, 0x00,  MISO, 0xFF
0.085775458,SPI,MOSI, 0x00,  MISO, 0xFF
0.085783458,SPI,MOSI, 0x00,  MISO, 0xFF
0.085792958,SPI,MOSI, 0x00,  MISO, 0xFF
0.085800958,SPI,MOSI, 0x00,  MISO, 0xFF
0.085810458,SPI,MOSI, 0x00,  MISO, 0xFF
0.085818458,SPI,MOSI, 0x00,  MISO, 0xFF
0.085827958,SPI,MOSI, 0x00,  MISO, 0xFF
0.085835958,SPI,MOSI, 0x00,  MISO, 0xFF
0.085845458,SPI,MOSI, 0x00,  MISO, 0xFF
0.085853458,SPI,MOSI, 0x00,  MISO, 0xFF
0.085862958,SPI,MOSI, 0x00,  MISO, 0xFF
0.085870958,SPI,MOSI, 0x00,  MISO, 0xFF
0.085880458,SPI,MOSI, 0x00,  MISO, 0xFF
0.085888458,SPI,MOSI, 0x00,  MISO, 0xFF
0.085897958,SPI,MOSI, 0x00,  MISO, 0xFF
0.085905958,SPI,MOSI, 0x00,  MISO, 0xFF
0.085915458,SPI,MOSI, 0x00,  MISO, 0xFF
0.085923458,SPI,MOSI, 0x00,  MISO, 0xFF
0.085932958,SPI,MOSI, 0x00,  MISO, 0xFF
0.085940958,SPI,MOSI, 0x00,  MISO, 0xFF
0.085950458,SPI,MOSI, 0x00,  MISO, 0xFF
0.085958458,SPI,MOSI, 0x00,  MISO, 0xFF
0.085967958,SPI,MOSI, 0x00,  MISO, 0xFF
0.085975958,SPI,MOSI, 0x00,  MISO, 0xFF
0.085985458,SPI,MOSI, 0x00,  MISO, 0xFF
0.085993458,SPI,MOSI, 0x00,  MISO, 0xFF
0.086002958,SPI,MOSI, 0x00,  MISO, 0xFF
0.086010958,SPI,MOSI, 0x00,  MISO, 0xFF
0.086020458,SPI,MOSI, 0x00,  MISO, 0xFF
0.086028458,SPI,MOSI, 0x00,  MISO, 0xFF
0.086037958,SPI,MOSI, 0x00,  MISO, 0xFF
0.086045958,SPI,MOSI, 0x00,  MISO, 0xFF
0.086055458,SPI,MOSI, 0x00,  MISO, 0xFF
0.086063458,SPI,MOSI, 0x00,  MISO, 0xFF
0.086072958,SPI,MOSI, 0x00,  MISO, 0xFF
0.086080958,SPI,MOSI, 0x00,  MISO, 0xFF
0.086090458,SPI,MOSI, 0x00,  MISO, 0xFF
0.086098458,SPI,MOSI, 0x00,  MISO, 0xFF
0.086201917,SPI,MOSI, 0x2A,  MISO, 0xFF
0.086209917,SPI,MOSI, 0xD4,  MISO, 0xFF
0.086219417,SPI,MOSI, 0x00,  MISO, 0x0F
0.086227417,SPI,MOSI, 0x00,  MISO, 0xFF
0.086258042,SPI,MOSI, 0x2A,  MISO, 0xFF
0.086266042,SPI,MOSI, 0xD4,  MISO, 0xFF
0.086275542,SPI,MOSI, 0x00,  MISO, 0x0F
0.086283542,SPI,MOSI, 0x00,  MISO, 0xFF
0.086313417,SPI,MOSI, 0x2A,  MISO, 0xFF
0.086321417,SPI,MOSI, 0xD4,  MISO, 0xFF
0.086330917,SPI,MOSI, 0x00,  MISO, 0x0F
0.086338917,SPI,MOSI, 0x00,  MISO, 0xFF
0.086368583,SPI,MOSI, 0x2A,  MISO, 0xFF
0.086376583,SPI,MOSI, 0xD4,  MISO, 0xFF
0.086386083,SPI,MOSI, 0x00,  MISO, 0x0F
0.086394083,SPI,MOSI, 0x00,  MISO, 0xFF
0.08642375,SPI,MOSI, 0x2A,  MISO, 0xFF
0.08643175,SPI,MOSI, 0xD4,  MISO, 0xFF
0.08644125,SPI,MOSI, 0x00,  MISO, 0x0F
0.08644925,SPI,MOSI, 0x00,  MISO, 0xFF
0.086479042,SPI,MOSI, 0x2A,  MISO, 0xFF
0.086487042,SPI,MOSI, 0xD4,  MISO, 0xFF
0.086496542,SPI,MOSI, 0x00,  MISO, 0x0F
0.086504542,SPI,MOSI, 0x00,  MISO, 0xFF
0.086534167,SPI,MOSI, 0x2A,  MISO, 0xFF
0.086542167,SPI,MOSI, 0xD4,  MISO, 0xFF
0.086551667,SPI,MOSI, 0x00,  MISO, 0x0F
0.086559667,SPI,MOSI, 0x00,  MISO, 0xFF
0.086589417,SPI,MOSI, 0x2A,  MISO, 0xFF
0.086597417,SPI,MOSI, 0xD4,  MISO, 0xFF
0.086606917,SPI,MOSI, 0x00,  MISO, 0x0F
0.086614917,SPI,MOSI, 0x00,  MISO, 0xFF
0.086684417,SPI,MOSI, 0x2A,  MISO, 0xFF
0.086692417,SPI,MOSI, 0xD4,  MISO, 0xFF
0.086701917,SPI,MOSI, 0x00,  MISO, 0x0F
0.086709917,SPI,MOSI, 0x00,  MISO, 0xFF
0.086742625,SPI,MOSI, 0x4B,  MISO, 0xFF
0.086750625,SPI,MOSI, 0x83,  MISO, 0xFF
0.086760125,SPI,MOSI, 0xB2,  MISO, 0xFF
0.086768125,SPI,MOSI, 0x00,  MISO, 0x83
0.086777625,SPI,MOSI, 0x00,  MISO, 0x20
0.086785625,SPI,MOSI, 0x00,  MISO, 0xA0
0.086795125,SPI,MOSI, 0x00,  MISO, 0x00
0.086803125,SPI,MOSI, 0x00,  MISO, 0x00
0.086812625,SPI,MOSI, 0x00,  MISO, 0x02
0.086820625,SPI,MOSI, 0x00,  MISO, 0x00
0.086830125,SPI,MOSI, 0x00,  MISO, 0x16
0.086838125,SPI,MOSI, 0x00,  MISO, 0x94
0.086847625,SPI,MOSI, 0x00,  MISO, 0x83
0.086855625,SPI,MOSI, 0x00,  MISO, 0x00
0.086865125,SPI,MOSI, 0x00,  MISO, 0x00
0.086873125,SPI,MOSI, 0x00,  MISO, 0x02
0.086882625,SPI,MOSI, 0x00,  MISO, 0x00
0.086890625,SPI,MOSI, 0x00,  MISO, 0x02
0.086900125,SPI,MOSI, 0x00,  MISO, 0x00
0.086908125,SPI,MOSI, 0x00,  MISO, 0x10
0.086917625,SPI,MOSI, 0x00,  MISO, 0x8A
0.086925625,SPI,MOSI, 0x00,  MISO, 0xFF
0.086935125,SPI,MOSI, 0x00,  MISO, 0xFF
0.086943125,SPI,MOSI, 0x00,  MISO, 0xFF
0.086952625,SPI,MOSI, 0x00,  MISO, 0xFF
0.086960625,SPI,MOSI, 0x00,  MISO, 0xFF
0.086970125,SPI,MOSI, 0x00,  MISO, 0xFF
0.086978125,SPI,MOSI, 0x00,  MISO, 0xFF
0.086987625,SPI,MOSI, 0x00,  MISO, 0xFF
0.086995625,SPI,MOSI, 0x00,  MISO, 0xFF
0.087005167,SPI,MOSI, 0x00,  MISO, 0xFF
0.087013125,SPI,MOSI, 0x00,  MISO, 0xFF
0.087022625,SPI,MOSI, 0x00,  MISO, 0xFF
0.087030667,SPI,MOSI, 0x00,  MISO, 0xFF
0.087040125,SPI,MOSI, 0x00,  MISO, 0xFF
0.087048167,SPI,MOSI, 0x00,  MISO, 0xFF
0.087057667,SPI,MOSI, 0x00,  MISO, 0xFF
0.087065667,SPI,MOSI, 0x00,  MISO, 0xFF
0.087075167,SPI,MOSI, 0x00,  MISO, 0xFF
0.087083125,SPI,MOSI, 0x00,  MISO, 0xFF
0.087092667,SPI,MOSI, 0x00,  MISO, 0xFF
0.087100625,SPI,MOSI, 0x00,  MISO, 0xFF
0.087110167,SPI,MOSI, 0x00,  MISO, 0xFF
0.087118167,SPI,MOSI, 0x00,  MISO, 0xFF
0.087127667,SPI,MOSI, 0x00,  MISO, 0xFF
0.087135667,SPI,MOSI, 0x00,  MISO, 0xFF
0.087145125,SPI,MOSI, 0x00,  MISO, 0xFF
0.087153167,SPI,MOSI, 0x00,  MISO, 0xFF
0.087162667,SPI,MOSI, 0x00,  MISO, 0xFF
0.087170667,SPI,MOSI, 0x00,  MISO, 0xFF
0.087180167,SPI,MOSI, 0x00,  MISO, 0xFF
0.087188125,SPI,MOSI, 0x00,  MISO, 0xFF
0.087197667,SPI,MOSI, 0x00,  MISO, 0xFF
0.087205667,SPI,MOSI, 0x00,  MISO, 0xFF
0.087215167,SPI,MOSI, 0x00,  MISO, 0xFF
0.087223167,SPI,MOSI, 0x00,  MISO, 0xFF
0.087232667,SPI,MOSI, 0x00,  MISO, 0xFF
0.087240667,SPI,MOSI, 0x00,  MISO, 0xFF
0.087250167,SPI,MOSI, 0x00,  MISO, 0xFF
0.087258167,SPI,MOSI, 0x00,  MISO, 0xFF
0.087267667,SPI,MOSI, 0x00,  MISO, 0xFF
0.087275667,SPI,MOSI, 0x00,  MISO, 0xFF
0.087285167,SPI,MOSI, 0x00,  MISO, 0xFF
0.087293125,SPI,MOSI, 0x00,  MISO, 0xFF
0.087302667,SPI,MOSI, 0x00,  MISO, 0xFF
0.087310667,SPI,MOSI, 0x00,  MISO, 0xFF
0.087320167,SPI,MOSI, 0x00,  MISO, 0xFF
0.087328167,SPI,MOSI, 0x00,  MISO, 0xFF
0.087337667,SPI,MOSI, 0x00,  MISO, 0xFF
0.087345667,SPI,MOSI, 0x00,  MISO, 0xFF
0.087355167,SPI,MOSI, 0x00,  MISO, 0xFF
0.087363167,SPI,MOSI, 0x00,  MISO, 0xFF
0.087372667,SPI,MOSI, 0x00,  MISO, 0xFF
0.087380667,SPI,MOSI, 0x00,  MISO, 0xFF
0.087390167,SPI,MOSI, 0x00,  MISO, 0xFF
0.087398167,SPI,MOSI, 0x00,  MISO, 0xFF
0.087598417,SPI,MOSI, 0x4C,  MISO, 0xFF
0.087606417,SPI,MOSI, 0x83,  MISO, 0xFF
0.087615917,SPI,MOSI, 0x73,  MISO, 0xFF
0.087623917,SPI,MOSI, 0x00,  MISO, 0xFF
0.087633417,SPI,MOSI, 0x00,  MISO, 0xFF
0.087641417,SPI,MOSI, 0x00,  MISO, 0xFF
0.087650917,SPI,MOSI, 0x00,  MISO, 0xFF
0.087658917,SPI,MOSI, 0x00,  MISO, 0xFF
0.087668417,SPI,MOSI, 0x00,  MISO, 0xFF
0.087676417,SPI,MOSI, 0x00,  MISO, 0xFF
0.087685917,SPI,MOSI, 0x00,  MISO, 0xFF
0.087693917,SPI,MOSI, 0x00,  MISO, 0xFF
0.087703417,SPI,MOSI, 0x00,  MISO, 0xFF
0.087711417,SPI,MOSI, 0x00,  MISO, 0xFF
0.087720917,SPI,MOSI, 0x00,  MISO, 0xFF
0.087728917,SPI,MOSI, 0x00,  MISO, 0xFF
0.087738417,SPI,MOSI, 0x00,  MISO, 0xFF
0.087746417,SPI,MOSI, 0x00,  MISO, 0xFF
0.087755917,SPI,MOSI, 0x00,  MISO, 0xFF
0.087763917,SPI,MOSI, 0x00,  MISO, 0xFF
0.087773417,SPI,MOSI, 0x00,  MISO, 0xFF
0.087781417,SPI,MOSI, 0x00,  MISO, 0xFF
0.087790958,SPI,MOSI, 0x00,  MISO, 0xFF
0.087798917,SPI,MOSI, 0x00,  MISO, 0xFF
0.087808458,SPI,MOSI, 0x00,  MISO, 0xFF
0.087816417,SPI,MOSI, 0x00,  MISO, 0xFF
0.087825958,SPI,MOSI, 0x00,  MISO, 0xFF
0.087833958,SPI,MOSI, 0x00,  MISO, 0xFF
0.087843458,SPI,MOSI, 0x00,  MISO, 0xFF
0.087851458,SPI,MOSI, 0x00,  MISO, 0xFF
0.087860958,SPI,MOSI, 0x00,  MISO, 0xFF
0.087868958,SPI,MOSI, 0x00,  MISO, 0xFF
0.087878458,SPI,MOSI, 0x00,  MISO, 0xFF
0.087886458,SPI,MOSI, 0x00,  MISO, 0xFF
0.087895958,SPI,MOSI, 0x00,  MISO, 0xFF
0.087903958,SPI,MOSI, 0x00,  MISO, 0xFF
0.087913458,SPI,MOSI, 0x00,  MISO, 0xFF
0.087921458,SPI,MOSI, 0x00,  MISO, 0xFF
0.087930958,SPI,MOSI, 0x00,  MISO, 0xFF
0.087938958,SPI,MOSI, 0x00,  MISO, 0xFF
0.087948458,SPI,MOSI, 0x00,  MISO, 0xFF
0.087956458,SPI,MOSI, 0x00,  MISO, 0xFF
0.087965958,SPI,MOSI, 0x00,  MISO, 0xFF
0.087973958,SPI,MOSI, 0x00,  MISO, 0xFF
0.087983458,SPI,MOSI, 0x00,  MISO, 0xFF
0.087991458,SPI,MOSI, 0x00,  MISO, 0xFF
0.088000917,SPI,MOSI, 0x00,  MISO, 0xFF
0.088008958,SPI,MOSI, 0x00,  MISO, 0xFF
0.088018458,SPI,MOSI, 0x00,  MISO, 0xFF
0.088026458,SPI,MOSI, 0x00,  MISO, 0xFF
0.088035958,SPI,MOSI, 0x00,  MISO, 0xFF
0.088043958,SPI,MOSI, 0x00,  MISO, 0xFF
0.088053458,SPI,MOSI, 0x00,  MISO, 0xFF
0.088061458,SPI,MOSI, 0x00,  MISO, 0xFF
0.088070958,SPI,MOSI, 0x00,  MISO, 0xFF
0.088078958,SPI,MOSI, 0x00,  MISO, 0xFF
0.088088458,SPI,MOSI, 0x00,  MISO, 0xFF
0.088096458,SPI,MOSI, 0x00,  MISO, 0xFF
0.088105958,SPI,MOSI, 0x00,  MISO, 0xFF
0.088113958,SPI,MOSI, 0x00,  MISO, 0xFF
0.088261917,SPI,MOSI, 0x2A,  MISO, 0xFF
0.088269917,SPI,MOSI, 0xD4,  MISO, 0xFF
0.088279417,SPI,MOSI, 0x00,  MISO, 0x0F
0.088287417,SPI,MOSI, 0x00,  MISO, 0xFF
0.088331,SPI,MOSI, 0x2A,  MISO, 0xFF
0.088339,SPI,MOSI, 0xD4,  MISO, 0xFF
0.0883485,SPI,MOSI, 0x00,  MISO, 0x0F
0.0883565,SPI,MOSI, 0x00,  MISO, 0xFF
0.088386458,SPI,MOSI, 0x2A,  MISO, 0xFF
0.088394458,SPI,MOSI, 0xD4,  MISO, 0xFF
0.088403958,SPI,MOSI, 0x00,  MISO, 0x0F
0.088411958,SPI,MOSI, 0x00,  MISO, 0xFF
0.088441708,SPI,MOSI, 0x2A,  MISO, 0xFF
0.088449708,SPI,MOSI, 0xD4,  MISO, 0xFF
0.088459208,SPI,MOSI, 0x00,  MISO, 0x0F
0.088467208,SPI,MOSI, 0x00,  MISO, 0xFF
0.088496917,SPI,MOSI, 0x2A,  MISO, 0xFF
0.088504917,SPI,MOSI, 0xD4,  MISO, 0xFF
0.088514417,SPI,MOSI, 0x00,  MISO, 0x0F
0.088522417,SPI,MOSI, 0x00,  MISO, 0xFF
0.088552167,SPI,MOSI, 0x2A,  MISO, 0xFF
0.088560167,SPI,MOSI, 0xD4,  MISO, 0xFF
0.088569667,SPI,MOSI, 0x00,  MISO, 0x0F
0.088577667,SPI,MOSI, 0x00,  MISO, 0xFF
0.088607375,SPI,MOSI, 0x2A,  MISO, 0xFF
0.088615375,SPI,MOSI, 0xD4,  MISO, 0xFF
0.088624875,SPI,MOSI, 0x00,  MISO, 0x0F
0.088632875,SPI,MOSI, 0x00,  MISO, 0xFF
0.088662625,SPI,MOSI, 0x2A,  MISO, 0xFF
0.088670625,SPI,MOSI, 0xD4,  MISO, 0xFF
0.088680125,SPI,MOSI, 0x00,  MISO, 0x0F
0.088688125,SPI,MOSI, 0x00,  MISO, 0xFF
0.088717875,SPI,MOSI, 0x2A,  MISO, 0xFF
0.088725875,SPI,MOSI, 0xD4,  MISO, 0xFF
0.088735375,SPI,MOSI, 0x00,  MISO, 0x0F
0.088743375,SPI,MOSI, 0x00,  MISO, 0xFF
0.088784542,SPI,MOSI, 0x4C,  MISO, 0xFF
0.088792542,SPI,MOSI, 0x83,  MISO, 0xFF
0.088802042,SPI,MOSI, 0x73,  MISO, 0xFF
0.088810042,SPI,MOSI, 0x00,  MISO, 0x83
0.088819542,SPI,MOSI, 0x00,  MISO, 0x02
0.088827542,SPI,MOSI, 0x00,  MISO, 0x00
0.088837042,SPI,MOSI, 0x00,  MISO, 0xA6
0.088845042,SPI,MOSI, 0x00,  MISO, 0x81
0.088854542,SPI,MOSI, 0x00,  MISO, 0x1A
0.088862542,SPI,MOSI, 0x00,  MISO, 0xE0
0.088872042,SPI,MOSI, 0x00,  MISO, 0x83
0.088880042,SPI,MOSI, 0x00,  MISO, 0x02
0.088889542,SPI,MOSI, 0x00,  MISO, 0x00
0.088897542,SPI,MOSI, 0x00,  MISO, 0xAA
0.088907042,SPI,MOSI, 0x00,  MISO, 0x77
0.088915042,SPI,MOSI, 0x00,  MISO, 0x00
0.088924583,SPI,MOSI, 0x00,  MISO, 0x46
0.088932542,SPI,MOSI, 0x00,  MISO, 0xFF
0.088942083,SPI,MOSI, 0x00,  MISO, 0xFF
0.088950083,SPI,MOSI, 0x00,  MISO, 0xFF
0.088959542,SPI,MOSI, 0x00,  MISO, 0xFF
0.088967583,SPI,MOSI, 0x00,  MISO, 0xFF
0.088977042,SPI,MOSI, 0x00,  MISO, 0xFF
0.088985083,SPI,MOSI, 0x00,  MISO, 0xFF
0.088994583,SPI,MOSI, 0x00,  MISO, 0xFF
0.089002583,SPI,MOSI, 0x00,  MISO, 0xFF
0.089012083,SPI,MOSI, 0x00,  MISO, 0xFF
0.089020083,SPI,MOSI, 0x00,  MISO, 0xFF
0.089029583,SPI,MOSI, 0x00,  MISO, 0xFF
0.089037542,SPI,MOSI, 0x00,  MISO, 0xFF
0.089047083,SPI,MOSI, 0x00,  MISO, 0xFF
0.089055083,SPI,MOSI, 0x00,  MISO, 0xFF
0.089064583,SPI,MOSI, 0x00,  MISO, 0xFF
0.089072583,SPI,MOSI, 0x00,  MISO, 0xFF
0.089082042,SPI,MOSI, 0x00,  MISO, 0xFF
0.089090083,SPI,MOSI, 0x00,  MISO, 0xFF
0.089099583,SPI,MOSI, 0x00,  MISO, 0xFF
0.089107583,SPI,MOSI, 0x00,  MISO, 0xFF
0.089117083,SPI,MOSI, 0x00,  MISO, 0xFF
0.089125083,SPI,MOSI, 0x00,  MISO, 0xFF
0.089134583,SPI,MOSI, 0x00,  MISO, 0xFF
0.089142583,SPI,MOSI, 0x00,  MISO, 0xFF
0.089152083,SPI,MOSI, 0x00,  MISO, 0xFF
0.089160083,SPI,MOSI, 0x00,  MISO, 0xFF
0.089169542,SPI,MOSI, 0x00,  MISO, 0xFF
0.089177583,SPI,MOSI, 0x00,  MISO, 0xFF
0.089187083,SPI,MOSI, 0x00,  MISO, 0xFF
0.089195083,SPI,MOSI, 0x00,  MISO, 0xFF
0.089204583,SPI,MOSI, 0x00,  MISO, 0xFF
0.089212583,SPI,MOSI, 0x00,  MISO, 0xFF
0.089222083,SPI,MOSI, 0x00,  MISO, 0xFF
0.089230083,SPI,MOSI, 0x00,  MISO, 0xFF
0.089239583,SPI,MOSI, 0x00,  MISO, 0xFF
0.089247583,SPI,MOSI, 0x00,  MISO, 0xFF
0.089257083,SPI,MOSI, 0x00,  MISO, 0xFF
0.089265083,SPI,MOSI, 0x00,  MISO, 0xFF
0.089274583,SPI,MOSI, 0x00,  MISO, 0xFF
0.089282583,SPI,MOSI, 0x00,  MISO, 0xFF
0.089292083,SPI,MOSI, 0x00,  MISO, 0xFF
0.089300083,SPI,MOSI, 0x00,  MISO, 0xFF
0.089356375,SPI,MOSI, 0x14,  MISO, 0xFF
0.089364375,SPI,MOSI, 0xBC,  MISO, 0xFF
0.089373875,SPI,MOSI, 0xFF,  MISO, 0xFF
0.089381875,SPI,MOSI, 0xFF,  MISO, 0xFF
0.089391375,SPI,MOSI, 0xFF,  MISO, 0xFF
0.089399375,SPI,MOSI, 0xFF,  MISO, 0xFF
0.089408875,SPI,MOSI, 0x00,  MISO, 0xFF
0.089416875,SPI,MOSI, 0xFF,  MISO, 0xFF
0.089426375,SPI,MOSI, 0xFF,  MISO, 0xFF
0.089434375,SPI,MOSI, 0xFF,  MISO, 0xFF
0.089443875,SPI,MOSI, 0xFF,  MISO, 0xFF
0.089451875,SPI,MOSI, 0xFF,  MISO, 0xFF
0.089461375,SPI,MOSI, 0x00,  MISO, 0xFF
0.089469375,SPI,MOSI, 0xFF,  MISO, 0xFF
0.089478875,SPI,MOSI, 0xFF,  MISO, 0xFF
0.089486875,SPI,MOSI, 0xFF,  MISO, 0xFF
0.089496375,SPI,MOSI, 0xFF,  MISO, 0xFF
0.089504375,SPI,MOSI, 0xFF,  MISO, 0xFF
0.089513875,SPI,MOSI, 0x00,  MISO, 0xFF
0.089521875,SPI,MOSI, 0xFF,  MISO, 0xFF
0.089531375,SPI,MOSI, 0xFF,  MISO, 0xFF
0.089539375,SPI,MOSI, 0xFF,  MISO, 0xFF
0.089548875,SPI,MOSI, 0xFF,  MISO, 0xFF
0.089556875,SPI,MOSI, 0xFF,  MISO, 0xFF
0.089566375,SPI,MOSI, 0x00,  MISO, 0xFF
0.089574375,SPI,MOSI, 0xFF,  MISO, 0xFF
0.089583875,SPI,MOSI, 0xFF,  MISO, 0xFF
0.089591875,SPI,MOSI, 0xFF,  MISO, 0xFF
0.089601375,SPI,MOSI, 0xFF,  MISO, 0xFF
0.089609375,SPI,MOSI, 0xFF,  MISO, 0xFF
0.089618875,SPI,MOSI, 0x00,  MISO, 0xFF
0.089626875,SPI,MOSI, 0xFF,  MISO, 0xFF
0.089636375,SPI,MOSI, 0xFF,  MISO, 0xFF
0.089644375,SPI,MOSI, 0xFF,  MISO, 0xFF
0.089653875,SPI,MOSI, 0xFF,  MISO, 0xFF
0.089661875,SPI,MOSI, 0xFF,  MISO, 0xFF
0.089671375,SPI,MOSI, 0x00,  MISO, 0xFF
0.089679375,SPI,MOSI, 0xFF,  MISO, 0xFF
0.089688875,SPI,MOSI, 0xFF,  MISO, 0xFF
0.089696875,SPI,MOSI, 0xFF,  MISO, 0xFF
0.089706375,SPI,MOSI, 0xFF,  MISO, 0xFF
0.089714375,SPI,MOSI, 0xFF,  MISO, 0xFF
0.089723875,SPI,MOSI, 0x00,  MISO, 0xFF
0.089731875,SPI,MOSI, 0xFF,  MISO, 0xFF
0.089741375,SPI,MOSI, 0xFF,  MISO, 0xFF
0.089749375,SPI,MOSI, 0xFF,  MISO, 0xFF
0.089758875,SPI,MOSI, 0xFF,  MISO, 0xFF
0.089766875,SPI,MOSI, 0xFF,  MISO, 0xFF
0.089776375,SPI,MOSI, 0x00,  MISO, 0xFF
0.089784375,SPI,MOSI, 0xFF,  MISO, 0xFF
0.089816625,SPI,MOSI, 0x2A,  MISO, 0xFF
0.089824625,SPI,MOSI, 0xD4,  MISO, 0xFF
0.089834125,SPI,MOSI, 0x00,  MISO, 0x0F
0.089842125,SPI,MOSI, 0x00,  MISO, 0xFF
0.089872375,SPI,MOSI, 0x2A,  MISO, 0xFF
0.089880375,SPI,MOSI, 0xD4,  MISO, 0xFF
0.089889875,SPI,MOSI, 0x00,  MISO, 0x0F
0.089897875,SPI,MOSI, 0x00,  MISO, 0xFF
0.089946958,SPI,MOSI, 0x2A,  MISO, 0xFF
0.089954958,SPI,MOSI, 0xD4,  MISO, 0xFF
0.089964458,SPI,MOSI, 0x00,  MISO, 0x0F
0.089972458,SPI,MOSI, 0x00,  MISO, 0xFF
0.090237458,SPI,MOSI, 0x2A,  MISO, 0xFF
0.090245458,SPI,MOSI, 0xD4,  MISO, 0xFF
0.090254958,SPI,MOSI, 0x00,  MISO, 0x0F
0.090262958,SPI,MOSI, 0x00,  MISO, 0xFF
0.090293583,SPI,MOSI, 0x2A,  MISO, 0xFF
0.090301583,SPI,MOSI, 0xD4,  MISO, 0xFF
0.090311083,SPI,MOSI, 0x00,  MISO, 0x0F
0.090319083,SPI,MOSI, 0x00,  MISO, 0xFF
0.090356167,SPI,MOSI, 0x2A,  MISO, 0xFF
0.090364167,SPI,MOSI, 0xD4,  MISO, 0xFF
0.090373667,SPI,MOSI, 0x00,  MISO, 0x0F
0.090381667,SPI,MOSI, 0x00,  MISO, 0xFF
0.090433458,SPI,MOSI, 0x2A,  MISO, 0xFF
0.090441458,SPI,MOSI, 0xD4,  MISO, 0xFF
0.090450958,SPI,MOSI, 0x00,  MISO, 0x0F
0.090458958,SPI,MOSI, 0x00,  MISO, 0xFF
0.090488708,SPI,MOSI, 0x2A,  MISO, 0xFF
0.090496708,SPI,MOSI, 0xD4,  MISO, 0xFF
0.090506208,SPI,MOSI, 0x00,  MISO, 0x0F
0.090514208,SPI,MOSI, 0x00,  MISO, 0xFF
0.090543667,SPI,MOSI, 0x2A,  MISO, 0xFF
0.090551667,SPI,MOSI, 0xD4,  MISO, 0xFF
0.090561167,SPI,MOSI, 0x00,  MISO, 0x0F
0.090569167,SPI,MOSI, 0x00,  MISO, 0xFF
0.090605833,SPI,MOSI, 0x14,  MISO, 0xFF
0.090613833,SPI,MOSI, 0xBC,  MISO, 0xFF
0.090623333,SPI,MOSI, 0xFF,  MISO, 0xFF
0.090631333,SPI,MOSI, 0xFF,  MISO, 0xFF
0.090640833,SPI,MOSI, 0xFF,  MISO, 0xFF
0.090648833,SPI,MOSI, 0xFF,  MISO, 0xFF
0.090658333,SPI,MOSI, 0x00,  MISO, 0xFF
0.090666333,SPI,MOSI, 0xFF,  MISO, 0xFF
0.090675833,SPI,MOSI, 0xFF,  MISO, 0xFF
0.090683833,SPI,MOSI, 0xFF,  MISO, 0xFF
0.090693333,SPI,MOSI, 0xFF,  MISO, 0xFF
0.090701333,SPI,MOSI, 0xFF,  MISO, 0xFF
0.090710833,SPI,MOSI, 0x00,  MISO, 0xFF
0.090718833,SPI,MOSI, 0xFF,  MISO, 0xFF
0.090728333,SPI,MOSI, 0xFF,  MISO, 0xFF
0.090736333,SPI,MOSI, 0xFF,  MISO, 0xFF
0.090745833,SPI,MOSI, 0xFF,  MISO, 0xFF
0.090753833,SPI,MOSI, 0xFF,  MISO, 0xFF
0.090763333,SPI,MOSI, 0x00,  MISO, 0xFF
0.090771333,SPI,MOSI, 0xFF,  MISO, 0xFF
0.090780833,SPI,MOSI, 0xFF,  MISO, 0xFF
0.090788833,SPI,MOSI, 0xFF,  MISO, 0xFF
0.090798333,SPI,MOSI, 0xFF,  MISO, 0xFF
0.090806333,SPI,MOSI, 0xFF,  MISO, 0xFF
0.090815833,SPI,MOSI, 0x00,  MISO, 0xFF
0.090823833,SPI,MOSI, 0xFF,  MISO, 0xFF
0.090833333,SPI,MOSI, 0xFF,  MISO, 0xFF
0.090841333,SPI,MOSI, 0xFF,  MISO, 0xFF
0.090850833,SPI,MOSI, 0xFF,  MISO, 0xFF
0.090858833,SPI,MOSI, 0xFF,  MISO, 0xFF
0.090868333,SPI,MOSI, 0x00,  MISO, 0xFF
0.090876333,SPI,MOSI, 0xFF,  MISO, 0xFF
0.090885833,SPI,MOSI, 0xFF,  MISO, 0xFF
0.090893833,SPI,MOSI, 0xFF,  MISO, 0xFF
0.090903333,SPI,MOSI, 0xFF,  MISO, 0xFF
0.090911333,SPI,MOSI, 0xFF,  MISO, 0xFF
0.090920833,SPI,MOSI, 0x00,  MISO, 0xFF
0.090928833,SPI,MOSI, 0xFF,  MISO, 0xFF
0.090938333,SPI,MOSI, 0xFF,  MISO, 0xFF
0.090946333,SPI,MOSI, 0xFF,  MISO, 0xFF
0.090955833,SPI,MOSI, 0xFF,  MISO, 0xFF
0.090963833,SPI,MOSI, 0xFF,  MISO, 0xFF
0.090973333,SPI,MOSI, 0x00,  MISO, 0xFF
0.090981333,SPI,MOSI, 0xFF,  MISO, 0xFF
0.090990833,SPI,MOSI, 0xFF,  MISO, 0xFF
0.090998833,SPI,MOSI, 0xFF,  MISO, 0xFF
0.091008333,SPI,MOSI, 0xFF,  MISO, 0xFF
0.091016333,SPI,MOSI, 0xFF,  MISO, 0xFF
0.091025833,SPI,MOSI, 0x00,  MISO, 0xFF
0.091033833,SPI,MOSI, 0xFF,  MISO, 0xFF
0.091218292,SPI,MOSI, 0x15,  MISO, 0xFF
0.091226292,SPI,MOSI, 0x93,  MISO, 0xFF
0.091235792,SPI,MOSI, 0xFF,  MISO, 0xFF
0.091243792,SPI,MOSI, 0xFF,  MISO, 0xFF
0.091253292,SPI,MOSI, 0xFF,  MISO, 0xFF
0.091261292,SPI,MOSI, 0xFF,  MISO, 0xFF
0.091270792,SPI,MOSI, 0x00,  MISO, 0xFF
0.091278792,SPI,MOSI, 0xFF,  MISO, 0xFF
0.091288292,SPI,MOSI, 0xFF,  MISO, 0xFF
0.091296292,SPI,MOSI, 0xFF,  MISO, 0xFF
0.091305792,SPI,MOSI, 0xFF,  MISO, 0xFF
0.091313792,SPI,MOSI, 0xFF,  MISO, 0xFF
0.091323292,SPI,MOSI, 0x00,  MISO, 0xFF
0.091331292,SPI,MOSI, 0xFF,  MISO, 0xFF
0.091340792,SPI,MOSI, 0xFF,  MISO, 0xFF
0.091348792,SPI,MOSI, 0xFF,  MISO, 0xFF
0.091358292,SPI,MOSI, 0xFF,  MISO, 0xFF
0.091366292,SPI,MOSI, 0xFF,  MISO, 0xFF
0.091375792,SPI,MOSI, 0x00,  MISO, 0xFF
0.091383792,SPI,MOSI, 0xFF,  MISO, 0xFF
0.091393292,SPI,MOSI, 0xFF,  MISO, 0xFF
0.091401292,SPI,MOSI, 0xFF,  MISO, 0xFF
0.091410792,SPI,MOSI, 0xFF,  MISO, 0xFF
0.091418792,SPI,MOSI, 0xFF,  MISO, 0xFF
0.091428292,SPI,MOSI, 0x00,  MISO, 0xFF
0.091436292,SPI,MOSI, 0xFF,  MISO, 0xFF
0.091445792,SPI,MOSI, 0xFF,  MISO, 0xFF
0.091453792,SPI,MOSI, 0xFF,  MISO, 0xFF
0.091463292,SPI,MOSI, 0xFF,  MISO, 0xFF
0.091471292,SPI,MOSI, 0xFF,  MISO, 0xFF
0.091480792,SPI,MOSI, 0x00,  MISO, 0xFF
0.091488792,SPI,MOSI, 0xFF,  MISO, 0xFF
0.091498292,SPI,MOSI, 0xFF,  MISO, 0xFF
0.091506292,SPI,MOSI, 0xFF,  MISO, 0xFF
0.091515792,SPI,MOSI, 0xFF,  MISO, 0xFF
0.091523792,SPI,MOSI, 0xFF,  MISO, 0xFF
0.091533292,SPI,MOSI, 0x00,  MISO, 0xFF
0.091541292,SPI,MOSI, 0xFF,  MISO, 0xFF
0.091550792,SPI,MOSI, 0xFF,  MISO, 0xFF
0.091558792,SPI,MOSI, 0xFF,  MISO, 0xFF
0.091568292,SPI,MOSI, 0xFF,  MISO, 0xFF
0.091576292,SPI,MOSI, 0xFF,  MISO, 0xFF
0.091585792,SPI,MOSI, 0x00,  MISO, 0xFF
0.091593792,SPI,MOSI, 0xFF,  MISO, 0xFF
0.091603292,SPI,MOSI, 0xFF,  MISO, 0xFF
0.091611292,SPI,MOSI, 0xFF,  MISO, 0xFF
0.091620792,SPI,MOSI, 0xFF,  MISO, 0xFF
0.091628792,SPI,MOSI, 0xFF,  MISO, 0xFF
0.091638292,SPI,MOSI, 0x00,  MISO, 0xFF
0.091646292,SPI,MOSI, 0xFF,  MISO, 0xFF
0.091717292,SPI,MOSI, 0x2A,  MISO, 0xFF
0.091725292,SPI,MOSI, 0xD4,  MISO, 0xFF
0.091734792,SPI,MOSI, 0x00,  MISO, 0x0F
0.091742792,SPI,MOSI, 0x00,  MISO, 0xFF
0.091773958,SPI,MOSI, 0x2A,  MISO, 0xFF
0.091781958,SPI,MOSI, 0xD4,  MISO, 0xFF
0.091791458,SPI,MOSI, 0x00,  MISO, 0x0F
0.091799458,SPI,MOSI, 0x00,  MISO, 0xFF
0.091829167,SPI,MOSI, 0x2A,  MISO, 0xFF
0.091837167,SPI,MOSI, 0xD4,  MISO, 0xFF
0.091846667,SPI,MOSI, 0x00,  MISO, 0x0F
0.091854667,SPI,MOSI, 0x00,  MISO, 0xFF
0.091885667,SPI,MOSI, 0x2A,  MISO, 0xFF
0.091893667,SPI,MOSI, 0xD4,  MISO, 0xFF
0.091903167,SPI,MOSI, 0x00,  MISO, 0x0F
0.091911167,SPI,MOSI, 0x00,  MISO, 0xFF
0.092233792,SPI,MOSI, 0x2A,  MISO, 0xFF
0.092241792,SPI,MOSI, 0xD4,  MISO, 0xFF
0.092251292,SPI,MOSI, 0x00,  MISO, 0x0F
0.092259292,SPI,MOSI, 0x00,  MISO, 0xFF
0.092291167,SPI,MOSI, 0x2A,  MISO, 0xFF
0.092299167,SPI,MOSI, 0xD4,  MISO, 0xFF
0.092308667,SPI,MOSI, 0x00,  MISO, 0x0F
0.092316667,SPI,MOSI, 0x00,  MISO, 0xFF
0.092346167,SPI,MOSI, 0x2A,  MISO, 0xFF
0.092354167,SPI,MOSI, 0xD4,  MISO, 0xFF
0.092363667,SPI,MOSI, 0x00,  MISO, 0x0F
0.092371667,SPI,MOSI, 0x00,  MISO, 0xFF
0.092401333,SPI,MOSI, 0x2A,  MISO, 0xFF
0.092409292,SPI,MOSI, 0xD4,  MISO, 0xFF
0.092418833,SPI,MOSI, 0x00,  MISO, 0x0F
0.092426792,SPI,MOSI, 0x00,  MISO, 0xFF
0.09245625,SPI,MOSI, 0x2A,  MISO, 0xFF
0.09246425,SPI,MOSI, 0xD4,  MISO, 0xFF
0.09247375,SPI,MOSI, 0x00,  MISO, 0x0F
0.09248175,SPI,MOSI, 0x00,  MISO, 0xFF
0.0925185,SPI,MOSI, 0x15,  MISO, 0xFF
0.0925265,SPI,MOSI, 0x93,  MISO, 0xFF
0.092536,SPI,MOSI, 0xFF,  MISO, 0xFF
0.092544,SPI,MOSI, 0xFF,  MISO, 0xFF
0.0925535,SPI,MOSI, 0xFF,  MISO, 0xFF
0.0925615,SPI,MOSI, 0xFF,  MISO, 0xFF
0.092571,SPI,MOSI, 0x00,  MISO, 0xFF
0.092579,SPI,MOSI, 0xFF,  MISO, 0xFF
0.0925885,SPI,MOSI, 0xFF,  MISO, 0xFF
0.0925965,SPI,MOSI, 0xFF,  MISO, 0xFF
0.092606,SPI,MOSI, 0xFF,  MISO, 0xFF
0.092614,SPI,MOSI, 0xFF,  MISO, 0xFF
0.0926235,SPI,MOSI, 0x00,  MISO, 0xFF
0.0926315,SPI,MOSI, 0xFF,  MISO, 0xFF
0.092641,SPI,MOSI, 0xFF,  MISO, 0xFF
0.092649,SPI,MOSI, 0xFF,  MISO, 0xFF
0.0926585,SPI,MOSI, 0xFF,  MISO, 0xFF
0.0926665,SPI,MOSI, 0xFF,  MISO, 0xFF
0.092676,SPI,MOSI, 0x00,  MISO, 0xFF
0.092684,SPI,MOSI, 0xFF,  MISO, 0xFF
0.0926935,SPI,MOSI, 0xFF,  MISO, 0xFF
0.0927015,SPI,MOSI, 0xFF,  MISO, 0xFF
0.092711,SPI,MOSI, 0xFF,  MISO, 0xFF
0.092719,SPI,MOSI, 0xFF,  MISO, 0xFF
0.0927285,SPI,MOSI, 0x00,  MISO, 0xFF
0.0927365,SPI,MOSI, 0xFF,  MISO, 0xFF
0.092746,SPI,MOSI, 0xFF,  MISO, 0xFF
0.092754,SPI,MOSI, 0xFF,  MISO, 0xFF
0.0927635,SPI,MOSI, 0xFF,  MISO, 0xFF
0.0927715,SPI,MOSI, 0xFF,  MISO, 0xFF
0.092781,SPI,MOSI, 0x00,  MISO, 0xFF
0.092789,SPI,MOSI, 0xFF,  MISO, 0xFF
0.0927985,SPI,MOSI, 0xFF,  MISO, 0xFF
0.0928065,SPI,MOSI, 0xFF,  MISO, 0xFF
0.092816,SPI,MOSI, 0xFF,  MISO, 0xFF
0.092824,SPI,MOSI, 0xFF,  MISO, 0xFF
0.0928335,SPI,MOSI, 0x00,  MISO, 0xFF
0.0928415,SPI,MOSI, 0xFF,  MISO, 0xFF
0.092851,SPI,MOSI, 0xFF,  MISO, 0xFF
0.092859,SPI,MOSI, 0xFF,  MISO, 0xFF
0.0928685,SPI,MOSI, 0xFF,  MISO, 0xFF
0.0928765,SPI,MOSI, 0xFF,  MISO, 0xFF
0.092886,SPI,MOSI, 0x00,  MISO, 0xFF
0.092894,SPI,MOSI, 0xFF,  MISO, 0xFF
0.0929035,SPI,MOSI, 0xFF,  MISO, 0xFF
0.0929115,SPI,MOSI, 0xFF,  MISO, 0xFF
0.092921,SPI,MOSI, 0xFF,  MISO, 0xFF
0.092929,SPI,MOSI, 0xFF,  MISO, 0xFF
0.0929385,SPI,MOSI, 0x00,  MISO, 0xFF
0.0929465,SPI,MOSI, 0xFF,  MISO, 0xFF
0.093199167,SPI,MOSI, 0x11,  MISO, 0xFF
0.093207167,SPI,MOSI, 0x2F,  MISO, 0xFF
0.093216667,SPI,MOSI, 0xF3,  MISO, 0xFF
0.093224667,SPI,MOSI, 0x00,  MISO, 0xFF
0.093234167,SPI,MOSI, 0x00,  MISO, 0xFF
0.093242167,SPI,MOSI, 0x00,  MISO, 0xFF
0.093251667,SPI,MOSI, 0x38,  MISO, 0xFF
0.093259667,SPI,MOSI, 0xDC,  MISO, 0xFF
0.093269167,SPI,MOSI, 0xF3,  MISO, 0xFF
0.093277167,SPI,MOSI, 0x00,  MISO, 0xFF
0.093286667,SPI,MOSI, 0x00,  MISO, 0xFF
0.093294667,SPI,MOSI, 0x00,  MISO, 0xFF
0.093304167,SPI,MOSI, 0x38,  MISO, 0xFF
0.093312167,SPI,MOSI, 0xDC,  MISO, 0xFF
0.093321667,SPI,MOSI, 0xF3,  MISO, 0xFF
0.093329667,SPI,MOSI, 0x00,  MISO, 0xFF
0.093339167,SPI,MOSI, 0x00,  MISO, 0xFF
0.093347167,SPI,MOSI, 0x00,  MISO, 0xFF
0.093356667,SPI,MOSI, 0x38,  MISO, 0xFF
0.093364667,SPI,MOSI, 0xDC,  MISO, 0xFF
0.093374167,SPI,MOSI, 0xF3,  MISO, 0xFF
0.093382167,SPI,MOSI, 0x00,  MISO, 0xFF
0.093391667,SPI,MOSI, 0x00,  MISO, 0xFF
0.093399667,SPI,MOSI, 0x00,  MISO, 0xFF
0.093409167,SPI,MOSI, 0x38,  MISO, 0xFF
0.093417167,SPI,MOSI, 0xDC,  MISO, 0xFF
0.093426667,SPI,MOSI, 0xF3,  MISO, 0xFF
0.093434667,SPI,MOSI, 0x00,  MISO, 0xFF
0.093444167,SPI,MOSI, 0x00,  MISO, 0xFF
0.093452167,SPI,MOSI, 0x00,  MISO, 0xFF
0.093461667,SPI,MOSI, 0x38,  MISO, 0xFF
0.093469667,SPI,MOSI, 0xDC,  MISO, 0xFF
0.093479167,SPI,MOSI, 0xF3,  MISO, 0xFF
0.093487167,SPI,MOSI, 0x00,  MISO, 0xFF
0.093496667,SPI,MOSI, 0x00,  MISO, 0xFF
0.093504667,SPI,MOSI, 0x00,  MISO, 0xFF
0.093514167,SPI,MOSI, 0x38,  MISO, 0xFF
0.093522167,SPI,MOSI, 0xDC,  MISO, 0xFF
0.093531667,SPI,MOSI, 0xF3,  MISO, 0xFF
0.093539667,SPI,MOSI, 0x00,  MISO, 0xFF
0.093549167,SPI,MOSI, 0x00,  MISO, 0xFF
0.093557167,SPI,MOSI, 0x00,  MISO, 0xFF
0.093566667,SPI,MOSI, 0x38,  MISO, 0xFF
0.093574667,SPI,MOSI, 0xDC,  MISO, 0xFF
0.093584167,SPI,MOSI, 0xF3,  MISO, 0xFF
0.093592167,SPI,MOSI, 0x00,  MISO, 0xFF
0.093601667,SPI,MOSI, 0x00,  MISO, 0xFF
0.093609667,SPI,MOSI, 0x00,  MISO, 0xFF
0.093619167,SPI,MOSI, 0x38,  MISO, 0xFF
0.093627167,SPI,MOSI, 0xDC,  MISO, 0xFF
0.093686625,SPI,MOSI, 0x2A,  MISO, 0xFF
0.093694625,SPI,MOSI, 0xD4,  MISO, 0xFF
0.093704125,SPI,MOSI, 0x00,  MISO, 0x0F
0.093712125,SPI,MOSI, 0x00,  MISO, 0xFF
0.09375375,SPI,MOSI, 0x2A,  MISO, 0xFF
0.09376175,SPI,MOSI, 0xD4,  MISO, 0xFF
0.09377125,SPI,MOSI, 0x00,  MISO, 0x0F
0.09377925,SPI,MOSI, 0x00,  MISO, 0xFF
0.093809083,SPI,MOSI, 0x2A,  MISO, 0xFF
0.093817083,SPI,MOSI, 0xD4,  MISO, 0xFF
0.093826583,SPI,MOSI, 0x00,  MISO, 0x0F
0.093834583,SPI,MOSI, 0x00,  MISO, 0xFF
0.093864083,SPI,MOSI, 0x2A,  MISO, 0xFF
0.093872083,SPI,MOSI, 0xD4,  MISO, 0xFF
0.093881583,SPI,MOSI, 0x00,  MISO, 0x0F
0.093889583,SPI,MOSI, 0x00,  MISO, 0xFF
0.093960792,SPI,MOSI, 0x2A,  MISO, 0xFF
0.093968792,SPI,MOSI, 0xD4,  MISO, 0xFF
0.093978292,SPI,MOSI, 0x00,  MISO, 0x0F
0.093986292,SPI,MOSI, 0x00,  MISO, 0xFF
0.094197625,SPI,MOSI, 0x2A,  MISO, 0xFF
0.094205625,SPI,MOSI, 0xD4,  MISO, 0xFF
0.094215125,SPI,MOSI, 0x00,  MISO, 0x0F
0.094223125,SPI,MOSI, 0x00,  MISO, 0xFF
0.094253875,SPI,MOSI, 0x2A,  MISO, 0xFF
0.094261875,SPI,MOSI, 0xD4,  MISO, 0xFF
0.094271375,SPI,MOSI, 0x00,  MISO, 0x0F
0.094279375,SPI,MOSI, 0x00,  MISO, 0xFF
0.09430875,SPI,MOSI, 0x2A,  MISO, 0xFF
0.09431675,SPI,MOSI, 0xD4,  MISO, 0xFF
0.09432625,SPI,MOSI, 0x00,  MISO, 0x0F
0.09433425,SPI,MOSI, 0x00,  MISO, 0xFF
0.094363667,SPI,MOSI, 0x2A,  MISO, 0xFF
0.094371667,SPI,MOSI, 0xD4,  MISO, 0xFF
0.094381167,SPI,MOSI, 0x00,  MISO, 0x0F
0.094389167,SPI,MOSI, 0x00,  MISO, 0xFF
0.0944255,SPI,MOSI, 0x11,  MISO, 0xFF
0.0944335,SPI,MOSI, 0x2F,  MISO, 0xFF
0.094443,SPI,MOSI, 0xF3,  MISO, 0xFF
0.094451,SPI,MOSI, 0x00,  MISO, 0xFF
0.0944605,SPI,MOSI, 0x00,  MISO, 0xFF
0.0944685,SPI,MOSI, 0x00,  MISO, 0xFF
0.094478,SPI,MOSI, 0x38,  MISO, 0xFF
0.094486,SPI,MOSI, 0xDC,  MISO, 0xFF
0.0944955,SPI,MOSI, 0xF3,  MISO, 0xFF
0.0945035,SPI,MOSI, 0x00,  MISO, 0xFF
0.094513,SPI,MOSI, 0x00,  MISO, 0xFF
0.094521,SPI,MOSI, 0x00,  MISO, 0xFF
0.0945305,SPI,MOSI, 0x38,  MISO, 0xFF
0.0945385,SPI,MOSI, 0xDC,  MISO, 0xFF
0.094548,SPI,MOSI, 0xF3,  MISO, 0xFF
0.094556,SPI,MOSI, 0x00,  MISO, 0xFF
0.0945655,SPI,MOSI, 0x00,  MISO, 0xFF
0.0945735,SPI,MOSI, 0x00,  MISO, 0xFF
0.094583,SPI,MOSI, 0x38,  MISO, 0xFF
0.094591,SPI,MOSI, 0xDC,  MISO, 0xFF
0.0946005,SPI,MOSI, 0xF3,  MISO, 0xFF
0.0946085,SPI,MOSI, 0x00,  MISO, 0xFF
0.094618,SPI,MOSI, 0x00,  MISO, 0xFF
0.094626,SPI,MOSI, 0x00,  MISO, 0xFF
0.0946355,SPI,MOSI, 0x38,  MISO, 0xFF
0.0946435,SPI,MOSI, 0xDC,  MISO, 0xFF
0.094653,SPI,MOSI, 0xF3,  MISO, 0xFF
0.094661,SPI,MOSI, 0x00,  MISO, 0xFF
0.0946705,SPI,MOSI, 0x00,  MISO, 0xFF
0.0946785,SPI,MOSI, 0x00,  MISO, 0xFF
0.094688,SPI,MOSI, 0x38,  MISO, 0xFF
0.094696,SPI,MOSI, 0xDC,  MISO, 0xFF
0.0947055,SPI,MOSI, 0xF3,  MISO, 0xFF
0.0947135,SPI,MOSI, 0x00,  MISO, 0xFF
0.094723,SPI,MOSI, 0x00,  MISO, 0xFF
0.094731,SPI,MOSI, 0x00,  MISO, 0xFF
0.0947405,SPI,MOSI, 0x38,  MISO, 0xFF
0.0947485,SPI,MOSI, 0xDC,  MISO, 0xFF
0.094758,SPI,MOSI, 0xF3,  MISO, 0xFF
0.094766,SPI,MOSI, 0x00,  MISO, 0xFF
0.0947755,SPI,MOSI, 0x00,  MISO, 0xFF
0.0947835,SPI,MOSI, 0x00,  MISO, 0xFF
0.094793,SPI,MOSI, 0x38,  MISO, 0xFF
0.094801,SPI,MOSI, 0xDC,  MISO, 0xFF
0.0948105,SPI,MOSI, 0xF3,  MISO, 0xFF
0.0948185,SPI,MOSI, 0x00,  MISO, 0xFF
0.094828,SPI,MOSI, 0x00,  MISO, 0xFF
0.094836,SPI,MOSI, 0x00,  MISO, 0xFF
0.0948455,SPI,MOSI, 0x38,  MISO, 0xFF
0.0948535,SPI,MOSI, 0xDC,  MISO, 0xFF
0.167664792,SPI,MOSI, 0x2A,  MISO, 0xFF
0.16767275,SPI,MOSI, 0xD4,  MISO, 0xFF
0.167682292,SPI,MOSI, 0x00,  MISO, 0xFF
0.16769025,SPI,MOSI, 0x00,  MISO, 0xFF
0.167721542,SPI,MOSI, 0x2A,  MISO, 0xFF
0.167729542,SPI,MOSI, 0xD4,  MISO, 0xFF
0.167739042,SPI,MOSI, 0x00,  MISO, 0xFF
0.167747042,SPI,MOSI, 0x00,  MISO, 0xFF
0.167776833,SPI,MOSI, 0x2A,  MISO, 0xFF
0.167784833,SPI,MOSI, 0xD4,  MISO, 0xFF
0.167794333,SPI,MOSI, 0x00,  MISO, 0xFF
0.167802333,SPI,MOSI, 0x00,  MISO, 0xFF
0.167864875,SPI,MOSI, 0x2A,  MISO, 0xFF
0.167872875,SPI,MOSI, 0xD4,  MISO, 0xFF
0.167882375,SPI,MOSI, 0x00,  MISO, 0xFF
0.167890375,SPI,MOSI, 0x00,  MISO, 0xFF
0.167920667,SPI,MOSI, 0x2A,  MISO, 0xFF
0.167928667,SPI,MOSI, 0xD4,  MISO, 0xFF
0.167938167,SPI,MOSI, 0x00,  MISO, 0xFF
0.167946167,SPI,MOSI, 0x00,  MISO, 0xFF
0.167976083,SPI,MOSI, 0x2A,  MISO, 0xFF
0.167984125,SPI,MOSI, 0xD4,  MISO, 0xFF
0.167993583,SPI,MOSI, 0x00,  MISO, 0xFF
0.168001625,SPI,MOSI, 0x00,  MISO, 0xFF
0.16823125,SPI,MOSI, 0x2A,  MISO, 0xFF
0.16823925,SPI,MOSI, 0xD4,  MISO, 0xFF
0.16824875,SPI,MOSI, 0x00,  MISO, 0xFF
0.16825675,SPI,MOSI, 0x00,  MISO, 0xFF
0.168300083,SPI,MOSI, 0x2A,  MISO, 0xFF
0.168308083,SPI,MOSI, 0xD4,  MISO, 0xFF
0.168317583,SPI,MOSI, 0x00,  MISO, 0xFF
0.168325583,SPI,MOSI, 0x00,  MISO, 0xFF
0.168355583,SPI,MOSI, 0x2A,  MISO, 0xFF
0.168363542,SPI,MOSI, 0xD4,  MISO, 0xFF
0.168373042,SPI,MOSI, 0x00,  MISO, 0xFF
0.168381042,SPI,MOSI, 0x00,  MISO, 0xFF
0.168412375,SPI,MOSI, 0x2A,  MISO, 0xFF
0.168420375,SPI,MOSI, 0xD4,  MISO, 0xFF
0.168429875,SPI,MOSI, 0x00,  MISO, 0xFF
0.168437875,SPI,MOSI, 0x00,  MISO, 0xFF
0.168468208,SPI,MOSI, 0x2A,  MISO, 0xFF
0.168476208,SPI,MOSI, 0xD4,  MISO, 0xFF
0.168485708,SPI,MOSI, 0x00,  MISO, 0x3F
0.168493708,SPI,MOSI, 0x00,  MISO, 0xFF
0.168523542,SPI,MOSI, 0x2A,  MISO, 0xFF
0.168531542,SPI,MOSI, 0xD4,  MISO, 0xFF
0.168541042,SPI,MOSI, 0x00,  MISO, 0x0F
0.168549042,SPI,MOSI, 0x00,  MISO, 0xFF
0.168578958,SPI,MOSI, 0x2A,  MISO, 0xFF
0.168586958,SPI,MOSI, 0xD4,  MISO, 0xFF
0.168596458,SPI,MOSI, 0x00,  MISO, 0x0F
0.168604458,SPI,MOSI, 0x00,  MISO, 0xFF
0.168634333,SPI,MOSI, 0x2A,  MISO, 0xFF
0.168642333,SPI,MOSI, 0xD4,  MISO, 0xFF
0.168651833,SPI,MOSI, 0x00,  MISO, 0x0F
0.168659833,SPI,MOSI, 0x00,  MISO, 0xFF
0.168689708,SPI,MOSI, 0x2A,  MISO, 0xFF
0.168697708,SPI,MOSI, 0xD4,  MISO, 0xFF
0.168707208,SPI,MOSI, 0x00,  MISO, 0x0F
0.168715208,SPI,MOSI, 0x00,  MISO, 0xFF
0.168745042,SPI,MOSI, 0x2A,  MISO, 0xFF
0.168753,SPI,MOSI, 0xD4,  MISO, 0xFF
0.168762542,SPI,MOSI, 0x00,  MISO, 0x0F
0.1687705,SPI,MOSI, 0x00,  MISO, 0xFF
0.16880125,SPI,MOSI, 0x2A,  MISO, 0xFF
0.16880925,SPI,MOSI, 0xD4,  MISO, 0xFF
0.16881875,SPI,MOSI, 0x00,  MISO, 0x0F
0.16882675,SPI,MOSI, 0x00,  MISO, 0xFF
0.168856792,SPI,MOSI, 0x2A,  MISO, 0xFF
0.16886475,SPI,MOSI, 0xD4,  MISO, 0xFF
0.168874292,SPI,MOSI, 0x00,  MISO, 0x0F
0.16888225,SPI,MOSI, 0x00,  MISO, 0xFF
0.16891175,SPI,MOSI, 0x21,  MISO, 0xFF
0.16891975,SPI,MOSI, 0xF2,  MISO, 0xFF
0.168951208,SPI,MOSI, 0x4D,  MISO, 0xFF
0.168959208,SPI,MOSI, 0x84,  MISO, 0xFF
0.168968708,SPI,MOSI, 0x57,  MISO, 0xFF
0.168976708,SPI,MOSI, 0x00,  MISO, 0x84
0.168986208,SPI,MOSI, 0x00,  MISO, 0xC4
0.168994208,SPI,MOSI, 0x00,  MISO, 0x2C
0.169003708,SPI,MOSI, 0x00,  MISO, 0x23
0.169011708,SPI,MOSI, 0x00,  MISO, 0xFB
0.169021208,SPI,MOSI, 0x00,  MISO, 0xDF
0.169029208,SPI,MOSI, 0x00,  MISO, 0x14
0.169038708,SPI,MOSI, 0x00,  MISO, 0x6A
0.169046708,SPI,MOSI, 0x00,  MISO, 0x05
0.169056208,SPI,MOSI, 0x00,  MISO, 0x84
0.169064208,SPI,MOSI, 0x00,  MISO, 0xDE
0.169073708,SPI,MOSI, 0x00,  MISO, 0x14
0.169081708,SPI,MOSI, 0x00,  MISO, 0xE6
0.169091208,SPI,MOSI, 0x00,  MISO, 0xF8
0.169099208,SPI,MOSI, 0x00,  MISO, 0x3C
0.169108708,SPI,MOSI, 0x00,  MISO, 0x15
0.169116708,SPI,MOSI, 0x00,  MISO, 0x52
0.16912625,SPI,MOSI, 0x00,  MISO, 0x6D
0.16913425,SPI,MOSI, 0x00,  MISO, 0xFF
0.169143708,SPI,MOSI, 0x00,  MISO, 0xFF
0.16915175,SPI,MOSI, 0x00,  MISO, 0xFF
0.169161208,SPI,MOSI, 0x00,  MISO, 0xFF
0.16916925,SPI,MOSI, 0x00,  MISO, 0xFF
0.16917875,SPI,MOSI, 0x00,  MISO, 0xFF
0.16918675,SPI,MOSI, 0x00,  MISO, 0xFF
0.16919625,SPI,MOSI, 0x00,  MISO, 0xFF
0.169204208,SPI,MOSI, 0x00,  MISO, 0xFF
0.16921375,SPI,MOSI, 0x00,  MISO, 0xFF
0.16922175,SPI,MOSI, 0x00,  MISO, 0xFF
0.16923125,SPI,MOSI, 0x00,  MISO, 0xFF
0.16923925,SPI,MOSI, 0x00,  MISO, 0xFF
0.16924875,SPI,MOSI, 0x00,  MISO, 0xFF
0.16925675,SPI,MOSI, 0x00,  MISO, 0xFF
0.16926625,SPI,MOSI, 0x00,  MISO, 0xFF
0.16927425,SPI,MOSI, 0x00,  MISO, 0xFF
0.16928375,SPI,MOSI, 0x00,  MISO, 0xFF
0.16929175,SPI,MOSI, 0x00,  MISO, 0xFF
0.16930125,SPI,MOSI, 0x00,  MISO, 0xFF
0.16930925,SPI,MOSI, 0x00,  MISO, 0xFF
0.16931875,SPI,MOSI, 0x00,  MISO, 0xFF
0.16932675,SPI,MOSI, 0x00,  MISO, 0xFF
0.169336208,SPI,MOSI, 0x00,  MISO, 0xFF
0.16934425,SPI,MOSI, 0x00,  MISO, 0xFF
0.169353708,SPI,MOSI, 0x00,  MISO, 0xFF
0.16936175,SPI,MOSI, 0x00,  MISO, 0xFF
0.16937125,SPI,MOSI, 0x00,  MISO, 0xFF
0.16937925,SPI,MOSI, 0x00,  MISO, 0xFF
0.16938875,SPI,MOSI, 0x00,  MISO, 0xFF
0.16939675,SPI,MOSI, 0x00,  MISO, 0xFF
0.16940625,SPI,MOSI, 0x00,  MISO, 0xFF
0.16941425,SPI,MOSI, 0x00,  MISO, 0xFF
0.16942375,SPI,MOSI, 0x00,  MISO, 0xFF
0.16943175,SPI,MOSI, 0x00,  MISO, 0xFF
0.16944125,SPI,MOSI, 0x00,  MISO, 0xFF
0.16944925,SPI,MOSI, 0x00,  MISO, 0xFF
0.16945875,SPI,MOSI, 0x00,  MISO, 0xFF
0.16946675,SPI,MOSI, 0x00,  MISO, 0xFF
0.16947625,SPI,MOSI, 0x00,  MISO, 0xFF
0.16948425,SPI,MOSI, 0x00,  MISO, 0xFF
0.16949375,SPI,MOSI, 0x00,  MISO, 0xFF
0.16950175,SPI,MOSI, 0x00,  MISO, 0xFF
0.16951125,SPI,MOSI, 0x00,  MISO, 0xFF
0.16951925,SPI,MOSI, 0x00,  MISO, 0xFF
0.16952875,SPI,MOSI, 0x00,  MISO, 0xFF
0.16953675,SPI,MOSI, 0x00,  MISO, 0xFF
0.16954625,SPI,MOSI, 0x00,  MISO, 0xFF
0.16955425,SPI,MOSI, 0x00,  MISO, 0xFF
0.16956375,SPI,MOSI, 0x00,  MISO, 0xFF
0.16957175,SPI,MOSI, 0x00,  MISO, 0xFF
0.16958125,SPI,MOSI, 0x00,  MISO, 0xFF
0.16958925,SPI,MOSI, 0x00,  MISO, 0xFF
0.16959875,SPI,MOSI, 0x00,  MISO, 0xFF
0.16960675,SPI,MOSI, 0x00,  MISO, 0xFF
0.169655792,SPI,MOSI, 0x2A,  MISO, 0xFF
0.169663792,SPI,MOSI, 0xD4,  MISO, 0xFF
0.169673292,SPI,MOSI, 0x00,  MISO, 0xFF
0.169681292,SPI,MOSI, 0x00,  MISO, 0xFF
0.169711708,SPI,MOSI, 0x2A,  MISO, 0xFF
0.169719708,SPI,MOSI, 0xD4,  MISO, 0xFF
0.169729208,SPI,MOSI, 0x00,  MISO, 0xFF
0.169737208,SPI,MOSI, 0x00,  MISO, 0xFF
0.16981125,SPI,MOSI, 0x2A,  MISO, 0xFF
0.16981925,SPI,MOSI, 0xD4,  MISO, 0xFF
0.16982875,SPI,MOSI, 0x00,  MISO, 0xFF
0.16983675,SPI,MOSI, 0x00,  MISO, 0xFF
0.169866958,SPI,MOSI, 0x2A,  MISO, 0xFF
0.169874958,SPI,MOSI, 0xD4,  MISO, 0xFF
0.169884458,SPI,MOSI, 0x00,  MISO, 0xFF
0.169892458,SPI,MOSI, 0x00,  MISO, 0xFF
0.169922042,SPI,MOSI, 0x2A,  MISO, 0xFF
0.169930042,SPI,MOSI, 0xD4,  MISO, 0xFF
0.169939542,SPI,MOSI, 0x00,  MISO, 0xFF
0.169947542,SPI,MOSI, 0x00,  MISO, 0xFF
0.169977208,SPI,MOSI, 0x2A,  MISO, 0xFF
0.169985208,SPI,MOSI, 0xD4,  MISO, 0xFF
0.169994708,SPI,MOSI, 0x00,  MISO, 0xFF
0.170002708,SPI,MOSI, 0x00,  MISO, 0xFF
0.170227,SPI,MOSI, 0x2A,  MISO, 0xFF
0.170235,SPI,MOSI, 0xD4,  MISO, 0xFF
0.1702445,SPI,MOSI, 0x00,  MISO, 0xFF
0.1702525,SPI,MOSI, 0x00,  MISO, 0xFF
0.170285542,SPI,MOSI, 0x4D,  MISO, 0xFF
0.170293542,SPI,MOSI, 0x84,  MISO, 0xFF
0.170303042,SPI,MOSI, 0x57,  MISO, 0xFF
0.170311042,SPI,MOSI, 0x00,  MISO, 0xFF
0.170320542,SPI,MOSI, 0x00,  MISO, 0xFF
0.170328542,SPI,MOSI, 0x00,  MISO, 0xFF
0.170338042,SPI,MOSI, 0x00,  MISO, 0xFF
0.170346042,SPI,MOSI, 0x00,  MISO, 0xFF
0.170355542,SPI,MOSI, 0x00,  MISO, 0xFF
0.170363542,SPI,MOSI, 0x00,  MISO, 0xFF
0.170373042,SPI,MOSI, 0x00,  MISO, 0xFF
0.170381042,SPI,MOSI, 0x00,  MISO, 0xFF
0.170390542,SPI,MOSI, 0x00,  MISO, 0xFF
0.170398542,SPI,MOSI, 0x00,  MISO, 0xFF
0.170408042,SPI,MOSI, 0x00,  MISO, 0xFF
0.170416042,SPI,MOSI, 0x00,  MISO, 0xFF
0.170425542,SPI,MOSI, 0x00,  MISO, 0xFF
0.170433542,SPI,MOSI, 0x00,  MISO, 0xFF
0.170443042,SPI,MOSI, 0x00,  MISO, 0xFF
0.170451042,SPI,MOSI, 0x00,  MISO, 0xFF
0.170460542,SPI,MOSI, 0x00,  MISO, 0xFF
0.170468542,SPI,MOSI, 0x00,  MISO, 0xFF
0.170478042,SPI,MOSI, 0x00,  MISO, 0xFF
0.170486042,SPI,MOSI, 0x00,  MISO, 0xFF
0.170495542,SPI,MOSI, 0x00,  MISO, 0xFF
0.170503542,SPI,MOSI, 0x00,  MISO, 0xFF
0.170513042,SPI,MOSI, 0x00,  MISO, 0xFF
0.170521042,SPI,MOSI, 0x00,  MISO, 0xFF
0.170530542,SPI,MOSI, 0x00,  MISO, 0xFF
0.170538542,SPI,MOSI, 0x00,  MISO, 0xFF
0.170548042,SPI,MOSI, 0x00,  MISO, 0xFF
0.170556042,SPI,MOSI, 0x00,  MISO, 0xFF
0.170565542,SPI,MOSI, 0x00,  MISO, 0xFF
0.170573542,SPI,MOSI, 0x00,  MISO, 0xFF
0.170583042,SPI,MOSI, 0x00,  MISO, 0xFF
0.170591042,SPI,MOSI, 0x00,  MISO, 0xFF
0.170600542,SPI,MOSI, 0x00,  MISO, 0xFF
0.170608542,SPI,MOSI, 0x00,  MISO, 0xFF
0.170618042,SPI,MOSI, 0x00,  MISO, 0xFF
0.170626042,SPI,MOSI, 0x00,  MISO, 0xFF
0.170635542,SPI,MOSI, 0x00,  MISO, 0xFF
0.170643542,SPI,MOSI, 0x00,  MISO, 0xFF
0.170653042,SPI,MOSI, 0x00,  MISO, 0xFF
0.170661042,SPI,MOSI, 0x00,  MISO, 0xFF
0.170670542,SPI,MOSI, 0x00,  MISO, 0xFF
0.170678542,SPI,MOSI, 0x00,  MISO, 0xFF
0.170688042,SPI,MOSI, 0x00,  MISO, 0xFF
0.170696042,SPI,MOSI, 0x00,  MISO, 0xFF
0.170705542,SPI,MOSI, 0x00,  MISO, 0xFF
0.170713542,SPI,MOSI, 0x00,  MISO, 0xFF
0.170723042,SPI,MOSI, 0x00,  MISO, 0xFF
0.170731042,SPI,MOSI, 0x00,  MISO, 0xFF
0.170740542,SPI,MOSI, 0x00,  MISO, 0xFF
0.170748542,SPI,MOSI, 0x00,  MISO, 0xFF
0.170758042,SPI,MOSI, 0x00,  MISO, 0xFF
0.170766042,SPI,MOSI, 0x00,  MISO, 0xFF
0.170775542,SPI,MOSI, 0x00,  MISO, 0xFF
0.170783542,SPI,MOSI, 0x00,  MISO, 0xFF
0.170818625,SPI,MOSI, 0x4E,  MISO, 0xFF
0.170826625,SPI,MOSI, 0x84,  MISO, 0xFF
0.170836125,SPI,MOSI, 0x43,  MISO, 0xFF
0.170844125,SPI,MOSI, 0x00,  MISO, 0x84
0.170853625,SPI,MOSI, 0x00,  MISO, 0x96
0.170861625,SPI,MOSI, 0x00,  MISO, 0x93
0.170871125,SPI,MOSI, 0x00,  MISO, 0x85
0.170879125,SPI,MOSI, 0x00,  MISO, 0x05
0.170888625,SPI,MOSI, 0x00,  MISO, 0x91
0.170896625,SPI,MOSI, 0x00,  MISO, 0xF5
0.170906125,SPI,MOSI, 0x00,  MISO, 0x5B
0.170914125,SPI,MOSI, 0x00,  MISO, 0x26
0.170923625,SPI,MOSI, 0x00,  MISO, 0x84
0.170931625,SPI,MOSI, 0x00,  MISO, 0x5B
0.170941125,SPI,MOSI, 0x00,  MISO, 0x93
0.170949125,SPI,MOSI, 0x00,  MISO, 0x4A
0.170958625,SPI,MOSI, 0x00,  MISO, 0x05
0.170966625,SPI,MOSI, 0x00,  MISO, 0x4D
0.170976125,SPI,MOSI, 0x00,  MISO, 0xF3
0.170984125,SPI,MOSI, 0x00,  MISO, 0x43
0.170993625,SPI,MOSI, 0x00,  MISO, 0xB9
0.171001625,SPI,MOSI, 0x00,  MISO, 0xFF
0.171011125,SPI,MOSI, 0x00,  MISO, 0xFF
0.171019167,SPI,MOSI, 0x00,  MISO, 0xFF
0.171028625,SPI,MOSI, 0x00,  MISO, 0xFF
0.171036625,SPI,MOSI, 0x00,  MISO, 0xFF
0.171046125,SPI,MOSI, 0x00,  MISO, 0xFF
0.171054125,SPI,MOSI, 0x00,  MISO, 0xFF
0.171063667,SPI,MOSI, 0x00,  MISO, 0xFF
0.171071625,SPI,MOSI, 0x00,  MISO, 0xFF
0.171081167,SPI,MOSI, 0x00,  MISO, 0xFF
0.171089167,SPI,MOSI, 0x00,  MISO, 0xFF
0.171098625,SPI,MOSI, 0x00,  MISO, 0xFF
0.171106667,SPI,MOSI, 0x00,  MISO, 0xFF
0.171116125,SPI,MOSI, 0x00,  MISO, 0xFF
0.171124167,SPI,MOSI, 0x00,  MISO, 0xFF
0.171133667,SPI,MOSI, 0x00,  MISO, 0xFF
0.171141667,SPI,MOSI, 0x00,  MISO, 0xFF
0.171151167,SPI,MOSI, 0x00,  MISO, 0xFF
0.171159125,SPI,MOSI, 0x00,  MISO, 0xFF
0.171168667,SPI,MOSI, 0x00,  MISO, 0xFF
0.171176667,SPI,MOSI, 0x00,  MISO, 0xFF
0.171186167,SPI,MOSI, 0x00,  MISO, 0xFF
0.171194167,SPI,MOSI, 0x00,  MISO, 0xFF
0.171203667,SPI,MOSI, 0x00,  MISO, 0xFF
0.171211667,SPI,MOSI, 0x00,  MISO, 0xFF
0.171221167,SPI,MOSI, 0x00,  MISO, 0xFF
0.171229167,SPI,MOSI, 0x00,  MISO, 0xFF
0.171238667,SPI,MOSI, 0x00,  MISO, 0xFF
0.171246667,SPI,MOSI, 0x00,  MISO, 0xFF
0.171256167,SPI,MOSI, 0x00,  MISO, 0xFF
0.171264167,SPI,MOSI, 0x00,  MISO, 0xFF
0.171273667,SPI,MOSI, 0x00,  MISO, 0xFF
0.171281667,SPI,MOSI, 0x00,  MISO, 0xFF
0.171291167,SPI,MOSI, 0x00,  MISO, 0xFF
0.171299167,SPI,MOSI, 0x00,  MISO, 0xFF
0.171308667,SPI,MOSI, 0x00,  MISO, 0xFF
0.171316667,SPI,MOSI, 0x00,  MISO, 0xFF
0.171326167,SPI,MOSI, 0x00,  MISO, 0xFF
0.171334167,SPI,MOSI, 0x00,  MISO, 0xFF
0.171343667,SPI,MOSI, 0x00,  MISO, 0xFF
0.171351667,SPI,MOSI, 0x00,  MISO, 0xFF
0.171361167,SPI,MOSI, 0x00,  MISO, 0xFF
0.171369167,SPI,MOSI, 0x00,  MISO, 0xFF
0.171378667,SPI,MOSI, 0x00,  MISO, 0xFF
0.171386667,SPI,MOSI, 0x00,  MISO, 0xFF
0.171396167,SPI,MOSI, 0x00,  MISO, 0xFF
0.171404167,SPI,MOSI, 0x00,  MISO, 0xFF
0.171413667,SPI,MOSI, 0x00,  MISO, 0xFF
0.171421667,SPI,MOSI, 0x00,  MISO, 0xFF
0.171431167,SPI,MOSI, 0x00,  MISO, 0xFF
0.171439167,SPI,MOSI, 0x00,  MISO, 0xFF
0.171448667,SPI,MOSI, 0x00,  MISO, 0xFF
0.171456667,SPI,MOSI, 0x00,  MISO, 0xFF
0.171466167,SPI,MOSI, 0x00,  MISO, 0xFF
0.171474167,SPI,MOSI, 0x00,  MISO, 0xFF
0.171516542,SPI,MOSI, 0x2A,  MISO, 0xFF
0.171524542,SPI,MOSI, 0xD4,  MISO, 0xFF
0.171534042,SPI,MOSI, 0x00,  MISO, 0xFF
0.171542042,SPI,MOSI, 0x00,  MISO, 0xFF
0.171572208,SPI,MOSI, 0x2A,  MISO, 0xFF
0.171580208,SPI,MOSI, 0xD4,  MISO, 0xFF
0.171589708,SPI,MOSI, 0x00,  MISO, 0xFF
0.171597708,SPI,MOSI, 0x00,  MISO, 0xFF
0.171627375,SPI,MOSI, 0x2A,  MISO, 0xFF
0.171635375,SPI,MOSI, 0xD4,  MISO, 0xFF
0.171644833,SPI,MOSI, 0x00,  MISO, 0xFF
0.171652875,SPI,MOSI, 0x00,  MISO, 0xFF
0.1717155,SPI,MOSI, 0x2A,  MISO, 0xFF
0.1717235,SPI,MOSI, 0xD4,  MISO, 0xFF
0.171733,SPI,MOSI, 0x00,  MISO, 0xFF
0.171741,SPI,MOSI, 0x00,  MISO, 0xFF
0.171771542,SPI,MOSI, 0x2A,  MISO, 0xFF
0.171779583,SPI,MOSI, 0xD4,  MISO, 0xFF
0.171789042,SPI,MOSI, 0x00,  MISO, 0xFF
0.171797042,SPI,MOSI, 0x00,  MISO, 0xFF
0.171827833,SPI,MOSI, 0x2A,  MISO, 0xFF
0.171835833,SPI,MOSI, 0xD4,  MISO, 0xFF
0.171845333,SPI,MOSI, 0x00,  MISO, 0xFF
0.171853333,SPI,MOSI, 0x00,  MISO, 0xFF
0.171884333,SPI,MOSI, 0x2A,  MISO, 0xFF
0.171892333,SPI,MOSI, 0xD4,  MISO, 0xFF
0.171901833,SPI,MOSI, 0x00,  MISO, 0xFF
0.171909833,SPI,MOSI, 0x00,  MISO, 0xFF
0.171972667,SPI,MOSI, 0x4E,  MISO, 0xFF
0.171980667,SPI,MOSI, 0x84,  MISO, 0xFF
0.171990167,SPI,MOSI, 0x43,  MISO, 0xFF
0.171998167,SPI,MOSI, 0x00,  MISO, 0xFF
0.172007667,SPI,MOSI, 0x00,  MISO, 0xFF
0.172015667,SPI,MOSI, 0x00,  MISO, 0xFF
0.172025167,SPI,MOSI, 0x00,  MISO, 0xFF
0.172033167,SPI,MOSI, 0x00,  MISO, 0xFF
0.172042667,SPI,MOSI, 0x00,  MISO, 0xFF
0.172050667,SPI,MOSI, 0x00,  MISO, 0xFF
0.172060167,SPI,MOSI, 0x00,  MISO, 0xFF
0.172068167,SPI,MOSI, 0x00,  MISO, 0xFF
0.172077667,SPI,MOSI, 0x00,  MISO, 0xFF
0.172085667,SPI,MOSI, 0x00,  MISO, 0xFF
0.172095167,SPI,MOSI, 0x00,  MISO, 0xFF
0.172103167,SPI,MOSI, 0x00,  MISO, 0xFF
0.172112667,SPI,MOSI, 0x00,  MISO, 0xFF
0.172120667,SPI,MOSI, 0x00,  MISO, 0xFF
0.172130167,SPI,MOSI, 0x00,  MISO, 0xFF
0.172138167,SPI,MOSI, 0x00,  MISO, 0xFF
0.172147667,SPI,MOSI, 0x00,  MISO, 0xFF
0.172155667,SPI,MOSI, 0x00,  MISO, 0xFF
0.172165167,SPI,MOSI, 0x00,  MISO, 0xFF
0.172173167,SPI,MOSI, 0x00,  MISO, 0xFF
0.172182667,SPI,MOSI, 0x00,  MISO, 0xFF
0.172190667,SPI,MOSI, 0x00,  MISO, 0xFF
0.172200167,SPI,MOSI, 0x00,  MISO, 0xFF
0.172208167,SPI,MOSI, 0x00,  MISO, 0xFF
0.172217667,SPI,MOSI, 0x00,  MISO, 0xFF
0.172225667,SPI,MOSI, 0x00,  MISO, 0xFF
0.172235167,SPI,MOSI, 0x00,  MISO, 0xFF
0.172243167,SPI,MOSI, 0x00,  MISO, 0xFF
0.172252667,SPI,MOSI, 0x00,  MISO, 0xFF
0.172260667,SPI,MOSI, 0x00,  MISO, 0xFF
0.172270167,SPI,MOSI, 0x00,  MISO, 0xFF
0.172278167,SPI,MOSI, 0x00,  MISO, 0xFF
0.172287667,SPI,MOSI, 0x00,  MISO, 0xFF
0.172295667,SPI,MOSI, 0x00,  MISO, 0xFF
0.172305167,SPI,MOSI, 0x00,  MISO, 0xFF
0.172313167,SPI,MOSI, 0x00,  MISO, 0xFF
0.172322667,SPI,MOSI, 0x00,  MISO, 0xFF
0.172330667,SPI,MOSI, 0x00,  MISO, 0xFF
0.172340167,SPI,MOSI, 0x00,  MISO, 0xFF
0.172348167,SPI,MOSI, 0x00,  MISO, 0xFF
0.172357667,SPI,MOSI, 0x00,  MISO, 0xFF
0.172365667,SPI,MOSI, 0x00,  MISO, 0xFF
0.172375167,SPI,MOSI, 0x00,  MISO, 0xFF
0.172383167,SPI,MOSI, 0x00,  MISO, 0xFF
0.172392667,SPI,MOSI, 0x00,  MISO, 0xFF
0.172400667,SPI,MOSI, 0x00,  MISO, 0xFF
0.172410167,SPI,MOSI, 0x00,  MISO, 0xFF
0.172418167,SPI,MOSI, 0x00,  MISO, 0xFF
0.172427667,SPI,MOSI, 0x00,  MISO, 0xFF
0.172435667,SPI,MOSI, 0x00,  MISO, 0xFF
0.172445167,SPI,MOSI, 0x00,  MISO, 0xFF
0.172453167,SPI,MOSI, 0x00,  MISO, 0xFF
0.172462667,SPI,MOSI, 0x00,  MISO, 0xFF
0.172470667,SPI,MOSI, 0x00,  MISO, 0xFF
0.17250775,SPI,MOSI, 0x50,  MISO, 0xFF
0.17251575,SPI,MOSI, 0x84,  MISO, 0xFF
0.17252525,SPI,MOSI, 0xCB,  MISO, 0xFF
0.17253325,SPI,MOSI, 0x00,  MISO, 0x84
0.17254275,SPI,MOSI, 0x00,  MISO, 0xF3
0.17255075,SPI,MOSI, 0x00,  MISO, 0x00
0.17256025,SPI,MOSI, 0x00,  MISO, 0x00
0.17256825,SPI,MOSI, 0x00,  MISO, 0x00
0.17257775,SPI,MOSI, 0x00,  MISO, 0x64
0.17258575,SPI,MOSI, 0x00,  MISO, 0x08
0.17259525,SPI,MOSI, 0x00,  MISO, 0x84
0.17260325,SPI,MOSI, 0x00,  MISO, 0xF3
0.17261275,SPI,MOSI, 0x00,  MISO, 0x00
0.17262075,SPI,MOSI, 0x00,  MISO, 0x00
0.17263025,SPI,MOSI, 0x00,  MISO, 0x00
0.17263825,SPI,MOSI, 0x00,  MISO, 0x64
0.17264775,SPI,MOSI, 0x00,  MISO, 0x08
0.17265575,SPI,MOSI, 0x00,  MISO, 0xFF
0.17266525,SPI,MOSI, 0x00,  MISO, 0xFF
0.17267325,SPI,MOSI, 0x00,  MISO, 0xFF
0.17268275,SPI,MOSI, 0x00,  MISO, 0xFF
0.17269075,SPI,MOSI, 0x00,  MISO, 0xFF
0.17270025,SPI,MOSI, 0x00,  MISO, 0xFF
0.17270825,SPI,MOSI, 0x00,  MISO, 0xFF
0.17271775,SPI,MOSI, 0x00,  MISO, 0xFF
0.17272575,SPI,MOSI, 0x00,  MISO, 0xFF
0.17273525,SPI,MOSI, 0x00,  MISO, 0xFF
0.17274325,SPI,MOSI, 0x00,  MISO, 0xFF
0.17275275,SPI,MOSI, 0x00,  MISO, 0xFF
0.17276075,SPI,MOSI, 0x00,  MISO, 0xFF
0.17277025,SPI,MOSI, 0x00,  MISO, 0xFF
0.17277825,SPI,MOSI, 0x00,  MISO, 0xFF
0.17278775,SPI,MOSI, 0x00,  MISO, 0xFF
0.17279575,SPI,MOSI, 0x00,  MISO, 0xFF
0.17280525,SPI,MOSI, 0x00,  MISO, 0xFF
0.17281325,SPI,MOSI, 0x00,  MISO, 0xFF
0.17282275,SPI,MOSI, 0x00,  MISO, 0xFF
0.17283075,SPI,MOSI, 0x00,  MISO, 0xFF
0.17284025,SPI,MOSI, 0x00,  MISO, 0xFF
0.17284825,SPI,MOSI, 0x00,  MISO, 0xFF
0.17285775,SPI,MOSI, 0x00,  MISO, 0xFF
0.17286575,SPI,MOSI, 0x00,  MISO, 0xFF
0.17287525,SPI,MOSI, 0x00,  MISO, 0xFF
0.17288325,SPI,MOSI, 0x00,  MISO, 0xFF
0.17289275,SPI,MOSI, 0x00,  MISO, 0xFF
0.17290075,SPI,MOSI, 0x00,  MISO, 0xFF
0.17291025,SPI,MOSI, 0x00,  MISO, 0xFF
0.17291825,SPI,MOSI, 0x00,  MISO, 0xFF
0.17292775,SPI,MOSI, 0x00,  MISO, 0xFF
0.17293575,SPI,MOSI, 0x00,  MISO, 0xFF
0.17294525,SPI,MOSI, 0x00,  MISO, 0xFF
0.17295325,SPI,MOSI, 0x00,  MISO, 0xFF
0.17296275,SPI,MOSI, 0x00,  MISO, 0xFF
0.17297075,SPI,MOSI, 0x00,  MISO, 0xFF
0.17298025,SPI,MOSI, 0x00,  MISO, 0xFF
0.17298825,SPI,MOSI, 0x00,  MISO, 0xFF
0.17299775,SPI,MOSI, 0x00,  MISO, 0xFF
0.17300575,SPI,MOSI, 0x00,  MISO, 0xFF
0.17301525,SPI,MOSI, 0x00,  MISO, 0xFF
0.17302325,SPI,MOSI, 0x00,  MISO, 0xFF
0.173246167,SPI,MOSI, 0x2A,  MISO, 0xFF
0.173254167,SPI,MOSI, 0xD4,  MISO, 0xFF
0.173263667,SPI,MOSI, 0x00,  MISO, 0xFF
0.173271667,SPI,MOSI, 0x00,  MISO, 0xFF
0.173302833,SPI,MOSI, 0x2A,  MISO, 0xFF
0.173310833,SPI,MOSI, 0xD4,  MISO, 0xFF
0.173320333,SPI,MOSI, 0x00,  MISO, 0xFF
0.173328333,SPI,MOSI, 0x00,  MISO, 0xFF
0.173358208,SPI,MOSI, 0x2A,  MISO, 0xFF
0.173366208,SPI,MOSI, 0xD4,  MISO, 0xFF
0.173375708,SPI,MOSI, 0x00,  MISO, 0xFF
0.173383708,SPI,MOSI, 0x00,  MISO, 0xFF
0.173413292,SPI,MOSI, 0x2A,  MISO, 0xFF
0.173421292,SPI,MOSI, 0xD4,  MISO, 0xFF
0.173430792,SPI,MOSI, 0x00,  MISO, 0xFF
0.173438792,SPI,MOSI, 0x00,  MISO, 0xFF
0.173468583,SPI,MOSI, 0x2A,  MISO, 0xFF
0.173476583,SPI,MOSI, 0xD4,  MISO, 0xFF
0.173486083,SPI,MOSI, 0x00,  MISO, 0xFF
0.173494083,SPI,MOSI, 0x00,  MISO, 0xFF
0.173523667,SPI,MOSI, 0x2A,  MISO, 0xFF
0.173531667,SPI,MOSI, 0xD4,  MISO, 0xFF
0.173541167,SPI,MOSI, 0x00,  MISO, 0xFF
0.173549167,SPI,MOSI, 0x00,  MISO, 0xFF
0.173578792,SPI,MOSI, 0x2A,  MISO, 0xFF
0.173586792,SPI,MOSI, 0xD4,  MISO, 0xFF
0.173596292,SPI,MOSI, 0x00,  MISO, 0xFF
0.173604292,SPI,MOSI, 0x00,  MISO, 0xFF
0.173680958,SPI,MOSI, 0x50,  MISO, 0xFF
0.173688958,SPI,MOSI, 0x84,  MISO, 0xFF
0.173698458,SPI,MOSI, 0xCB,  MISO, 0xFF
0.173706458,SPI,MOSI, 0x00,  MISO, 0xFF
0.173715958,SPI,MOSI, 0x00,  MISO, 0xFF
0.173723958,SPI,MOSI, 0x00,  MISO, 0xFF
0.173733458,SPI,MOSI, 0x00,  MISO, 0xFF
0.173741458,SPI,MOSI, 0x00,  MISO, 0xFF
0.173750958,SPI,MOSI, 0x00,  MISO, 0xFF
0.173758958,SPI,MOSI, 0x00,  MISO, 0xFF
0.173768458,SPI,MOSI, 0x00,  MISO, 0xFF
0.173776458,SPI,MOSI, 0x00,  MISO, 0xFF
0.173785958,SPI,MOSI, 0x00,  MISO, 0xFF
0.173793958,SPI,MOSI, 0x00,  MISO, 0xFF
0.173803458,SPI,MOSI, 0x00,  MISO, 0xFF
0.173811458,SPI,MOSI, 0x00,  MISO, 0xFF
0.173820958,SPI,MOSI, 0x00,  MISO, 0xFF
0.173828958,SPI,MOSI, 0x00,  MISO, 0xFF
0.173838458,SPI,MOSI, 0x00,  MISO, 0xFF
0.173846458,SPI,MOSI, 0x00,  MISO, 0xFF
0.173855958,SPI,MOSI, 0x00,  MISO, 0xFF
0.173863958,SPI,MOSI, 0x00,  MISO, 0xFF
0.173873458,SPI,MOSI, 0x00,  MISO, 0xFF
0.173881458,SPI,MOSI, 0x00,  MISO, 0xFF
0.173890958,SPI,MOSI, 0x00,  MISO, 0xFF
0.173898958,SPI,MOSI, 0x00,  MISO, 0xFF
0.173908458,SPI,MOSI, 0x00,  MISO, 0xFF
0.173916458,SPI,MOSI, 0x00,  MISO, 0xFF
0.173925958,SPI,MOSI, 0x00,  MISO, 0xFF
0.173933958,SPI,MOSI, 0x00,  MISO, 0xFF
0.173943458,SPI,MOSI, 0x00,  MISO, 0xFF
0.173951458,SPI,MOSI, 0x00,  MISO, 0xFF
0.173960958,SPI,MOSI, 0x00,  MISO, 0xFF
0.173968958,SPI,MOSI, 0x00,  MISO, 0xFF
0.173978458,SPI,MOSI, 0x00,  MISO, 0xFF
0.173986458,SPI,MOSI, 0x00,  MISO, 0xFF
0.173995958,SPI,MOSI, 0x00,  MISO, 0xFF
0.174003958,SPI,MOSI, 0x00,  MISO, 0xFF
0.174013458,SPI,MOSI, 0x00,  MISO, 0xFF
0.174021458,SPI,MOSI, 0x00,  MISO, 0xFF
0.174030958,SPI,MOSI, 0x00,  MISO, 0xFF
0.174038958,SPI,MOSI, 0x00,  MISO, 0xFF
0.174048458,SPI,MOSI, 0x00,  MISO, 0xFF
0.174056458,SPI,MOSI, 0x00,  MISO, 0xFF
0.174065958,SPI,MOSI, 0x00,  MISO, 0xFF
0.174073958,SPI,MOSI, 0x00,  MISO, 0xFF
0.174194542,SPI,MOSI, 0x2B,  MISO, 0xFF
0.174202542,SPI,MOSI, 0xFB,  MISO, 0xFF
0.1742335,SPI,MOSI, 0x2B,  MISO, 0xFF
0.1742415,SPI,MOSI, 0xFB,  MISO, 0xFF
0.174273958,SPI,MOSI, 0x4F,  MISO, 0xFF
0.174281917,SPI,MOSI, 0x84,  MISO, 0xFF
0.174291458,SPI,MOSI, 0xAA,  MISO, 0xFF
0.174299458,SPI,MOSI, 0x00,  MISO, 0x84
0.174308958,SPI,MOSI, 0x00,  MISO, 0xFF
0.174316958,SPI,MOSI, 0x00,  MISO, 0x40
0.174326458,SPI,MOSI, 0x00,  MISO, 0xC0
0.174334458,SPI,MOSI, 0x00,  MISO, 0x6B
0.174343958,SPI,MOSI, 0x00,  MISO, 0xAC
0.174351958,SPI,MOSI, 0x00,  MISO, 0xB2
0.174361458,SPI,MOSI, 0x00,  MISO, 0x84
0.174369458,SPI,MOSI, 0x00,  MISO, 0xFF
0.174378958,SPI,MOSI, 0x00,  MISO, 0x40
0.174386958,SPI,MOSI, 0x00,  MISO, 0xC0
0.174396458,SPI,MOSI, 0x00,  MISO, 0x4C
0.174404458,SPI,MOSI, 0x00,  MISO, 0xB6
0.174413958,SPI,MOSI, 0x00,  MISO, 0x5A
0.174421958,SPI,MOSI, 0x00,  MISO, 0xFF
0.174431458,SPI,MOSI, 0x00,  MISO, 0xFF
0.174439458,SPI,MOSI, 0x00,  MISO, 0xFF
0.174448958,SPI,MOSI, 0x00,  MISO, 0xFF
0.174456958,SPI,MOSI, 0x00,  MISO, 0xFF
0.174466458,SPI,MOSI, 0x00,  MISO, 0xFF
0.174474458,SPI,MOSI, 0x00,  MISO, 0xFF
0.174483958,SPI,MOSI, 0x00,  MISO, 0xFF
0.174491958,SPI,MOSI, 0x00,  MISO, 0xFF
0.174501458,SPI,MOSI, 0x00,  MISO, 0xFF
0.174509458,SPI,MOSI, 0x00,  MISO, 0xFF
0.174518958,SPI,MOSI, 0x00,  MISO, 0xFF
0.174526958,SPI,MOSI, 0x00,  MISO, 0xFF
0.174536458,SPI,MOSI, 0x00,  MISO, 0xFF
0.174544458,SPI,MOSI, 0x00,  MISO, 0xFF
0.174553958,SPI,MOSI, 0x00,  MISO, 0xFF
0.174561958,SPI,MOSI, 0x00,  MISO, 0xFF
0.174571458,SPI,MOSI, 0x00,  MISO, 0xFF
0.174579458,SPI,MOSI, 0x00,  MISO, 0xFF
0.174588958,SPI,MOSI, 0x00,  MISO, 0xFF
0.174596958,SPI,MOSI, 0x00,  MISO, 0xFF
0.174606458,SPI,MOSI, 0x00,  MISO, 0xFF
0.174614458,SPI,MOSI, 0x00,  MISO, 0xFF
0.174623958,SPI,MOSI, 0x00,  MISO, 0xFF
0.174631958,SPI,MOSI, 0x00,  MISO, 0xFF
0.174641458,SPI,MOSI, 0x00,  MISO, 0xFF
0.174649458,SPI,MOSI, 0x00,  MISO, 0xFF
0.174658958,SPI,MOSI, 0x00,  MISO, 0xFF
0.174666958,SPI,MOSI, 0x00,  MISO, 0xFF
0.174676458,SPI,MOSI, 0x00,  MISO, 0xFF
0.174684458,SPI,MOSI, 0x00,  MISO, 0xFF
0.174693958,SPI,MOSI, 0x00,  MISO, 0xFF
0.174701958,SPI,MOSI, 0x00,  MISO, 0xFF
0.174711458,SPI,MOSI, 0x00,  MISO, 0xFF
0.174719458,SPI,MOSI, 0x00,  MISO, 0xFF
0.174728958,SPI,MOSI, 0x00,  MISO, 0xFF
0.174736958,SPI,MOSI, 0x00,  MISO, 0xFF
0.174746458,SPI,MOSI, 0x00,  MISO, 0xFF
0.174754458,SPI,MOSI, 0x00,  MISO, 0xFF
0.174763958,SPI,MOSI, 0x00,  MISO, 0xFF
0.174771958,SPI,MOSI, 0x00,  MISO, 0xFF
0.174781458,SPI,MOSI, 0x00,  MISO, 0xFF
0.174789458,SPI,MOSI, 0x00,  MISO, 0xFF
0.174829292,SPI,MOSI, 0x2A,  MISO, 0xFF
0.174837292,SPI,MOSI, 0xD4,  MISO, 0xFF
0.174846792,SPI,MOSI, 0x00,  MISO, 0xFF
0.174854792,SPI,MOSI, 0x00,  MISO, 0xFF
0.174885542,SPI,MOSI, 0x2A,  MISO, 0xFF
0.174893542,SPI,MOSI, 0xD4,  MISO, 0xFF
0.174903042,SPI,MOSI, 0x00,  MISO, 0xFF
0.174911042,SPI,MOSI, 0x00,  MISO, 0xFF
0.174947625,SPI,MOSI, 0x2A,  MISO, 0xFF
0.174955625,SPI,MOSI, 0xD4,  MISO, 0xFF
0.174965125,SPI,MOSI, 0x00,  MISO, 0xFF
0.174973125,SPI,MOSI, 0x00,  MISO, 0xFF
0.175199333,SPI,MOSI, 0x2A,  MISO, 0xFF
0.175207333,SPI,MOSI, 0xD4,  MISO, 0xFF
0.175216833,SPI,MOSI, 0x00,  MISO, 0xFF
0.175224833,SPI,MOSI, 0x00,  MISO, 0xFF
0.175256042,SPI,MOSI, 0x2A,  MISO, 0xFF
0.175264042,SPI,MOSI, 0xD4,  MISO, 0xFF
0.175273542,SPI,MOSI, 0x00,  MISO, 0xFF
0.175281542,SPI,MOSI, 0x00,  MISO, 0xFF
0.175311083,SPI,MOSI, 0x2A,  MISO, 0xFF
0.175319083,SPI,MOSI, 0xD4,  MISO, 0xFF
0.175328583,SPI,MOSI, 0x00,  MISO, 0xFF
0.175336583,SPI,MOSI, 0x00,  MISO, 0xFF
0.175366208,SPI,MOSI, 0x2A,  MISO, 0xFF
0.175374208,SPI,MOSI, 0xD4,  MISO, 0xFF
0.175383708,SPI,MOSI, 0x00,  MISO, 0xFF
0.175391708,SPI,MOSI, 0x00,  MISO, 0xFF
0.175423167,SPI,MOSI, 0x4F,  MISO, 0xFF
0.175431167,SPI,MOSI, 0x84,  MISO, 0xFF
0.175440667,SPI,MOSI, 0xAA,  MISO, 0xFF
0.175448667,SPI,MOSI, 0x00,  MISO, 0xFF
0.175458167,SPI,MOSI, 0x00,  MISO, 0xFF
0.175466167,SPI,MOSI, 0x00,  MISO, 0xFF
0.175475667,SPI,MOSI, 0x00,  MISO, 0xFF
0.175483667,SPI,MOSI, 0x00,  MISO, 0xFF
0.175493167,SPI,MOSI, 0x00,  MISO, 0xFF
0.175501167,SPI,MOSI, 0x00,  MISO, 0xFF
0.175510667,SPI,MOSI, 0x00,  MISO, 0xFF
0.175518667,SPI,MOSI, 0x00,  MISO, 0xFF
0.175528167,SPI,MOSI, 0x00,  MISO, 0xFF
0.175536167,SPI,MOSI, 0x00,  MISO, 0xFF
0.175545667,SPI,MOSI, 0x00,  MISO, 0xFF
0.175553667,SPI,MOSI, 0x00,  MISO, 0xFF
0.175563167,SPI,MOSI, 0x00,  MISO, 0xFF
0.175571167,SPI,MOSI, 0x00,  MISO, 0xFF
0.175580667,SPI,MOSI, 0x00,  MISO, 0xFF
0.175588667,SPI,MOSI, 0x00,  MISO, 0xFF
0.175598167,SPI,MOSI, 0x00,  MISO, 0xFF
0.175606167,SPI,MOSI, 0x00,  MISO, 0xFF
0.175615667,SPI,MOSI, 0x00,  MISO, 0xFF
0.175623667,SPI,MOSI, 0x00,  MISO, 0xFF
0.175633167,SPI,MOSI, 0x00,  MISO, 0xFF
0.175641167,SPI,MOSI, 0x00,  MISO, 0xFF
0.175650667,SPI,MOSI, 0x00,  MISO, 0xFF
0.175658667,SPI,MOSI, 0x00,  MISO, 0xFF
0.175668167,SPI,MOSI, 0x00,  MISO, 0xFF
0.175676167,SPI,MOSI, 0x00,  MISO, 0xFF
0.175685667,SPI,MOSI, 0x00,  MISO, 0xFF
0.175693667,SPI,MOSI, 0x00,  MISO, 0xFF
0.175703167,SPI,MOSI, 0x00,  MISO, 0xFF
0.175711167,SPI,MOSI, 0x00,  MISO, 0xFF
0.175720667,SPI,MOSI, 0x00,  MISO, 0xFF
0.175728667,SPI,MOSI, 0x00,  MISO, 0xFF
0.175738167,SPI,MOSI, 0x00,  MISO, 0xFF
0.175746167,SPI,MOSI, 0x00,  MISO, 0xFF
0.175755667,SPI,MOSI, 0x00,  MISO, 0xFF
0.175763667,SPI,MOSI, 0x00,  MISO, 0xFF
0.175773167,SPI,MOSI, 0x00,  MISO, 0xFF
0.175781167,SPI,MOSI, 0x00,  MISO, 0xFF
0.175790667,SPI,MOSI, 0x00,  MISO, 0xFF
0.175798667,SPI,MOSI, 0x00,  MISO, 0xFF
0.175808167,SPI,MOSI, 0x00,  MISO, 0xFF
0.175816167,SPI,MOSI, 0x00,  MISO, 0xFF
0.175851583,SPI,MOSI, 0x47,  MISO, 0xFF
0.175859583,SPI,MOSI, 0x84,  MISO, 0xFF
0.175869083,SPI,MOSI, 0x2F,  MISO, 0xFF
0.175877083,SPI,MOSI, 0x00,  MISO, 0x84
0.175886583,SPI,MOSI, 0x00,  MISO, 0x5A
0.175894583,SPI,MOSI, 0x00,  MISO, 0x9F
0.175904083,SPI,MOSI, 0x00,  MISO, 0xA9
0.175912083,SPI,MOSI, 0x00,  MISO, 0x9F
0.175921583,SPI,MOSI, 0x00,  MISO, 0xB3
0.175929583,SPI,MOSI, 0x00,  MISO, 0x9F
0.175939083,SPI,MOSI, 0x00,  MISO, 0x87
0.175947083,SPI,MOSI, 0x00,  MISO, 0x9B
0.175956583,SPI,MOSI, 0x00,  MISO, 0x84
0.175964583,SPI,MOSI, 0x00,  MISO, 0xC8
0.175974083,SPI,MOSI, 0x00,  MISO, 0x9F
0.175982083,SPI,MOSI, 0x00,  MISO, 0xC2
0.175991583,SPI,MOSI, 0x00,  MISO, 0x9F
0.175999583,SPI,MOSI, 0x00,  MISO, 0xB8
0.176009083,SPI,MOSI, 0x00,  MISO, 0x9F
0.176017083,SPI,MOSI, 0x00,  MISO, 0x94
0.176026583,SPI,MOSI, 0x00,  MISO, 0x64
0.176034583,SPI,MOSI, 0x00,  MISO, 0xFF
0.176044083,SPI,MOSI, 0x00,  MISO, 0xFF
0.176052083,SPI,MOSI, 0x00,  MISO, 0xFF
0.176061583,SPI,MOSI, 0x00,  MISO, 0xFF
0.176069583,SPI,MOSI, 0x00,  MISO, 0xFF
0.176079083,SPI,MOSI, 0x00,  MISO, 0xFF
0.176087083,SPI,MOSI, 0x00,  MISO, 0xFF
0.176096583,SPI,MOSI, 0x00,  MISO, 0xFF
0.176104583,SPI,MOSI, 0x00,  MISO, 0xFF
0.176114083,SPI,MOSI, 0x00,  MISO, 0xFF
0.176122083,SPI,MOSI, 0x00,  MISO, 0xFF
0.176131583,SPI,MOSI, 0x00,  MISO, 0xFF
0.176139583,SPI,MOSI, 0x00,  MISO, 0xFF
0.176149083,SPI,MOSI, 0x00,  MISO, 0xFF
0.176157083,SPI,MOSI, 0x00,  MISO, 0xFF
0.176166583,SPI,MOSI, 0x00,  MISO, 0xFF
0.176174583,SPI,MOSI, 0x00,  MISO, 0xFF
0.176184083,SPI,MOSI, 0x00,  MISO, 0xFF
0.176192083,SPI,MOSI, 0x00,  MISO, 0xFF
0.176201583,SPI,MOSI, 0x00,  MISO, 0xFF
0.176209583,SPI,MOSI, 0x00,  MISO, 0xFF
0.176219083,SPI,MOSI, 0x00,  MISO, 0xFF
0.176227083,SPI,MOSI, 0x00,  MISO, 0xFF
0.176236583,SPI,MOSI, 0x00,  MISO, 0xFF
0.176244583,SPI,MOSI, 0x00,  MISO, 0xFF
0.176254083,SPI,MOSI, 0x00,  MISO, 0xFF
0.176262083,SPI,MOSI, 0x00,  MISO, 0xFF
0.176271583,SPI,MOSI, 0x00,  MISO, 0xFF
0.176279583,SPI,MOSI, 0x00,  MISO, 0xFF
0.176289083,SPI,MOSI, 0x00,  MISO, 0xFF
0.176297083,SPI,MOSI, 0x00,  MISO, 0xFF
0.176306583,SPI,MOSI, 0x00,  MISO, 0xFF
0.176314583,SPI,MOSI, 0x00,  MISO, 0xFF
0.176324083,SPI,MOSI, 0x00,  MISO, 0xFF
0.176332083,SPI,MOSI, 0x00,  MISO, 0xFF
0.176341583,SPI,MOSI, 0x00,  MISO, 0xFF
0.176349583,SPI,MOSI, 0x00,  MISO, 0xFF
0.176359083,SPI,MOSI, 0x00,  MISO, 0xFF
0.176367083,SPI,MOSI, 0x00,  MISO, 0xFF
0.176376583,SPI,MOSI, 0x00,  MISO, 0xFF
0.176384583,SPI,MOSI, 0x00,  MISO, 0xFF
0.176394083,SPI,MOSI, 0x00,  MISO, 0xFF
0.176402083,SPI,MOSI, 0x00,  MISO, 0xFF
0.176411583,SPI,MOSI, 0x00,  MISO, 0xFF
0.176419583,SPI,MOSI, 0x00,  MISO, 0xFF
0.176429083,SPI,MOSI, 0x00,  MISO, 0xFF
0.176437083,SPI,MOSI, 0x00,  MISO, 0xFF
0.176446583,SPI,MOSI, 0x00,  MISO, 0xFF
0.176454583,SPI,MOSI, 0x00,  MISO, 0xFF
0.176464083,SPI,MOSI, 0x00,  MISO, 0xFF
0.176472083,SPI,MOSI, 0x00,  MISO, 0xFF
0.176481583,SPI,MOSI, 0x00,  MISO, 0xFF
0.176489583,SPI,MOSI, 0x00,  MISO, 0xFF
0.176499083,SPI,MOSI, 0x00,  MISO, 0xFF
0.176507083,SPI,MOSI, 0x00,  MISO, 0xFF
0.176549958,SPI,MOSI, 0x2A,  MISO, 0xFF
0.176557917,SPI,MOSI, 0xD4,  MISO, 0xFF
0.176567458,SPI,MOSI, 0x00,  MISO, 0xFF
0.176575417,SPI,MOSI, 0x00,  MISO, 0xFF
0.176605542,SPI,MOSI, 0x2A,  MISO, 0xFF
0.176613542,SPI,MOSI, 0xD4,  MISO, 0xFF
0.176623042,SPI,MOSI, 0x00,  MISO, 0xFF
0.176631042,SPI,MOSI, 0x00,  MISO, 0xFF
0.176685833,SPI,MOSI, 0x2A,  MISO, 0xFF
0.176693833,SPI,MOSI, 0xD4,  MISO, 0xFF
0.176703333,SPI,MOSI, 0x00,  MISO, 0xFF
0.176711333,SPI,MOSI, 0x00,  MISO, 0xFF
0.176741875,SPI,MOSI, 0x2A,  MISO, 0xFF
0.176749875,SPI,MOSI, 0xD4,  MISO, 0xFF
0.176759375,SPI,MOSI, 0x00,  MISO, 0xFF
0.176767375,SPI,MOSI, 0x00,  MISO, 0xFF
0.176798083,SPI,MOSI, 0x2A,  MISO, 0xFF
0.176806083,SPI,MOSI, 0xD4,  MISO, 0xFF
0.176815583,SPI,MOSI, 0x00,  MISO, 0xFF
0.176823583,SPI,MOSI, 0x00,  MISO, 0xFF
0.17685325,SPI,MOSI, 0x2A,  MISO, 0xFF
0.17686125,SPI,MOSI, 0xD4,  MISO, 0xFF
0.17687075,SPI,MOSI, 0x00,  MISO, 0xFF
0.17687875,SPI,MOSI, 0x00,  MISO, 0xFF
0.176939458,SPI,MOSI, 0x2A,  MISO, 0xFF
0.176947458,SPI,MOSI, 0xD4,  MISO, 0xFF
0.176956958,SPI,MOSI, 0x00,  MISO, 0xFF
0.176964958,SPI,MOSI, 0x00,  MISO, 0xFF
0.177559833,SPI,MOSI, 0x47,  MISO, 0xFF
0.177567833,SPI,MOSI, 0x84,  MISO, 0xFF
0.177577333,SPI,MOSI, 0x2F,  MISO, 0xFF
0.177585333,SPI,MOSI, 0x00,  MISO, 0xFF
0.177594833,SPI,MOSI, 0x00,  MISO, 0xFF
0.177602833,SPI,MOSI, 0x00,  MISO, 0xFF
0.177612333,SPI,MOSI, 0x00,  MISO, 0xFF
0.177620333,SPI,MOSI, 0x00,  MISO, 0xFF
0.177629833,SPI,MOSI, 0x00,  MISO, 0xFF
0.177637833,SPI,MOSI, 0x00,  MISO, 0xFF
0.177647333,SPI,MOSI, 0x00,  MISO, 0xFF
0.177655333,SPI,MOSI, 0x00,  MISO, 0xFF
0.177664833,SPI,MOSI, 0x00,  MISO, 0xFF
0.177672833,SPI,MOSI, 0x00,  MISO, 0xFF
0.177682333,SPI,MOSI, 0x00,  MISO, 0xFF
0.177690333,SPI,MOSI, 0x00,  MISO, 0xFF
0.177699833,SPI,MOSI, 0x00,  MISO, 0xFF
0.177707833,SPI,MOSI, 0x00,  MISO, 0xFF
0.177717333,SPI,MOSI, 0x00,  MISO, 0xFF
0.177725333,SPI,MOSI, 0x00,  MISO, 0xFF
0.177734833,SPI,MOSI, 0x00,  MISO, 0xFF
0.177742833,SPI,MOSI, 0x00,  MISO, 0xFF
0.177752333,SPI,MOSI, 0x00,  MISO, 0xFF
0.177760333,SPI,MOSI, 0x00,  MISO, 0xFF
0.177769833,SPI,MOSI, 0x00,  MISO, 0xFF
0.177777833,SPI,MOSI, 0x00,  MISO, 0xFF
0.177787333,SPI,MOSI, 0x00,  MISO, 0xFF
0.177795333,SPI,MOSI, 0x00,  MISO, 0xFF
0.177804833,SPI,MOSI, 0x00,  MISO, 0xFF
0.177812833,SPI,MOSI, 0x00,  MISO, 0xFF
0.177822333,SPI,MOSI, 0x00,  MISO, 0xFF
0.177830333,SPI,MOSI, 0x00,  MISO, 0xFF
0.177839833,SPI,MOSI, 0x00,  MISO, 0xFF
0.177847833,SPI,MOSI, 0x00,  MISO, 0xFF
0.177857333,SPI,MOSI, 0x00,  MISO, 0xFF
0.177865333,SPI,MOSI, 0x00,  MISO, 0xFF
0.177874833,SPI,MOSI, 0x00,  MISO, 0xFF
0.177882833,SPI,MOSI, 0x00,  MISO, 0xFF
0.177892333,SPI,MOSI, 0x00,  MISO, 0xFF
0.177900333,SPI,MOSI, 0x00,  MISO, 0xFF
0.177909833,SPI,MOSI, 0x00,  MISO, 0xFF
0.177917833,SPI,MOSI, 0x00,  MISO, 0xFF
0.177927333,SPI,MOSI, 0x00,  MISO, 0xFF
0.177935333,SPI,MOSI, 0x00,  MISO, 0xFF
0.177944833,SPI,MOSI, 0x00,  MISO, 0xFF
0.177952833,SPI,MOSI, 0x00,  MISO, 0xFF
0.177962333,SPI,MOSI, 0x00,  MISO, 0xFF
0.177970333,SPI,MOSI, 0x00,  MISO, 0xFF
0.177979833,SPI,MOSI, 0x00,  MISO, 0xFF
0.177987833,SPI,MOSI, 0x00,  MISO, 0xFF
0.177997333,SPI,MOSI, 0x00,  MISO, 0xFF
0.178005333,SPI,MOSI, 0x00,  MISO, 0xFF
0.178014833,SPI,MOSI, 0x00,  MISO, 0xFF
0.178022833,SPI,MOSI, 0x00,  MISO, 0xFF
0.178032333,SPI,MOSI, 0x00,  MISO, 0xFF
0.178040333,SPI,MOSI, 0x00,  MISO, 0xFF
0.178049833,SPI,MOSI, 0x00,  MISO, 0xFF
0.178057833,SPI,MOSI, 0x00,  MISO, 0xFF
0.178233833,SPI,MOSI, 0x48,  MISO, 0xFF
0.178241833,SPI,MOSI, 0x84,  MISO, 0xFF
0.178251333,SPI,MOSI, 0x6B,  MISO, 0xFF
0.178259333,SPI,MOSI, 0x00,  MISO, 0x84
0.178268833,SPI,MOSI, 0x00,  MISO, 0xD3
0.178276833,SPI,MOSI, 0x00,  MISO, 0x9F
0.178286333,SPI,MOSI, 0x00,  MISO, 0xAC
0.178294333,SPI,MOSI, 0x00,  MISO, 0x9F
0.178303833,SPI,MOSI, 0x00,  MISO, 0xD2
0.178311833,SPI,MOSI, 0x00,  MISO, 0x9F
0.178321333,SPI,MOSI, 0x00,  MISO, 0x90
0.178329375,SPI,MOSI, 0x00,  MISO, 0x9E
0.178338833,SPI,MOSI, 0x00,  MISO, 0x84
0.178346875,SPI,MOSI, 0x00,  MISO, 0xB6
0.178356333,SPI,MOSI, 0x00,  MISO, 0x9F
0.178364375,SPI,MOSI, 0x00,  MISO, 0xAA
0.178373875,SPI,MOSI, 0x00,  MISO, 0x9F
0.178381875,SPI,MOSI, 0x00,  MISO, 0xC6
0.178391375,SPI,MOSI, 0x00,  MISO, 0x9F
0.178399375,SPI,MOSI, 0x00,  MISO, 0xB3
0.178408875,SPI,MOSI, 0x00,  MISO, 0x37
0.178416875,SPI,MOSI, 0x00,  MISO, 0xFF
0.178426375,SPI,MOSI, 0x00,  MISO, 0xFF
0.178434375,SPI,MOSI, 0x00,  MISO, 0xFF
0.178443875,SPI,MOSI, 0x00,  MISO, 0xFF
0.178451875,SPI,MOSI, 0x00,  MISO, 0xFF
0.178461375,SPI,MOSI, 0x00,  MISO, 0xFF
0.178469375,SPI,MOSI, 0x00,  MISO, 0xFF
0.178478875,SPI,MOSI, 0x00,  MISO, 0xFF
0.178486875,SPI,MOSI, 0x00,  MISO, 0xFF
0.178496375,SPI,MOSI, 0x00,  MISO, 0xFF
0.178504375,SPI,MOSI, 0x00,  MISO, 0xFF
0.178513875,SPI,MOSI, 0x00,  MISO, 0xFF
0.178521875,SPI,MOSI, 0x00,  MISO, 0xFF
0.178531375,SPI,MOSI, 0x00,  MISO, 0xFF
0.178539375,SPI,MOSI, 0x00,  MISO, 0xFF
0.178548875,SPI,MOSI, 0x00,  MISO, 0xFF
0.178556875,SPI,MOSI, 0x00,  MISO, 0xFF
0.178566375,SPI,MOSI, 0x00,  MISO, 0xFF
0.178574375,SPI,MOSI, 0x00,  MISO, 0xFF
0.178583875,SPI,MOSI, 0x00,  MISO, 0xFF
0.178591875,SPI,MOSI, 0x00,  MISO, 0xFF
0.178601375,SPI,MOSI, 0x00,  MISO, 0xFF
0.178609375,SPI,MOSI, 0x00,  MISO, 0xFF
0.178618875,SPI,MOSI, 0x00,  MISO, 0xFF
0.178626875,SPI,MOSI, 0x00,  MISO, 0xFF
0.178636375,SPI,MOSI, 0x00,  MISO, 0xFF
0.178644375,SPI,MOSI, 0x00,  MISO, 0xFF
0.178653875,SPI,MOSI, 0x00,  MISO, 0xFF
0.178661875,SPI,MOSI, 0x00,  MISO, 0xFF
0.178671375,SPI,MOSI, 0x00,  MISO, 0xFF
0.178679375,SPI,MOSI, 0x00,  MISO, 0xFF
0.178688875,SPI,MOSI, 0x00,  MISO, 0xFF
0.178696875,SPI,MOSI, 0x00,  MISO, 0xFF
0.178706375,SPI,MOSI, 0x00,  MISO, 0xFF
0.178714375,SPI,MOSI, 0x00,  MISO, 0xFF
0.178723875,SPI,MOSI, 0x00,  MISO, 0xFF
0.178731875,SPI,MOSI, 0x00,  MISO, 0xFF
0.178741375,SPI,MOSI, 0x00,  MISO, 0xFF
0.178749375,SPI,MOSI, 0x00,  MISO, 0xFF
0.178758875,SPI,MOSI, 0x00,  MISO, 0xFF
0.178766875,SPI,MOSI, 0x00,  MISO, 0xFF
0.178776375,SPI,MOSI, 0x00,  MISO, 0xFF
0.178784375,SPI,MOSI, 0x00,  MISO, 0xFF
0.178793875,SPI,MOSI, 0x00,  MISO, 0xFF
0.178801875,SPI,MOSI, 0x00,  MISO, 0xFF
0.178811375,SPI,MOSI, 0x00,  MISO, 0xFF
0.178819375,SPI,MOSI, 0x00,  MISO, 0xFF
0.178828875,SPI,MOSI, 0x00,  MISO, 0xFF
0.178836875,SPI,MOSI, 0x00,  MISO, 0xFF
0.178846375,SPI,MOSI, 0x00,  MISO, 0xFF
0.178854375,SPI,MOSI, 0x00,  MISO, 0xFF
0.178863875,SPI,MOSI, 0x00,  MISO, 0xFF
0.178871875,SPI,MOSI, 0x00,  MISO, 0xFF
0.178881375,SPI,MOSI, 0x00,  MISO, 0xFF
0.178889375,SPI,MOSI, 0x00,  MISO, 0xFF
0.17893075,SPI,MOSI, 0x2A,  MISO, 0xFF
0.17893875,SPI,MOSI, 0xD4,  MISO, 0xFF
0.17894825,SPI,MOSI, 0x00,  MISO, 0xFF
0.17895625,SPI,MOSI, 0x00,  MISO, 0xFF
0.179215875,SPI,MOSI, 0x2A,  MISO, 0xFF
0.179223875,SPI,MOSI, 0xD4,  MISO, 0xFF
0.179233375,SPI,MOSI, 0x00,  MISO, 0xFF
0.179241375,SPI,MOSI, 0x00,  MISO, 0xFF
0.1793175,SPI,MOSI, 0x2A,  MISO, 0xFF
0.1793255,SPI,MOSI, 0xD4,  MISO, 0xFF
0.179335,SPI,MOSI, 0x00,  MISO, 0xFF
0.179343,SPI,MOSI, 0x00,  MISO, 0xFF
0.179373542,SPI,MOSI, 0x2A,  MISO, 0xFF
0.179381542,SPI,MOSI, 0xD4,  MISO, 0xFF
0.179391042,SPI,MOSI, 0x00,  MISO, 0xFF
0.179399042,SPI,MOSI, 0x00,  MISO, 0xFF
0.179428875,SPI,MOSI, 0x2A,  MISO, 0xFF
0.179436875,SPI,MOSI, 0xD4,  MISO, 0xFF
0.179446375,SPI,MOSI, 0x00,  MISO, 0xFF
0.179454375,SPI,MOSI, 0x00,  MISO, 0xFF
0.179484167,SPI,MOSI, 0x2A,  MISO, 0xFF
0.179492167,SPI,MOSI, 0xD4,  MISO, 0xFF
0.179501667,SPI,MOSI, 0x00,  MISO, 0xFF
0.179509667,SPI,MOSI, 0x00,  MISO, 0xFF
0.179571083,SPI,MOSI, 0x2A,  MISO, 0xFF
0.179579083,SPI,MOSI, 0xD4,  MISO, 0xFF
0.179588583,SPI,MOSI, 0x00,  MISO, 0xFF
0.179596583,SPI,MOSI, 0x00,  MISO, 0xFF
0.179628458,SPI,MOSI, 0x48,  MISO, 0xFF
0.179636458,SPI,MOSI, 0x84,  MISO, 0xFF
0.179645958,SPI,MOSI, 0x6B,  MISO, 0xFF
0.179653958,SPI,MOSI, 0x00,  MISO, 0xFF
0.179663458,SPI,MOSI, 0x00,  MISO, 0xFF
0.179671458,SPI,MOSI, 0x00,  MISO, 0xFF
0.179680958,SPI,MOSI, 0x00,  MISO, 0xFF
0.179688958,SPI,MOSI, 0x00,  MISO, 0xFF
0.179698458,SPI,MOSI, 0x00,  MISO, 0xFF
0.179706458,SPI,MOSI, 0x00,  MISO, 0xFF
0.179715958,SPI,MOSI, 0x00,  MISO, 0xFF
0.179723958,SPI,MOSI, 0x00,  MISO, 0xFF
0.179733458,SPI,MOSI, 0x00,  MISO, 0xFF
0.179741458,SPI,MOSI, 0x00,  MISO, 0xFF
0.179750958,SPI,MOSI, 0x00,  MISO, 0xFF
0.179758958,SPI,MOSI, 0x00,  MISO, 0xFF
0.179768458,SPI,MOSI, 0x00,  MISO, 0xFF
0.179776458,SPI,MOSI, 0x00,  MISO, 0xFF
0.179785958,SPI,MOSI, 0x00,  MISO, 0xFF
0.179793958,SPI,MOSI, 0x00,  MISO, 0xFF
0.179803458,SPI,MOSI, 0x00,  MISO, 0xFF
0.179811458,SPI,MOSI, 0x00,  MISO, 0xFF
0.179820958,SPI,MOSI, 0x00,  MISO, 0xFF
0.179828958,SPI,MOSI, 0x00,  MISO, 0xFF
0.179838458,SPI,MOSI, 0x00,  MISO, 0xFF
0.179846458,SPI,MOSI, 0x00,  MISO, 0xFF
0.179855958,SPI,MOSI, 0x00,  MISO, 0xFF
0.179863958,SPI,MOSI, 0x00,  MISO, 0xFF
0.179873458,SPI,MOSI, 0x00,  MISO, 0xFF
0.179881458,SPI,MOSI, 0x00,  MISO, 0xFF
0.179890958,SPI,MOSI, 0x00,  MISO, 0xFF
0.179898958,SPI,MOSI, 0x00,  MISO, 0xFF
0.179908458,SPI,MOSI, 0x00,  MISO, 0xFF
0.179916458,SPI,MOSI, 0x00,  MISO, 0xFF
0.179925958,SPI,MOSI, 0x00,  MISO, 0xFF
0.179933958,SPI,MOSI, 0x00,  MISO, 0xFF
0.179943458,SPI,MOSI, 0x00,  MISO, 0xFF
0.179951458,SPI,MOSI, 0x00,  MISO, 0xFF
0.179960958,SPI,MOSI, 0x00,  MISO, 0xFF
0.179968958,SPI,MOSI, 0x00,  MISO, 0xFF
0.179978458,SPI,MOSI, 0x00,  MISO, 0xFF
0.179986458,SPI,MOSI, 0x00,  MISO, 0xFF
0.179995958,SPI,MOSI, 0x00,  MISO, 0xFF
0.180003958,SPI,MOSI, 0x00,  MISO, 0xFF
0.180013458,SPI,MOSI, 0x00,  MISO, 0xFF
0.180021458,SPI,MOSI, 0x00,  MISO, 0xFF
0.180030958,SPI,MOSI, 0x00,  MISO, 0xFF
0.180038958,SPI,MOSI, 0x00,  MISO, 0xFF
0.180048458,SPI,MOSI, 0x00,  MISO, 0xFF
0.180056458,SPI,MOSI, 0x00,  MISO, 0xFF
0.180065958,SPI,MOSI, 0x00,  MISO, 0xFF
0.180073958,SPI,MOSI, 0x00,  MISO, 0xFF
0.180083458,SPI,MOSI, 0x00,  MISO, 0xFF
0.180091458,SPI,MOSI, 0x00,  MISO, 0xFF
0.180100958,SPI,MOSI, 0x00,  MISO, 0xFF
0.180108958,SPI,MOSI, 0x00,  MISO, 0xFF
0.180118458,SPI,MOSI, 0x00,  MISO, 0xFF
0.180126458,SPI,MOSI, 0x00,  MISO, 0xFF
0.180213708,SPI,MOSI, 0x49,  MISO, 0xFF
0.180221708,SPI,MOSI, 0x84,  MISO, 0xFF
0.180231208,SPI,MOSI, 0x82,  MISO, 0xFF
0.180239208,SPI,MOSI, 0x00,  MISO, 0x84
0.180248708,SPI,MOSI, 0x00,  MISO, 0xB7
0.180256708,SPI,MOSI, 0x00,  MISO, 0x9F
0.180266208,SPI,MOSI, 0x00,  MISO, 0xCB
0.180274208,SPI,MOSI, 0x00,  MISO, 0x9F
0.180283708,SPI,MOSI, 0x00,  MISO, 0x4A
0.180291708,SPI,MOSI, 0x00,  MISO, 0x9F
0.180301208,SPI,MOSI, 0x00,  MISO, 0x8F
0.180309208,SPI,MOSI, 0x00,  MISO, 0x61
0.180318708,SPI,MOSI, 0x00,  MISO, 0x84
0.180326708,SPI,MOSI, 0x00,  MISO, 0xB6
0.180336208,SPI,MOSI, 0x00,  MISO, 0x9F
0.180344208,SPI,MOSI, 0x00,  MISO, 0xB7
0.180353708,SPI,MOSI, 0x00,  MISO, 0x9F
0.180361708,SPI,MOSI, 0x00,  MISO, 0xBE
0.180371208,SPI,MOSI, 0x00,  MISO, 0x9F
0.180379208,SPI,MOSI, 0x00,  MISO, 0xB2
0.180388708,SPI,MOSI, 0x00,  MISO, 0xE2
0.180396708,SPI,MOSI, 0x00,  MISO, 0xFF
0.180406208,SPI,MOSI, 0x00,  MISO, 0xFF
0.180414208,SPI,MOSI, 0x00,  MISO, 0xFF
0.180423708,SPI,MOSI, 0x00,  MISO, 0xFF
0.180431708,SPI,MOSI, 0x00,  MISO, 0xFF
0.180441208,SPI,MOSI, 0x00,  MISO, 0xFF
0.180449208,SPI,MOSI, 0x00,  MISO, 0xFF
0.180458708,SPI,MOSI, 0x00,  MISO, 0xFF
0.180466708,SPI,MOSI, 0x00,  MISO, 0xFF
0.180476208,SPI,MOSI, 0x00,  MISO, 0xFF
0.180484208,SPI,MOSI, 0x00,  MISO, 0xFF
0.180493708,SPI,MOSI, 0x00,  MISO, 0xFF
0.180501708,SPI,MOSI, 0x00,  MISO, 0xFF
0.180511208,SPI,MOSI, 0x00,  MISO, 0xFF
0.180519208,SPI,MOSI, 0x00,  MISO, 0xFF
0.180528708,SPI,MOSI, 0x00,  MISO, 0xFF
0.180536708,SPI,MOSI, 0x00,  MISO, 0xFF
0.180546208,SPI,MOSI, 0x00,  MISO, 0xFF
0.180554208,SPI,MOSI, 0x00,  MISO, 0xFF
0.180563708,SPI,MOSI, 0x00,  MISO, 0xFF
0.180571708,SPI,MOSI, 0x00,  MISO, 0xFF
0.180581208,SPI,MOSI, 0x00,  MISO, 0xFF
0.180589208,SPI,MOSI, 0x00,  MISO, 0xFF
0.180598708,SPI,MOSI, 0x00,  MISO, 0xFF
0.180606708,SPI,MOSI, 0x00,  MISO, 0xFF
0.180616208,SPI,MOSI, 0x00,  MISO, 0xFF
0.180624208,SPI,MOSI, 0x00,  MISO, 0xFF
0.180633708,SPI,MOSI, 0x00,  MISO, 0xFF
0.180641708,SPI,MOSI, 0x00,  MISO, 0xFF
0.180651208,SPI,MOSI, 0x00,  MISO, 0xFF
0.180659208,SPI,MOSI, 0x00,  MISO, 0xFF
0.180668708,SPI,MOSI, 0x00,  MISO, 0xFF
0.180676708,SPI,MOSI, 0x00,  MISO, 0xFF
0.180686208,SPI,MOSI, 0x00,  MISO, 0xFF
0.180694208,SPI,MOSI, 0x00,  MISO, 0xFF
0.180703708,SPI,MOSI, 0x00,  MISO, 0xFF
0.180711708,SPI,MOSI, 0x00,  MISO, 0xFF
0.180721208,SPI,MOSI, 0x00,  MISO, 0xFF
0.180729208,SPI,MOSI, 0x00,  MISO, 0xFF
0.180738708,SPI,MOSI, 0x00,  MISO, 0xFF
0.180746708,SPI,MOSI, 0x00,  MISO, 0xFF
0.180756208,SPI,MOSI, 0x00,  MISO, 0xFF
0.180764208,SPI,MOSI, 0x00,  MISO, 0xFF
0.180773708,SPI,MOSI, 0x00,  MISO, 0xFF
0.180781708,SPI,MOSI, 0x00,  MISO, 0xFF
0.180791208,SPI,MOSI, 0x00,  MISO, 0xFF
0.180799208,SPI,MOSI, 0x00,  MISO, 0xFF
0.180808708,SPI,MOSI, 0x00,  MISO, 0xFF
0.180816708,SPI,MOSI, 0x00,  MISO, 0xFF
0.180826208,SPI,MOSI, 0x00,  MISO, 0xFF
0.180834208,SPI,MOSI, 0x00,  MISO, 0xFF
0.180843708,SPI,MOSI, 0x00,  MISO, 0xFF
0.180851708,SPI,MOSI, 0x00,  MISO, 0xFF
0.180861208,SPI,MOSI, 0x00,  MISO, 0xFF
0.180869208,SPI,MOSI, 0x00,  MISO, 0xFF
0.180942375,SPI,MOSI, 0x2A,  MISO, 0xFF
0.180950375,SPI,MOSI, 0xD4,  MISO, 0xFF
0.180959875,SPI,MOSI, 0x00,  MISO, 0xFF
0.180967875,SPI,MOSI, 0x00,  MISO, 0xFF
0.181192958,SPI,MOSI, 0x2A,  MISO, 0xFF
0.181200958,SPI,MOSI, 0xD4,  MISO, 0xFF
0.181210458,SPI,MOSI, 0x00,  MISO, 0xFF
0.181218458,SPI,MOSI, 0x00,  MISO, 0xFF
0.1812495,SPI,MOSI, 0x2A,  MISO, 0xFF
0.1812575,SPI,MOSI, 0xD4,  MISO, 0xFF
0.181267,SPI,MOSI, 0x00,  MISO, 0xFF
0.181275,SPI,MOSI, 0x00,  MISO, 0xFF
0.1813045,SPI,MOSI, 0x2A,  MISO, 0xFF
0.1813125,SPI,MOSI, 0xD4,  MISO, 0xFF
0.181322,SPI,MOSI, 0x00,  MISO, 0xFF
0.18133,SPI,MOSI, 0x00,  MISO, 0xFF
0.181359667,SPI,MOSI, 0x2A,  MISO, 0xFF
0.181367667,SPI,MOSI, 0xD4,  MISO, 0xFF
0.181377167,SPI,MOSI, 0x00,  MISO, 0xFF
0.181385167,SPI,MOSI, 0x00,  MISO, 0xFF
0.181414792,SPI,MOSI, 0x2A,  MISO, 0xFF
0.181422792,SPI,MOSI, 0xD4,  MISO, 0xFF
0.181432292,SPI,MOSI, 0x00,  MISO, 0xFF
0.181440292,SPI,MOSI, 0x00,  MISO, 0xFF
0.181469917,SPI,MOSI, 0x2A,  MISO, 0xFF
0.181477917,SPI,MOSI, 0xD4,  MISO, 0xFF
0.181487417,SPI,MOSI, 0x00,  MISO, 0xFF
0.181495417,SPI,MOSI, 0x00,  MISO, 0xFF
0.181526875,SPI,MOSI, 0x49,  MISO, 0xFF
0.181534875,SPI,MOSI, 0x84,  MISO, 0xFF
0.181544375,SPI,MOSI, 0x82,  MISO, 0xFF
0.181552375,SPI,MOSI, 0x00,  MISO, 0xFF
0.181561875,SPI,MOSI, 0x00,  MISO, 0xFF
0.181569875,SPI,MOSI, 0x00,  MISO, 0xFF
0.181579375,SPI,MOSI, 0x00,  MISO, 0xFF
0.181587375,SPI,MOSI, 0x00,  MISO, 0xFF
0.181596875,SPI,MOSI, 0x00,  MISO, 0xFF
0.181604875,SPI,MOSI, 0x00,  MISO, 0xFF
0.181614375,SPI,MOSI, 0x00,  MISO, 0xFF
0.181622375,SPI,MOSI, 0x00,  MISO, 0xFF
0.181631875,SPI,MOSI, 0x00,  MISO, 0xFF
0.181639875,SPI,MOSI, 0x00,  MISO, 0xFF
0.181649375,SPI,MOSI, 0x00,  MISO, 0xFF
0.181657375,SPI,MOSI, 0x00,  MISO, 0xFF
0.181666875,SPI,MOSI, 0x00,  MISO, 0xFF
0.181674875,SPI,MOSI, 0x00,  MISO, 0xFF
0.181684375,SPI,MOSI, 0x00,  MISO, 0xFF
0.181692375,SPI,MOSI, 0x00,  MISO, 0xFF
0.181701875,SPI,MOSI, 0x00,  MISO, 0xFF
0.181709875,SPI,MOSI, 0x00,  MISO, 0xFF
0.181719375,SPI,MOSI, 0x00,  MISO, 0xFF
0.181727375,SPI,MOSI, 0x00,  MISO, 0xFF
0.181736875,SPI,MOSI, 0x00,  MISO, 0xFF
0.181744875,SPI,MOSI, 0x00,  MISO, 0xFF
0.181754375,SPI,MOSI, 0x00,  MISO, 0xFF
0.181762375,SPI,MOSI, 0x00,  MISO, 0xFF
0.181771875,SPI,MOSI, 0x00,  MISO, 0xFF
0.181779875,SPI,MOSI, 0x00,  MISO, 0xFF
0.181789375,SPI,MOSI, 0x00,  MISO, 0xFF
0.181797375,SPI,MOSI, 0x00,  MISO, 0xFF
0.181806875,SPI,MOSI, 0x00,  MISO, 0xFF
0.181814875,SPI,MOSI, 0x00,  MISO, 0xFF
0.181824375,SPI,MOSI, 0x00,  MISO, 0xFF
0.181832375,SPI,MOSI, 0x00,  MISO, 0xFF
0.181841875,SPI,MOSI, 0x00,  MISO, 0xFF
0.181849875,SPI,MOSI, 0x00,  MISO, 0xFF
0.181859375,SPI,MOSI, 0x00,  MISO, 0xFF
0.181867375,SPI,MOSI, 0x00,  MISO, 0xFF
0.181876875,SPI,MOSI, 0x00,  MISO, 0xFF
0.181884875,SPI,MOSI, 0x00,  MISO, 0xFF
0.181894375,SPI,MOSI, 0x00,  MISO, 0xFF
0.181902375,SPI,MOSI, 0x00,  MISO, 0xFF
0.181911875,SPI,MOSI, 0x00,  MISO, 0xFF
0.181919875,SPI,MOSI, 0x00,  MISO, 0xFF
0.181929375,SPI,MOSI, 0x00,  MISO, 0xFF
0.181937375,SPI,MOSI, 0x00,  MISO, 0xFF
0.181946875,SPI,MOSI, 0x00,  MISO, 0xFF
0.181954875,SPI,MOSI, 0x00,  MISO, 0xFF
0.181964375,SPI,MOSI, 0x00,  MISO, 0xFF
0.181972375,SPI,MOSI, 0x00,  MISO, 0xFF
0.181981875,SPI,MOSI, 0x00,  MISO, 0xFF
0.181989875,SPI,MOSI, 0x00,  MISO, 0xFF
0.181999375,SPI,MOSI, 0x00,  MISO, 0xFF
0.182007375,SPI,MOSI, 0x00,  MISO, 0xFF
0.182016875,SPI,MOSI, 0x00,  MISO, 0xFF
0.182024875,SPI,MOSI, 0x00,  MISO, 0xFF
0.182222625,SPI,MOSI, 0x4A,  MISO, 0xFF
0.182230625,SPI,MOSI, 0x84,  MISO, 0xFF
0.182240125,SPI,MOSI, 0x96,  MISO, 0xFF
0.182248125,SPI,MOSI, 0x00,  MISO, 0x84
0.182257625,SPI,MOSI, 0x00,  MISO, 0xDA
0.182265625,SPI,MOSI, 0x00,  MISO, 0x9F
0.182275125,SPI,MOSI, 0x00,  MISO, 0xD3
0.182283125,SPI,MOSI, 0x00,  MISO, 0x9F
0.182292625,SPI,MOSI, 0x00,  MISO, 0x99
0.182300625,SPI,MOSI, 0x00,  MISO, 0xA1
0.182310125,SPI,MOSI, 0x00,  MISO, 0xBD
0.182318125,SPI,MOSI, 0x00,  MISO, 0x82
0.182327625,SPI,MOSI, 0x00,  MISO, 0x84
0.182335625,SPI,MOSI, 0x00,  MISO, 0x6A
0.182345125,SPI,MOSI, 0x00,  MISO, 0x9F
0.182353125,SPI,MOSI, 0x00,  MISO, 0xC4
0.182362625,SPI,MOSI, 0x00,  MISO, 0x9F
0.182370625,SPI,MOSI, 0x00,  MISO, 0xCB
0.182380125,SPI,MOSI, 0x00,  MISO, 0x9F
0.182388125,SPI,MOSI, 0x00,  MISO, 0xA9
0.182397625,SPI,MOSI, 0x00,  MISO, 0x06
0.182405625,SPI,MOSI, 0x00,  MISO, 0xFF
0.182415125,SPI,MOSI, 0x00,  MISO, 0xFF
0.182423125,SPI,MOSI, 0x00,  MISO, 0xFF
0.182432625,SPI,MOSI, 0x00,  MISO, 0xFF
0.182440625,SPI,MOSI, 0x00,  MISO, 0xFF
0.182450125,SPI,MOSI, 0x00,  MISO, 0xFF
0.182458125,SPI,MOSI, 0x00,  MISO, 0xFF
0.182467625,SPI,MOSI, 0x00,  MISO, 0xFF
0.182475625,SPI,MOSI, 0x00,  MISO, 0xFF
0.182485125,SPI,MOSI, 0x00,  MISO, 0xFF
0.182493125,SPI,MOSI, 0x00,  MISO, 0xFF
0.182502625,SPI,MOSI, 0x00,  MISO, 0xFF
0.182510625,SPI,MOSI, 0x00,  MISO, 0xFF
0.182520125,SPI,MOSI, 0x00,  MISO, 0xFF
0.182528125,SPI,MOSI, 0x00,  MISO, 0xFF
0.182537625,SPI,MOSI, 0x00,  MISO, 0xFF
0.182545625,SPI,MOSI, 0x00,  MISO, 0xFF
0.182555125,SPI,MOSI, 0x00,  MISO, 0xFF
0.182563125,SPI,MOSI, 0x00,  MISO, 0xFF
0.182572625,SPI,MOSI, 0x00,  MISO, 0xFF
0.182580625,SPI,MOSI, 0x00,  MISO, 0xFF
0.182590125,SPI,MOSI, 0x00,  MISO, 0xFF
0.182598125,SPI,MOSI, 0x00,  MISO, 0xFF
0.182607625,SPI,MOSI, 0x00,  MISO, 0xFF
0.182615625,SPI,MOSI, 0x00,  MISO, 0xFF
0.182625125,SPI,MOSI, 0x00,  MISO, 0xFF
0.182633125,SPI,MOSI, 0x00,  MISO, 0xFF
0.182642625,SPI,MOSI, 0x00,  MISO, 0xFF
0.182650625,SPI,MOSI, 0x00,  MISO, 0xFF
0.182660125,SPI,MOSI, 0x00,  MISO, 0xFF
0.182668125,SPI,MOSI, 0x00,  MISO, 0xFF
0.182677625,SPI,MOSI, 0x00,  MISO, 0xFF
0.182685625,SPI,MOSI, 0x00,  MISO, 0xFF
0.182695125,SPI,MOSI, 0x00,  MISO, 0xFF
0.182703125,SPI,MOSI, 0x00,  MISO, 0xFF
0.182712625,SPI,MOSI, 0x00,  MISO, 0xFF
0.182720625,SPI,MOSI, 0x00,  MISO, 0xFF
0.182730125,SPI,MOSI, 0x00,  MISO, 0xFF
0.182738125,SPI,MOSI, 0x00,  MISO, 0xFF
0.182747625,SPI,MOSI, 0x00,  MISO, 0xFF
0.182755625,SPI,MOSI, 0x00,  MISO, 0xFF
0.182765125,SPI,MOSI, 0x00,  MISO, 0xFF
0.182773125,SPI,MOSI, 0x00,  MISO, 0xFF
0.182782625,SPI,MOSI, 0x00,  MISO, 0xFF
0.182790625,SPI,MOSI, 0x00,  MISO, 0xFF
0.182800125,SPI,MOSI, 0x00,  MISO, 0xFF
0.182808125,SPI,MOSI, 0x00,  MISO, 0xFF
0.182817625,SPI,MOSI, 0x00,  MISO, 0xFF
0.182825625,SPI,MOSI, 0x00,  MISO, 0xFF
0.182835125,SPI,MOSI, 0x00,  MISO, 0xFF
0.182843125,SPI,MOSI, 0x00,  MISO, 0xFF
0.182852625,SPI,MOSI, 0x00,  MISO, 0xFF
0.182860625,SPI,MOSI, 0x00,  MISO, 0xFF
0.182870125,SPI,MOSI, 0x00,  MISO, 0xFF
0.182878125,SPI,MOSI, 0x00,  MISO, 0xFF
0.182961292,SPI,MOSI, 0x2A,  MISO, 0xFF
0.182969292,SPI,MOSI, 0xD4,  MISO, 0xFF
0.182978792,SPI,MOSI, 0x00,  MISO, 0xFF
0.182986792,SPI,MOSI, 0x00,  MISO, 0xFF
0.183199583,SPI,MOSI, 0x2A,  MISO, 0xFF
0.183207583,SPI,MOSI, 0xD4,  MISO, 0xFF
0.183217083,SPI,MOSI, 0x00,  MISO, 0xFF
0.183225083,SPI,MOSI, 0x00,  MISO, 0xFF
0.18325625,SPI,MOSI, 0x2A,  MISO, 0xFF
0.18326425,SPI,MOSI, 0xD4,  MISO, 0xFF
0.18327375,SPI,MOSI, 0x00,  MISO, 0xFF
0.18328175,SPI,MOSI, 0x00,  MISO, 0xFF
0.183311417,SPI,MOSI, 0x2A,  MISO, 0xFF
0.183319417,SPI,MOSI, 0xD4,  MISO, 0xFF
0.183328917,SPI,MOSI, 0x00,  MISO, 0xFF
0.183336917,SPI,MOSI, 0x00,  MISO, 0xFF
0.183366667,SPI,MOSI, 0x2A,  MISO, 0xFF
0.183374708,SPI,MOSI, 0xD4,  MISO, 0xFF
0.183384208,SPI,MOSI, 0x00,  MISO, 0xFF
0.183392208,SPI,MOSI, 0x00,  MISO, 0xFF
0.183421833,SPI,MOSI, 0x2A,  MISO, 0xFF
0.183429792,SPI,MOSI, 0xD4,  MISO, 0xFF
0.183439333,SPI,MOSI, 0x00,  MISO, 0xFF
0.183447292,SPI,MOSI, 0x00,  MISO, 0xFF
0.183477083,SPI,MOSI, 0x2A,  MISO, 0xFF
0.183485083,SPI,MOSI, 0xD4,  MISO, 0xFF
0.183494583,SPI,MOSI, 0x00,  MISO, 0xFF
0.183502583,SPI,MOSI, 0x00,  MISO, 0xFF
0.183534208,SPI,MOSI, 0x4A,  MISO, 0xFF
0.183542208,SPI,MOSI, 0x84,  MISO, 0xFF
0.183551708,SPI,MOSI, 0x96,  MISO, 0xFF
0.183559708,SPI,MOSI, 0x00,  MISO, 0xFF
0.183569208,SPI,MOSI, 0x00,  MISO, 0xFF
0.183577208,SPI,MOSI, 0x00,  MISO, 0xFF
0.183586708,SPI,MOSI, 0x00,  MISO, 0xFF
0.183594708,SPI,MOSI, 0x00,  MISO, 0xFF
0.183604208,SPI,MOSI, 0x00,  MISO, 0xFF
0.183612208,SPI,MOSI, 0x00,  MISO, 0xFF
0.183621708,SPI,MOSI, 0x00,  MISO, 0xFF
0.183629708,SPI,MOSI, 0x00,  MISO, 0xFF
0.183639208,SPI,MOSI, 0x00,  MISO, 0xFF
0.183647208,SPI,MOSI, 0x00,  MISO, 0xFF
0.183656708,SPI,MOSI, 0x00,  MISO, 0xFF
0.183664708,SPI,MOSI, 0x00,  MISO, 0xFF
0.183674208,SPI,MOSI, 0x00,  MISO, 0xFF
0.183682208,SPI,MOSI, 0x00,  MISO, 0xFF
0.183691708,SPI,MOSI, 0x00,  MISO, 0xFF
0.183699708,SPI,MOSI, 0x00,  MISO, 0xFF
0.183709208,SPI,MOSI, 0x00,  MISO, 0xFF
0.183717208,SPI,MOSI, 0x00,  MISO, 0xFF
0.183726708,SPI,MOSI, 0x00,  MISO, 0xFF
0.183734708,SPI,MOSI, 0x00,  MISO, 0xFF
0.183744208,SPI,MOSI, 0x00,  MISO, 0xFF
0.183752208,SPI,MOSI, 0x00,  MISO, 0xFF
0.183761708,SPI,MOSI, 0x00,  MISO, 0xFF
0.183769708,SPI,MOSI, 0x00,  MISO, 0xFF
0.183779208,SPI,MOSI, 0x00,  MISO, 0xFF
0.183787208,SPI,MOSI, 0x00,  MISO, 0xFF
0.183796708,SPI,MOSI, 0x00,  MISO, 0xFF
0.183804708,SPI,MOSI, 0x00,  MISO, 0xFF
0.183814208,SPI,MOSI, 0x00,  MISO, 0xFF
0.183822208,SPI,MOSI, 0x00,  MISO, 0xFF
0.183831708,SPI,MOSI, 0x00,  MISO, 0xFF
0.183839708,SPI,MOSI, 0x00,  MISO, 0xFF
0.183849208,SPI,MOSI, 0x00,  MISO, 0xFF
0.183857208,SPI,MOSI, 0x00,  MISO, 0xFF
0.183866708,SPI,MOSI, 0x00,  MISO, 0xFF
0.183874708,SPI,MOSI, 0x00,  MISO, 0xFF
0.183884208,SPI,MOSI, 0x00,  MISO, 0xFF
0.183892208,SPI,MOSI, 0x00,  MISO, 0xFF
0.183901708,SPI,MOSI, 0x00,  MISO, 0xFF
0.183909708,SPI,MOSI, 0x00,  MISO, 0xFF
0.183919208,SPI,MOSI, 0x00,  MISO, 0xFF
0.183927208,SPI,MOSI, 0x00,  MISO, 0xFF
0.183936708,SPI,MOSI, 0x00,  MISO, 0xFF
0.183944708,SPI,MOSI, 0x00,  MISO, 0xFF
0.183954208,SPI,MOSI, 0x00,  MISO, 0xFF
0.183962208,SPI,MOSI, 0x00,  MISO, 0xFF
0.183971708,SPI,MOSI, 0x00,  MISO, 0xFF
0.183979708,SPI,MOSI, 0x00,  MISO, 0xFF
0.183989208,SPI,MOSI, 0x00,  MISO, 0xFF
0.183997208,SPI,MOSI, 0x00,  MISO, 0xFF
0.184006708,SPI,MOSI, 0x00,  MISO, 0xFF
0.184014708,SPI,MOSI, 0x00,  MISO, 0xFF
0.184024208,SPI,MOSI, 0x00,  MISO, 0xFF
0.184032208,SPI,MOSI, 0x00,  MISO, 0xFF
0.184196417,SPI,MOSI, 0x4B,  MISO, 0xFF
0.184204417,SPI,MOSI, 0x84,  MISO, 0xFF
0.184213917,SPI,MOSI, 0x7F,  MISO, 0xFF
0.184221917,SPI,MOSI, 0x00,  MISO, 0x84
0.184231417,SPI,MOSI, 0x00,  MISO, 0x35
0.184239417,SPI,MOSI, 0x00,  MISO, 0xA0
0.184248917,SPI,MOSI, 0x00,  MISO, 0x00
0.184256917,SPI,MOSI, 0x00,  MISO, 0x00
0.184266417,SPI,MOSI, 0x00,  MISO, 0x02
0.184274417,SPI,MOSI, 0x00,  MISO, 0x00
0.184283917,SPI,MOSI, 0x00,  MISO, 0xB3
0.184291917,SPI,MOSI, 0x00,  MISO, 0x47
0.184301417,SPI,MOSI, 0x00,  MISO, 0x84
0.184309417,SPI,MOSI, 0x00,  MISO, 0x00
0.184318917,SPI,MOSI, 0x00,  MISO, 0x00
0.184326917,SPI,MOSI, 0x00,  MISO, 0x02
0.184336417,SPI,MOSI, 0x00,  MISO, 0x00
0.184344417,SPI,MOSI, 0x00,  MISO, 0x02
0.184353917,SPI,MOSI, 0x00,  MISO, 0x00
0.184361917,SPI,MOSI, 0x00,  MISO, 0x8E
0.184371417,SPI,MOSI, 0x00,  MISO, 0x3B
0.184379417,SPI,MOSI, 0x00,  MISO, 0xFF
0.184388917,SPI,MOSI, 0x00,  MISO, 0xFF
0.184396917,SPI,MOSI, 0x00,  MISO, 0xFF
0.184406417,SPI,MOSI, 0x00,  MISO, 0xFF
0.184414417,SPI,MOSI, 0x00,  MISO, 0xFF
0.184423917,SPI,MOSI, 0x00,  MISO, 0xFF
0.184431917,SPI,MOSI, 0x00,  MISO, 0xFF
0.184441417,SPI,MOSI, 0x00,  MISO, 0xFF
0.184449417,SPI,MOSI, 0x00,  MISO, 0xFF
0.184458917,SPI,MOSI, 0x00,  MISO, 0xFF
0.184466917,SPI,MOSI, 0x00,  MISO, 0xFF
0.184476417,SPI,MOSI, 0x00,  MISO, 0xFF
0.184484417,SPI,MOSI, 0x00,  MISO, 0xFF
0.184493958,SPI,MOSI, 0x00,  MISO, 0xFF
0.184501917,SPI,MOSI, 0x00,  MISO, 0xFF
0.184511458,SPI,MOSI, 0x00,  MISO, 0xFF
0.184519458,SPI,MOSI, 0x00,  MISO, 0xFF
0.184528958,SPI,MOSI, 0x00,  MISO, 0xFF
0.184536958,SPI,MOSI, 0x00,  MISO, 0xFF
0.184546458,SPI,MOSI, 0x00,  MISO, 0xFF
0.184554458,SPI,MOSI, 0x00,  MISO, 0xFF
0.184563958,SPI,MOSI, 0x00,  MISO, 0xFF
0.184571958,SPI,MOSI, 0x00,  MISO, 0xFF
0.184581458,SPI,MOSI, 0x00,  MISO, 0xFF
0.184589458,SPI,MOSI, 0x00,  MISO, 0xFF
0.184598958,SPI,MOSI, 0x00,  MISO, 0xFF
0.184606958,SPI,MOSI, 0x00,  MISO, 0xFF
0.184616458,SPI,MOSI, 0x00,  MISO, 0xFF
0.184624458,SPI,MOSI, 0x00,  MISO, 0xFF
0.184633917,SPI,MOSI, 0x00,  MISO, 0xFF
0.184641958,SPI,MOSI, 0x00,  MISO, 0xFF
0.184651417,SPI,MOSI, 0x00,  MISO, 0xFF
0.184659458,SPI,MOSI, 0x00,  MISO, 0xFF
0.184668958,SPI,MOSI, 0x00,  MISO, 0xFF
0.184676958,SPI,MOSI, 0x00,  MISO, 0xFF
0.184686458,SPI,MOSI, 0x00,  MISO, 0xFF
0.184694458,SPI,MOSI, 0x00,  MISO, 0xFF
0.184703958,SPI,MOSI, 0x00,  MISO, 0xFF
0.184711958,SPI,MOSI, 0x00,  MISO, 0xFF
0.184721458,SPI,MOSI, 0x00,  MISO, 0xFF
0.184729458,SPI,MOSI, 0x00,  MISO, 0xFF
0.184738958,SPI,MOSI, 0x00,  MISO, 0xFF
0.184746958,SPI,MOSI, 0x00,  MISO, 0xFF
0.184756458,SPI,MOSI, 0x00,  MISO, 0xFF
0.184764458,SPI,MOSI, 0x00,  MISO, 0xFF
0.184773958,SPI,MOSI, 0x00,  MISO, 0xFF
0.184781958,SPI,MOSI, 0x00,  MISO, 0xFF
0.184791458,SPI,MOSI, 0x00,  MISO, 0xFF
0.184799458,SPI,MOSI, 0x00,  MISO, 0xFF
0.184808958,SPI,MOSI, 0x00,  MISO, 0xFF
0.184816958,SPI,MOSI, 0x00,  MISO, 0xFF
0.184826458,SPI,MOSI, 0x00,  MISO, 0xFF
0.184834458,SPI,MOSI, 0x00,  MISO, 0xFF
0.184843958,SPI,MOSI, 0x00,  MISO, 0xFF
0.184851958,SPI,MOSI, 0x00,  MISO, 0xFF
0.184892833,SPI,MOSI, 0x2A,  MISO, 0xFF
0.184900833,SPI,MOSI, 0xD4,  MISO, 0xFF
0.184910333,SPI,MOSI, 0x00,  MISO, 0xFF
0.184918333,SPI,MOSI, 0x00,  MISO, 0xFF
0.184956208,SPI,MOSI, 0x2A,  MISO, 0xFF
0.184964208,SPI,MOSI, 0xD4,  MISO, 0xFF
0.184973708,SPI,MOSI, 0x00,  MISO, 0xFF
0.184981708,SPI,MOSI, 0x00,  MISO, 0xFF
0.185194833,SPI,MOSI, 0x2A,  MISO, 0xFF
0.185202833,SPI,MOSI, 0xD4,  MISO, 0xFF
0.185212333,SPI,MOSI, 0x00,  MISO, 0xFF
0.185220333,SPI,MOSI, 0x00,  MISO, 0xFF
0.185251542,SPI,MOSI, 0x2A,  MISO, 0xFF
0.185259542,SPI,MOSI, 0xD4,  MISO, 0xFF
0.185269042,SPI,MOSI, 0x00,  MISO, 0xFF
0.185277042,SPI,MOSI, 0x00,  MISO, 0xFF
0.18530725,SPI,MOSI, 0x2A,  MISO, 0xFF
0.18531525,SPI,MOSI, 0xD4,  MISO, 0xFF
0.18532475,SPI,MOSI, 0x00,  MISO, 0xFF
0.18533275,SPI,MOSI, 0x00,  MISO, 0xFF
0.18536275,SPI,MOSI, 0x2A,  MISO, 0xFF
0.18537075,SPI,MOSI, 0xD4,  MISO, 0xFF
0.18538025,SPI,MOSI, 0x00,  MISO, 0xFF
0.18538825,SPI,MOSI, 0x00,  MISO, 0xFF
0.185418667,SPI,MOSI, 0x2A,  MISO, 0xFF
0.185426667,SPI,MOSI, 0xD4,  MISO, 0xFF
0.185436167,SPI,MOSI, 0x00,  MISO, 0xFF
0.185444167,SPI,MOSI, 0x00,  MISO, 0xFF
0.185476417,SPI,MOSI, 0x4B,  MISO, 0xFF
0.185484417,SPI,MOSI, 0x84,  MISO, 0xFF
0.185493917,SPI,MOSI, 0x7F,  MISO, 0xFF
0.185501917,SPI,MOSI, 0x00,  MISO, 0xFF
0.185511417,SPI,MOSI, 0x00,  MISO, 0xFF
0.185519417,SPI,MOSI, 0x00,  MISO, 0xFF
0.185528917,SPI,MOSI, 0x00,  MISO, 0xFF
0.185536917,SPI,MOSI, 0x00,  MISO, 0xFF
0.185546417,SPI,MOSI, 0x00,  MISO, 0xFF
0.185554417,SPI,MOSI, 0x00,  MISO, 0xFF
0.185563917,SPI,MOSI, 0x00,  MISO, 0xFF
0.185571917,SPI,MOSI, 0x00,  MISO, 0xFF
0.185581417,SPI,MOSI, 0x00,  MISO, 0xFF
0.185589417,SPI,MOSI, 0x00,  MISO, 0xFF
0.185598917,SPI,MOSI, 0x00,  MISO, 0xFF
0.185606917,SPI,MOSI, 0x00,  MISO, 0xFF
0.185616417,SPI,MOSI, 0x00,  MISO, 0xFF
0.185624417,SPI,MOSI, 0x00,  MISO, 0xFF
0.185633917,SPI,MOSI, 0x00,  MISO, 0xFF
0.185641917,SPI,MOSI, 0x00,  MISO, 0xFF
0.185651417,SPI,MOSI, 0x00,  MISO, 0xFF
0.185659417,SPI,MOSI, 0x00,  MISO, 0xFF
0.185668917,SPI,MOSI, 0x00,  MISO, 0xFF
0.185676917,SPI,MOSI, 0x00,  MISO, 0xFF
0.185686417,SPI,MOSI, 0x00,  MISO, 0xFF
0.185694417,SPI,MOSI, 0x00,  MISO, 0xFF
0.185703917,SPI,MOSI, 0x00,  MISO, 0xFF
0.185711917,SPI,MOSI, 0x00,  MISO, 0xFF
0.185721417,SPI,MOSI, 0x00,  MISO, 0xFF
0.185729417,SPI,MOSI, 0x00,  MISO, 0xFF
0.185738917,SPI,MOSI, 0x00,  MISO, 0xFF
0.185746917,SPI,MOSI, 0x00,  MISO, 0xFF
0.185756417,SPI,MOSI, 0x00,  MISO, 0xFF
0.185764417,SPI,MOSI, 0x00,  MISO, 0xFF
0.185773917,SPI,MOSI, 0x00,  MISO, 0xFF
0.185781917,SPI,MOSI, 0x00,  MISO, 0xFF
0.185791417,SPI,MOSI, 0x00,  MISO, 0xFF
0.185799417,SPI,MOSI, 0x00,  MISO, 0xFF
0.185808917,SPI,MOSI, 0x00,  MISO, 0xFF
0.185816917,SPI,MOSI, 0x00,  MISO, 0xFF
0.185826417,SPI,MOSI, 0x00,  MISO, 0xFF
0.185834417,SPI,MOSI, 0x00,  MISO, 0xFF
0.185843917,SPI,MOSI, 0x00,  MISO, 0xFF
0.185851917,SPI,MOSI, 0x00,  MISO, 0xFF
0.185861417,SPI,MOSI, 0x00,  MISO, 0xFF
0.185869417,SPI,MOSI, 0x00,  MISO, 0xFF
0.185878917,SPI,MOSI, 0x00,  MISO, 0xFF
0.185886917,SPI,MOSI, 0x00,  MISO, 0xFF
0.185896417,SPI,MOSI, 0x00,  MISO, 0xFF
0.185904417,SPI,MOSI, 0x00,  MISO, 0xFF
0.185913917,SPI,MOSI, 0x00,  MISO, 0xFF
0.185921917,SPI,MOSI, 0x00,  MISO, 0xFF
0.185931417,SPI,MOSI, 0x00,  MISO, 0xFF
0.185939417,SPI,MOSI, 0x00,  MISO, 0xFF
0.185948917,SPI,MOSI, 0x00,  MISO, 0xFF
0.185956917,SPI,MOSI, 0x00,  MISO, 0xFF
0.185966417,SPI,MOSI, 0x00,  MISO, 0xFF
0.185974417,SPI,MOSI, 0x00,  MISO, 0xFF
0.1862315,SPI,MOSI, 0x4C,  MISO, 0xFF
0.1862395,SPI,MOSI, 0x84,  MISO, 0xFF
0.186249,SPI,MOSI, 0xBE,  MISO, 0xFF
0.186257,SPI,MOSI, 0x00,  MISO, 0x84
0.1862665,SPI,MOSI, 0x00,  MISO, 0x02
0.1862745,SPI,MOSI, 0x00,  MISO, 0x00
0.186284,SPI,MOSI, 0x00,  MISO, 0xA7
0.186292,SPI,MOSI, 0x00,  MISO, 0x81
0.1863015,SPI,MOSI, 0x00,  MISO, 0xB3
0.1863095,SPI,MOSI, 0x00,  MISO, 0xA3
0.186319,SPI,MOSI, 0x00,  MISO, 0x84
0.186327,SPI,MOSI, 0x00,  MISO, 0x02
0.1863365,SPI,MOSI, 0x00,  MISO, 0x00
0.1863445,SPI,MOSI, 0x00,  MISO, 0xAB
0.186354,SPI,MOSI, 0x00,  MISO, 0x77
0.186362,SPI,MOSI, 0x00,  MISO, 0xA9
0.1863715,SPI,MOSI, 0x00,  MISO, 0x05
