Time [s], Analyzer Name, Decoded Protocol Result,,,,,,,,,,
0.06476825,SPI,MOSI, 0x00,  MISO, 0x21,2,1,,10,1,,
0.06477625,SPI,MOSI, 0x00,  MISO, 0xF2,F,2,,,,,
0.064844,SPI,MOSI, 0x00,  MISO, 0x21,,,,,,,
0.064852,SPI,MOSI, 0x00,  MISO, 0xF2,,,,,,,
0.064884,SPI,MOSI, 0x00,  MISO, 0x21,,,,,,,
0.064892,SPI,MOSI, 0x00,  MISO, 0xF2,,,,,,,
0.06492375,SPI,MOSI, 0x00,  MISO, 0x21,,,,,,,
0.06493175,SPI,MOSI, 0x00,  MISO, 0xF2,,,,,,,
0.06496325,SPI,MOSI, 0x00,  MISO, 0x21,,,,,,,
0.06497125,SPI,MOSI, 0x00,  MISO, 0xF2,,,,,,,
0.06502425,SPI,MOSI, 0x00,  MISO, 0x21,,,,,,,
0.06503225,SPI,MOSI, 0x00,  MISO, 0xF2,,,,,,,
0.065274,SPI,MOSI, 0x00,  MISO, 0xA1,,,,,,,
0.065282,SPI,MOSI, 0x00,  MISO, 0xF2,,,,,,Start Status Group ADC Conversion with Digital Redundancy and Poll Status ADSTATD 1 0 MD[1] MD[0] 0 0 0 1 CHST[2] CHST[1] CHST[0,
0.06533775,SPI,MOSI, 0x00,  MISO, 0x21,,,,,,,
0.06534575,SPI,MOSI, 0x00,  MISO, 0xF2,,,,,,,
0.065379,SPI,MOSI, 0x00,  MISO, 0x4D,4,D,,100,1101,,ADSTATD
0.065387,SPI,MOSI, 0x00,  MISO, 0xA1,A,1,,,,,
0.065395,SPI,MOSI, 0x00,  MISO, 0xB7,B7,,,183,,,
0.065403,SPI,MOSI, 0x00,  MISO, 0x00,,,,,,,
0.065411,SPI,MOSI, 0x00,  MISO, 0x00,,,,,,,
0.065419,SPI,MOSI, 0x00,  MISO, 0x00,,,,,,,
0.065427,SPI,MOSI, 0x00,  MISO, 0x00,,,,,,,
0.065435,SPI,MOSI, 0x00,  MISO, 0x00,,,,,,,
0.065443,SPI,MOSI, 0x00,  MISO, 0x00,,,,,,,
0.065451,SPI,MOSI, 0x00,  MISO, 0x00,,,,,,,
0.065459,SPI,MOSI, 0x00,  MISO, 0x00,,,,,,,
0.065467,SPI,MOSI, 0x00,  MISO, 0x00,,,,,,,
0.065475,SPI,MOSI, 0x00,  MISO, 0x00,,,,,,,
0.065483,SPI,MOSI, 0x00,  MISO, 0x00,,,,,,,
0.065491,SPI,MOSI, 0x00,  MISO, 0x00,,,,,,,
0.065499,SPI,MOSI, 0x00,  MISO, 0x00,,,,,,,
0.065507,SPI,MOSI, 0x00,  MISO, 0x00,,,,,,,
0.065515,SPI,MOSI, 0x00,  MISO, 0x00,,,,,,,
0.065523,SPI,MOSI, 0x00,  MISO, 0x00,,,,,,,
0.065531,SPI,MOSI, 0x00,  MISO, 0x00,,,,,,,
0.065539,SPI,MOSI, 0x00,  MISO, 0x00,,,,,,,
0.065547,SPI,MOSI, 0x00,  MISO, 0x00,,,,,,,
0.065555,SPI,MOSI, 0x00,  MISO, 0x00,,,,,,,
0.065563,SPI,MOSI, 0x00,  MISO, 0x00,,,,,,,
0.065571,SPI,MOSI, 0x00,  MISO, 0x00,,,,,,,
0.065579,SPI,MOSI, 0x00,  MISO, 0x00,,,,,,,
0.065587,SPI,MOSI, 0x00,  MISO, 0x00,,,,,,,
0.065595,SPI,MOSI, 0x00,  MISO, 0x00,,,,,,,
0.065603,SPI,MOSI, 0x00,  MISO, 0x00,,,,,,,
0.065611,SPI,MOSI, 0x00,  MISO, 0x00,,,,,,,
0.065619,SPI,MOSI, 0x00,  MISO, 0x00,,,,,,,
0.065627,SPI,MOSI, 0x00,  MISO, 0x00,,,,,,,
0.065635,SPI,MOSI, 0x00,  MISO, 0x00,,,,,,,
0.065643,SPI,MOSI, 0x00,  MISO, 0x00,,,,,,,
0.065651,SPI,MOSI, 0x00,  MISO, 0x00,,,,,,,
0.065659,SPI,MOSI, 0x00,  MISO, 0x00,,,,,,,
0.065667,SPI,MOSI, 0x00,  MISO, 0x00,,,,,,,
0.065675,SPI,MOSI, 0x00,  MISO, 0x00,,,,,,,
0.065683,SPI,MOSI, 0x00,  MISO, 0x00,,,,,,,
0.065691,SPI,MOSI, 0x00,  MISO, 0x00,,,,,,,
0.065699,SPI,MOSI, 0x00,  MISO, 0x00,,,,,,,
0.065707,SPI,MOSI, 0x00,  MISO, 0x00,,,,,,,
0.065715,SPI,MOSI, 0x00,  MISO, 0x00,,,,,,,
0.065723,SPI,MOSI, 0x00,  MISO, 0x00,,,,,,,
0.065731,SPI,MOSI, 0x00,  MISO, 0x00,,,,,,,
0.065739,SPI,MOSI, 0x00,  MISO, 0x00,,,,,,,
0.065747,SPI,MOSI, 0x00,  MISO, 0x00,,,,,,,
0.065755,SPI,MOSI, 0x00,  MISO, 0x00,,,,,,,
0.065763,SPI,MOSI, 0x00,  MISO, 0x00,,,,,,,
0.065771,SPI,MOSI, 0x00,  MISO, 0x00,,,,,,,
0.065779,SPI,MOSI, 0x00,  MISO, 0x00,,,,,,,
0.065787,SPI,MOSI, 0x00,  MISO, 0x00,,,,,,,
0.065795,SPI,MOSI, 0x00,  MISO, 0x00,,,,,,,
0.065803,SPI,MOSI, 0x00,  MISO, 0x00,,,,,,,
0.065811,SPI,MOSI, 0x00,  MISO, 0x00,,,,,,,
0.065819,SPI,MOSI, 0x00,  MISO, 0x00,,,,,,,
0.065827,SPI,MOSI, 0x00,  MISO, 0x00,,,,,,,
0.065835,SPI,MOSI, 0x00,  MISO, 0x00,,,,,,,
0.065843,SPI,MOSI, 0x00,  MISO, 0x00,,,,,,,
0.065851,SPI,MOSI, 0x00,  MISO, 0x00,,,,,,,
0.065859,SPI,MOSI, 0x00,  MISO, 0x00,,,,,,,
0.065867,SPI,MOSI, 0x00,  MISO, 0x00,,,,,,,
0.065875,SPI,MOSI, 0x00,  MISO, 0x00,,,,,,,
0.065883,SPI,MOSI, 0x00,  MISO, 0x00,,,,,,,
0.065891,SPI,MOSI, 0x00,  MISO, 0x00,,,,,,,
0.065899,SPI,MOSI, 0x00,  MISO, 0x00,,,,,,,
0.065907,SPI,MOSI, 0x00,  MISO, 0x00,,,,,,,
0.065915,SPI,MOSI, 0x00,  MISO, 0x00,,,,,,,
0.065923,SPI,MOSI, 0x00,  MISO, 0x00,,,,,,,
0.065931,SPI,MOSI, 0x00,  MISO, 0x00,,,,,,,
0.065939,SPI,MOSI, 0x00,  MISO, 0x00,,,,,,,
0.065947,SPI,MOSI, 0x00,  MISO, 0x00,,,,,,,
0.065955,SPI,MOSI, 0x00,  MISO, 0x00,,,,,,,
0.065963,SPI,MOSI, 0x00,  MISO, 0x00,,,,,,,
0.065971,SPI,MOSI, 0x00,  MISO, 0x00,,,,,,,
0.065979,SPI,MOSI, 0x00,  MISO, 0x00,,,,,,,
0.067318,SPI,MOSI, 0x00,  MISO, 0x21,,,,,,,
0.067326,SPI,MOSI, 0x00,  MISO, 0xF2,,,,,,,
0.06736125,SPI,MOSI, 0x00,  MISO, 0x21,,,,,,,
0.06736925,SPI,MOSI, 0x00,  MISO, 0xF2,,,,,,,
0.067401,SPI,MOSI, 0x00,  MISO, 0x21,,,,,,,
0.067409,SPI,MOSI, 0x00,  MISO, 0xF2,,,,,,,
0.067441,SPI,MOSI, 0x00,  MISO, 0x21,,,,,,,
0.067449,SPI,MOSI, 0x00,  MISO, 0xF2,,,,,,,
0.06749175,SPI,MOSI, 0x00,  MISO, 0x21,,,,,,,
0.06749975,SPI,MOSI, 0x00,  MISO, 0xF2,,,,,,,
0.067532,SPI,MOSI, 0x00,  MISO, 0x21,,,,,,,
0.06754,SPI,MOSI, 0x00,  MISO, 0xF2,,,,,,,
0.06758325,SPI,MOSI, 0x00,  MISO, 0x21,,,,,,,
0.06759125,SPI,MOSI, 0x00,  MISO, 0xF2,,,,,,,
0.06762325,SPI,MOSI, 0x00,  MISO, 0x21,,,,,,,
0.06763125,SPI,MOSI, 0x00,  MISO, 0xF2,,,,,,,
0.06766425,SPI,MOSI, 0x00,  MISO, 0x4E,,,,,,,
0.06767225,SPI,MOSI, 0x00,  MISO, 0xA1,,,,,,,
0.06768025,SPI,MOSI, 0x00,  MISO, 0xA3,,,,,,,
0.06768825,SPI,MOSI, 0x00,  MISO, 0x00,,,,,,,
0.06769625,SPI,MOSI, 0x00,  MISO, 0x00,,,,,,,
0.06770425,SPI,MOSI, 0x00,  MISO, 0x00,,,,,,,
0.06771225,SPI,MOSI, 0x00,  MISO, 0x00,,,,,,,
0.06772025,SPI,MOSI, 0x00,  MISO, 0x00,,,,,,,
0.06772825,SPI,MOSI, 0x00,  MISO, 0x00,,,,,,,
0.06773625,SPI,MOSI, 0x00,  MISO, 0x00,,,,,,,
0.06774425,SPI,MOSI, 0x00,  MISO, 0x00,,,,,,,
0.06775225,SPI,MOSI, 0x00,  MISO, 0x00,,,,,,,
0.06776025,SPI,MOSI, 0x00,  MISO, 0x00,,,,,,,
0.06776825,SPI,MOSI, 0x00,  MISO, 0x00,,,,,,,
0.06777625,SPI,MOSI, 0x00,  MISO, 0x00,,,,,,,
0.06778425,SPI,MOSI, 0x00,  MISO, 0x00,,,,,,,
0.06779225,SPI,MOSI, 0x00,  MISO, 0x00,,,,,,,
0.06780025,SPI,MOSI, 0x00,  MISO, 0x00,,,,,,,
0.06780825,SPI,MOSI, 0x00,  MISO, 0x00,,,,,,,
0.06781625,SPI,MOSI, 0x00,  MISO, 0x00,,,,,,,
0.06782425,SPI,MOSI, 0x00,  MISO, 0x00,,,,,,,
0.06783225,SPI,MOSI, 0x00,  MISO, 0x00,,,,,,,
0.06784025,SPI,MOSI, 0x00,  MISO, 0x00,,,,,,,
0.06784825,SPI,MOSI, 0x00,  MISO, 0x00,,,,,,,
0.06785625,SPI,MOSI, 0x00,  MISO, 0x00,,,,,,,
0.06786425,SPI,MOSI, 0x00,  MISO, 0x00,,,,,,,
0.06787225,SPI,MOSI, 0x00,  MISO, 0x00,,,,,,,
0.06788025,SPI,MOSI, 0x00,  MISO, 0x00,,,,,,,
0.06788825,SPI,MOSI, 0x00,  MISO, 0x00,,,,,,,
0.06789625,SPI,MOSI, 0x00,  MISO, 0x00,,,,,,,
0.06790425,SPI,MOSI, 0x00,  MISO, 0x00,,,,,,,
0.06791225,SPI,MOSI, 0x00,  MISO, 0x00,,,,,,,
0.06792025,SPI,MOSI, 0x00,  MISO, 0x00,,,,,,,
0.06792825,SPI,MOSI, 0x00,  MISO, 0x00,,,,,,,
0.06793625,SPI,MOSI, 0x00,  MISO, 0x00,,,,,,,
0.06794425,SPI,MOSI, 0x00,  MISO, 0x00,,,,,,,
0.06795225,SPI,MOSI, 0x00,  MISO, 0x00,,,,,,,
0.06796025,SPI,MOSI, 0x00,  MISO, 0x00,,,,,,,
0.06796825,SPI,MOSI, 0x00,  MISO, 0x00,,,,,,,
0.06797625,SPI,MOSI, 0x00,  MISO, 0x00,,,,,,,
0.06798425,SPI,MOSI, 0x00,  MISO, 0x00,,,,,,,
0.06799225,SPI,MOSI, 0x00,  MISO, 0x00,,,,,,,
0.06800025,SPI,MOSI, 0x00,  MISO, 0x00,,,,,,,
0.06800825,SPI,MOSI, 0x00,  MISO, 0x00,,,,,,,
0.06801625,SPI,MOSI, 0x00,  MISO, 0x00,,,,,,,
0.06802425,SPI,MOSI, 0x00,  MISO, 0x00,,,,,,,
0.06803225,SPI,MOSI, 0x00,  MISO, 0x00,,,,,,,
0.06804025,SPI,MOSI, 0x00,  MISO, 0x00,,,,,,,
0.06804825,SPI,MOSI, 0x00,  MISO, 0x00,,,,,,,
0.06805625,SPI,MOSI, 0x00,  MISO, 0x00,,,,,,,
0.06806425,SPI,MOSI, 0x00,  MISO, 0x80,,,,,,,
0.06807225,SPI,MOSI, 0x00,  MISO, 0x00,,,,,,,
0.06808025,SPI,MOSI, 0x00,  MISO, 0x80,,,,,,,
0.06808825,SPI,MOSI, 0x00,  MISO, 0x00,,,,,,,
0.0680965,SPI,MOSI, 0x00,  MISO, 0x00,,,,,,,
0.06810425,SPI,MOSI, 0x00,  MISO, 0x00,,,,,,,
0.0681125,SPI,MOSI, 0x00,  MISO, 0x00,,,,,,,
0.06812025,SPI,MOSI, 0x00,  MISO, 0x00,,,,,,,
0.0681285,SPI,MOSI, 0x00,  MISO, 0x00,,,,,,,
0.06813625,SPI,MOSI, 0x00,  MISO, 0x00,,,,,,,
0.0681445,SPI,MOSI, 0x00,  MISO, 0x00,,,,,,,
0.0681525,SPI,MOSI, 0x00,  MISO, 0x00,,,,,,,
0.0681605,SPI,MOSI, 0x00,  MISO, 0x00,,,,,,,
0.0681685,SPI,MOSI, 0x00,  MISO, 0x00,,,,,,,
0.0681765,SPI,MOSI, 0x00,  MISO, 0x00,,,,,,,
0.0681845,SPI,MOSI, 0x00,  MISO, 0x00,,,,,,,
0.0681925,SPI,MOSI, 0x00,  MISO, 0x00,,,,,,,
0.0682005,SPI,MOSI, 0x00,  MISO, 0x00,,,,,,,
0.06820825,SPI,MOSI, 0x00,  MISO, 0x00,,,,,,,
0.0682165,SPI,MOSI, 0x00,  MISO, 0x00,,,,,,,
0.06822425,SPI,MOSI, 0x00,  MISO, 0x00,,,,,,,
0.0682325,SPI,MOSI, 0x00,  MISO, 0x00,,,,,,,
0.0682405,SPI,MOSI, 0x00,  MISO, 0x00,,,,,,,
0.0682485,SPI,MOSI, 0x00,  MISO, 0x00,,,,,,,
0.0682565,SPI,MOSI, 0x00,  MISO, 0x00,,,,,,,
0.0682645,SPI,MOSI, 0x00,  MISO, 0x00,,,,,,,
0.0693345,SPI,MOSI, 0x00,  MISO, 0x21,,,,,,,
0.0693425,SPI,MOSI, 0x00,  MISO, 0xF2,,,,,,,
0.06937725,SPI,MOSI, 0x00,  MISO, 0x21,,,,,,,
0.06938525,SPI,MOSI, 0x00,  MISO, 0xF2,,,,,,,
0.069417,SPI,MOSI, 0x00,  MISO, 0x21,,,,,,,
0.069425,SPI,MOSI, 0x00,  MISO, 0xF2,,,,,,,
0.06945675,SPI,MOSI, 0x00,  MISO, 0x21,,,,,,,
0.06946475,SPI,MOSI, 0x00,  MISO, 0xF2,,,,,,,
0.06950825,SPI,MOSI, 0x00,  MISO, 0x21,,,,,,,
0.06951625,SPI,MOSI, 0x00,  MISO, 0xF2,,,,,,,
0.06954825,SPI,MOSI, 0x00,  MISO, 0x21,,,,,,,
0.06955625,SPI,MOSI, 0x00,  MISO, 0xF2,,,,,,,
0.06958825,SPI,MOSI, 0x00,  MISO, 0x21,,,,,,,
0.06959625,SPI,MOSI, 0x00,  MISO, 0xF2,,,,,,,
0.069632,SPI,MOSI, 0x00,  MISO, 0x21,,,,,,,
0.06964,SPI,MOSI, 0x00,  MISO, 0xF2,,,,,,,
0.06967325,SPI,MOSI, 0x00,  MISO, 0xD0,,,,,,,
0.0696815,SPI,MOSI, 0x00,  MISO, 0xA1,,,,,,,
0.0696895,SPI,MOSI, 0x00,  MISO, 0x2B,,,,,,,
0.0696975,SPI,MOSI, 0x00,  MISO, 0x00,,,,,,,
0.0697055,SPI,MOSI, 0x00,  MISO, 0x00,,,,,,,
0.0697135,SPI,MOSI, 0x00,  MISO, 0x00,,,,,,,
0.06972125,SPI,MOSI, 0x00,  MISO, 0x00,,,,,,,
0.0697295,SPI,MOSI, 0x00,  MISO, 0x00,,,,,,,
0.0697375,SPI,MOSI, 0x00,  MISO, 0x00,,,,,,,
0.0697455,SPI,MOSI, 0x00,  MISO, 0x00,,,,,,,
0.0697535,SPI,MOSI, 0x00,  MISO, 0x00,,,,,,,
0.0697615,SPI,MOSI, 0x00,  MISO, 0x00,,,,,,,
0.0697695,SPI,MOSI, 0x00,  MISO, 0x00,,,,,,,
0.0697775,SPI,MOSI, 0x00,  MISO, 0x00,,,,,,,
0.0697855,SPI,MOSI, 0x00,  MISO, 0x00,,,,,,,
0.0697935,SPI,MOSI, 0x00,  MISO, 0x00,,,,,,,
0.0698015,SPI,MOSI, 0x00,  MISO, 0x00,,,,,,,
0.0698095,SPI,MOSI, 0x00,  MISO, 0x00,,,,,,,
0.0698175,SPI,MOSI, 0x00,  MISO, 0x00,,,,,,,
0.0698255,SPI,MOSI, 0x00,  MISO, 0x00,,,,,,,
0.0698335,SPI,MOSI, 0x00,  MISO, 0x00,,,,,,,
0.0698415,SPI,MOSI, 0x00,  MISO, 0x00,,,,,,,
0.0698495,SPI,MOSI, 0x00,  MISO, 0x00,,,,,,,
0.0698575,SPI,MOSI, 0x00,  MISO, 0x00,,,,,,,
0.0698655,SPI,MOSI, 0x00,  MISO, 0x00,,,,,,,
0.0698735,SPI,MOSI, 0x00,  MISO, 0x00,,,,,,,
0.0698815,SPI,MOSI, 0x00,  MISO, 0x00,,,,,,,
0.0698895,SPI,MOSI, 0x00,  MISO, 0x00,,,,,,,
0.0698975,SPI,MOSI, 0x00,  MISO, 0x00,,,,,,,
0.0699055,SPI,MOSI, 0x00,  MISO, 0x00,,,,,,,
0.0699135,SPI,MOSI, 0x00,  MISO, 0x00,,,,,,,
0.0699215,SPI,MOSI, 0x00,  MISO, 0x00,,,,,,,
0.0699295,SPI,MOSI, 0x00,  MISO, 0x00,,,,,,,
0.0699375,SPI,MOSI, 0x00,  MISO, 0x00,,,,,,,
0.0699455,SPI,MOSI, 0x00,  MISO, 0x00,,,,,,,
0.0699535,SPI,MOSI, 0x00,  MISO, 0x00,,,,,,,
0.0699615,SPI,MOSI, 0x00,  MISO, 0x00,,,,,,,
0.0699695,SPI,MOSI, 0x00,  MISO, 0x00,,,,,,,
0.0699775,SPI,MOSI, 0x00,  MISO, 0x00,,,,,,,
0.0699855,SPI,MOSI, 0x00,  MISO, 0x00,,,,,,,
0.0699935,SPI,MOSI, 0x00,  MISO, 0x00,,,,,,,
0.0700015,SPI,MOSI, 0x00,  MISO, 0x00,,,,,,,
0.0700095,SPI,MOSI, 0x00,  MISO, 0x00,,,,,,,
0.0700175,SPI,MOSI, 0x00,  MISO, 0x00,,,,,,,
0.0700255,SPI,MOSI, 0x00,  MISO, 0x00,,,,,,,
0.0700335,SPI,MOSI, 0x00,  MISO, 0x00,,,,,,,
0.0700415,SPI,MOSI, 0x00,  MISO, 0x00,,,,,,,
0.0700495,SPI,MOSI, 0x00,  MISO, 0x00,,,,,,,
0.0700575,SPI,MOSI, 0x00,  MISO, 0x00,,,,,,,
0.0700655,SPI,MOSI, 0x00,  MISO, 0x00,,,,,,,
0.0700735,SPI,MOSI, 0x00,  MISO, 0x00,,,,,,,
0.0700815,SPI,MOSI, 0x00,  MISO, 0x00,,,,,,,
0.0700895,SPI,MOSI, 0x00,  MISO, 0x00,,,,,,,
0.0700975,SPI,MOSI, 0x00,  MISO, 0x00,,,,,,,
0.0701055,SPI,MOSI, 0x00,  MISO, 0x00,,,,,,,
0.0701135,SPI,MOSI, 0x00,  MISO, 0x00,,,,,,,
0.0701215,SPI,MOSI, 0x00,  MISO, 0x00,,,,,,,
0.0701295,SPI,MOSI, 0x00,  MISO, 0x00,,,,,,,
0.0701375,SPI,MOSI, 0x00,  MISO, 0x00,,,,,,,
0.0701455,SPI,MOSI, 0x00,  MISO, 0x00,,,,,,,
0.07130825,SPI,MOSI, 0x00,  MISO, 0x21,,,,,,,
0.07131625,SPI,MOSI, 0x00,  MISO, 0xF2,,,,,,,
0.07135125,SPI,MOSI, 0x00,  MISO, 0x21,,,,,,,
0.07135925,SPI,MOSI, 0x00,  MISO, 0xF2,,,,,,,
0.07139125,SPI,MOSI, 0x00,  MISO, 0x21,,,,,,,
0.07139925,SPI,MOSI, 0x00,  MISO, 0xF2,,,,,,,
0.071431,SPI,MOSI, 0x00,  MISO, 0x21,,,,,,,
0.071439,SPI,MOSI, 0x00,  MISO, 0xF2,,,,,,,
0.07147075,SPI,MOSI, 0x00,  MISO, 0x21,,,,,,,
0.07147875,SPI,MOSI, 0x00,  MISO, 0xF2,,,,,,,
0.0715155,SPI,MOSI, 0x00,  MISO, 0x21,,,,,,,
0.0715235,SPI,MOSI, 0x00,  MISO, 0xF2,,,,,,,
0.071566,SPI,MOSI, 0x00,  MISO, 0x21,,,,,,,
0.071574,SPI,MOSI, 0x00,  MISO, 0xF2,,,,,,,
0.07160625,SPI,MOSI, 0x00,  MISO, 0x21,,,,,,,
0.07161425,SPI,MOSI, 0x00,  MISO, 0xF2,,,,,,,
0.07164725,SPI,MOSI, 0x00,  MISO, 0x2B,,,,,,,
0.07165525,SPI,MOSI, 0x00,  MISO, 0xFB,,,,,,,
0.07166325,SPI,MOSI, 0x00,  MISO, 0x00,,,,,,,
0.07167125,SPI,MOSI, 0x00,  MISO, 0x00,,,,,,,
0.071712,SPI,MOSI, 0x00,  MISO, 0x4F,,,,,,,
0.07172,SPI,MOSI, 0x00,  MISO, 0xA1,,,,,,,
0.071728,SPI,MOSI, 0x00,  MISO, 0x4A,,,,,,,
0.071736,SPI,MOSI, 0x00,  MISO, 0x00,,,,,,,
0.071744,SPI,MOSI, 0x00,  MISO, 0x00,,,,,,,
0.071752,SPI,MOSI, 0x00,  MISO, 0x00,,,,,,,
0.07176,SPI,MOSI, 0x00,  MISO, 0x00,,,,,,,
0.071768,SPI,MOSI, 0x00,  MISO, 0x00,,,,,,,
0.071776,SPI,MOSI, 0x00,  MISO, 0x00,,,,,,,
0.071784,SPI,MOSI, 0x00,  MISO, 0x00,,,,,,,
0.071792,SPI,MOSI, 0x00,  MISO, 0x00,,,,,,,
0.0718,SPI,MOSI, 0x00,  MISO, 0x00,,,,,,,
0.071808,SPI,MOSI, 0x00,  MISO, 0x00,,,,,,,
0.071816,SPI,MOSI, 0x00,  MISO, 0x00,,,,,,,
0.071824,SPI,MOSI, 0x00,  MISO, 0x00,,,,,,,
0.071832,SPI,MOSI, 0x00,  MISO, 0x00,,,,,,,
0.07184,SPI,MOSI, 0x00,  MISO, 0x00,,,,,,,
0.071848,SPI,MOSI, 0x00,  MISO, 0x00,,,,,,,
0.071856,SPI,MOSI, 0x00,  MISO, 0x00,,,,,,,
0.071864,SPI,MOSI, 0x00,  MISO, 0x00,,,,,,,
0.071872,SPI,MOSI, 0x00,  MISO, 0x00,,,,,,,
0.07188,SPI,MOSI, 0x00,  MISO, 0x00,,,,,,,
0.071888,SPI,MOSI, 0x00,  MISO, 0x00,,,,,,,
0.071896,SPI,MOSI, 0x00,  MISO, 0x00,,,,,,,
0.071904,SPI,MOSI, 0x00,  MISO, 0x00,,,,,,,
0.071912,SPI,MOSI, 0x00,  MISO, 0x00,,,,,,,
0.07192,SPI,MOSI, 0x00,  MISO, 0x00,,,,,,,
0.071928,SPI,MOSI, 0x00,  MISO, 0x00,,,,,,,
0.071936,SPI,MOSI, 0x00,  MISO, 0x00,,,,,,,
0.071944,SPI,MOSI, 0x00,  MISO, 0x00,,,,,,,
0.071952,SPI,MOSI, 0x00,  MISO, 0x00,,,,,,,
0.07196,SPI,MOSI, 0x00,  MISO, 0x00,,,,,,,
0.071968,SPI,MOSI, 0x00,  MISO, 0x00,,,,,,,
0.071976,SPI,MOSI, 0x00,  MISO, 0x00,,,,,,,
0.071984,SPI,MOSI, 0x00,  MISO, 0x00,,,,,,,
0.071992,SPI,MOSI, 0x00,  MISO, 0x00,,,,,,,
0.072,SPI,MOSI, 0x00,  MISO, 0x00,,,,,,,
0.072008,SPI,MOSI, 0x00,  MISO, 0x00,,,,,,,
0.072016,SPI,MOSI, 0x00,  MISO, 0x00,,,,,,,
0.072024,SPI,MOSI, 0x00,  MISO, 0x00,,,,,,,
0.072032,SPI,MOSI, 0x00,  MISO, 0x00,,,,,,,
0.07204,SPI,MOSI, 0x00,  MISO, 0x00,,,,,,,
0.072048,SPI,MOSI, 0x00,  MISO, 0x00,,,,,,,
0.072056,SPI,MOSI, 0x00,  MISO, 0x00,,,,,,,
0.072064,SPI,MOSI, 0x00,  MISO, 0x00,,,,,,,
0.072072,SPI,MOSI, 0x00,  MISO, 0x00,,,,,,,
0.07208,SPI,MOSI, 0x00,  MISO, 0x00,,,,,,,
0.072088,SPI,MOSI, 0x00,  MISO, 0x00,,,,,,,
0.072096,SPI,MOSI, 0x00,  MISO, 0x00,,,,,,,
0.072104,SPI,MOSI, 0x00,  MISO, 0x00,,,,,,,
0.072112,SPI,MOSI, 0x00,  MISO, 0x00,,,,,,,
0.07212,SPI,MOSI, 0x00,  MISO, 0x00,,,,,,,
0.072128,SPI,MOSI, 0x00,  MISO, 0x00,,,,,,,
0.072136,SPI,MOSI, 0x00,  MISO, 0x00,,,,,,,
0.072144,SPI,MOSI, 0x00,  MISO, 0x00,,,,,,,
0.072152,SPI,MOSI, 0x00,  MISO, 0x00,,,,,,,
0.07216,SPI,MOSI, 0x00,  MISO, 0x00,,,,,,,
0.072168,SPI,MOSI, 0x00,  MISO, 0x00,,,,,,,
0.072176,SPI,MOSI, 0x00,  MISO, 0x00,,,,,,,
0.072184,SPI,MOSI, 0x00,  MISO, 0x00,,,,,,,
0.073316,SPI,MOSI, 0x00,  MISO, 0x21,,,,,,,
0.073324,SPI,MOSI, 0x00,  MISO, 0xF2,,,,,,,
0.07335925,SPI,MOSI, 0x00,  MISO, 0x21,,,,,,,
0.07336725,SPI,MOSI, 0x00,  MISO, 0xF2,,,,,,,
0.07339925,SPI,MOSI, 0x00,  MISO, 0x21,,,,,,,
0.07340725,SPI,MOSI, 0x00,  MISO, 0xF2,,,,,,,
0.073439,SPI,MOSI, 0x00,  MISO, 0x21,,,,,,,
0.073447,SPI,MOSI, 0x00,  MISO, 0xF2,,,,,,,
0.07347875,SPI,MOSI, 0x00,  MISO, 0x21,,,,,,,
0.07348675,SPI,MOSI, 0x00,  MISO, 0xF2,,,,,,,
0.07352375,SPI,MOSI, 0x00,  MISO, 0x21,,,,,,,
0.07353175,SPI,MOSI, 0x00,  MISO, 0xF2,,,,,,,
0.0735745,SPI,MOSI, 0x00,  MISO, 0x21,,,,,,,
0.0735825,SPI,MOSI, 0x00,  MISO, 0xF2,,,,,,,
0.0736145,SPI,MOSI, 0x00,  MISO, 0x21,,,,,,,
0.0736225,SPI,MOSI, 0x00,  MISO, 0xF2,,,,,,,
0.0736555,SPI,MOSI, 0x00,  MISO, 0x47,,,,,,,
0.0736635,SPI,MOSI, 0x00,  MISO, 0xA1,,,,,,,
0.0736715,SPI,MOSI, 0x00,  MISO, 0xCF,,,,,,,
0.0736795,SPI,MOSI, 0x00,  MISO, 0x00,,,,,,,
0.0736875,SPI,MOSI, 0x00,  MISO, 0x00,,,,,,,
0.0736955,SPI,MOSI, 0x00,  MISO, 0x00,,,,,,,
0.0737035,SPI,MOSI, 0x00,  MISO, 0x00,,,,,,,
0.0737115,SPI,MOSI, 0x00,  MISO, 0x00,,,,,,,
0.0737195,SPI,MOSI, 0x00,  MISO, 0x00,,,,,,,
0.0737275,SPI,MOSI, 0x00,  MISO, 0x00,,,,,,,
0.0737355,SPI,MOSI, 0x00,  MISO, 0x00,,,,,,,
0.0737435,SPI,MOSI, 0x00,  MISO, 0x00,,,,,,,
0.0737515,SPI,MOSI, 0x00,  MISO, 0x00,,,,,,,
0.0737595,SPI,MOSI, 0x00,  MISO, 0x00,,,,,,,
0.0737675,SPI,MOSI, 0x00,  MISO, 0x00,,,,,,,
0.0737755,SPI,MOSI, 0x00,  MISO, 0x00,,,,,,,
0.0737835,SPI,MOSI, 0x00,  MISO, 0x00,,,,,,,
0.0737915,SPI,MOSI, 0x00,  MISO, 0x00,,,,,,,
0.0737995,SPI,MOSI, 0x00,  MISO, 0x00,,,,,,,
0.0738075,SPI,MOSI, 0x00,  MISO, 0x00,,,,,,,
0.0738155,SPI,MOSI, 0x00,  MISO, 0x00,,,,,,,
0.0738235,SPI,MOSI, 0x00,  MISO, 0x00,,,,,,,
0.0738315,SPI,MOSI, 0x00,  MISO, 0x00,,,,,,,
0.0738395,SPI,MOSI, 0x00,  MISO, 0x00,,,,,,,
0.0738475,SPI,MOSI, 0x00,  MISO, 0x00,,,,,,,
0.0738555,SPI,MOSI, 0x00,  MISO, 0x00,,,,,,,
0.0738635,SPI,MOSI, 0x00,  MISO, 0x00,,,,,,,
0.0738715,SPI,MOSI, 0x00,  MISO, 0x00,,,,,,,
0.0738795,SPI,MOSI, 0x00,  MISO, 0x00,,,,,,,
0.0738875,SPI,MOSI, 0x00,  MISO, 0x00,,,,,,,
0.0738955,SPI,MOSI, 0x00,  MISO, 0x00,,,,,,,
0.0739035,SPI,MOSI, 0x00,  MISO, 0x00,,,,,,,
0.0739115,SPI,MOSI, 0x00,  MISO, 0x00,,,,,,,
0.0739195,SPI,MOSI, 0x00,  MISO, 0x00,,,,,,,
0.0739275,SPI,MOSI, 0x00,  MISO, 0x00,,,,,,,
0.0739355,SPI,MOSI, 0x00,  MISO, 0x00,,,,,,,
0.0739435,SPI,MOSI, 0x00,  MISO, 0x00,,,,,,,
0.0739515,SPI,MOSI, 0x00,  MISO, 0x00,,,,,,,
0.0739595,SPI,MOSI, 0x00,  MISO, 0x00,,,,,,,
0.0739675,SPI,MOSI, 0x00,  MISO, 0x00,,,,,,,
0.0739755,SPI,MOSI, 0x00,  MISO, 0x00,,,,,,,
0.0739835,SPI,MOSI, 0x00,  MISO, 0x00,,,,,,,
0.0739915,SPI,MOSI, 0x00,  MISO, 0x00,,,,,,,
0.0739995,SPI,MOSI, 0x00,  MISO, 0x00,,,,,,,
0.0740075,SPI,MOSI, 0x00,  MISO, 0x00,,,,,,,
0.0740155,SPI,MOSI, 0x00,  MISO, 0x00,,,,,,,
0.0740235,SPI,MOSI, 0x00,  MISO, 0x00,,,,,,,
0.0740315,SPI,MOSI, 0x00,  MISO, 0x00,,,,,,,
0.0740395,SPI,MOSI, 0x00,  MISO, 0x00,,,,,,,
0.0740475,SPI,MOSI, 0x00,  MISO, 0x00,,,,,,,
0.0740555,SPI,MOSI, 0x00,  MISO, 0x00,,,,,,,
0.0740635,SPI,MOSI, 0x00,  MISO, 0x00,,,,,,,
0.0740715,SPI,MOSI, 0x00,  MISO, 0x00,,,,,,,
0.0740795,SPI,MOSI, 0x00,  MISO, 0x00,,,,,,,
0.0740875,SPI,MOSI, 0x00,  MISO, 0x00,,,,,,,
0.0740955,SPI,MOSI, 0x00,  MISO, 0x00,,,,,,,
0.0741035,SPI,MOSI, 0x00,  MISO, 0x00,,,,,,,
0.0741115,SPI,MOSI, 0x00,  MISO, 0x00,,,,,,,
0.0741195,SPI,MOSI, 0x00,  MISO, 0x00,,,,,,,
0.0741275,SPI,MOSI, 0x00,  MISO, 0x00,,,,,,,
0.0741355,SPI,MOSI, 0x00,  MISO, 0x00,,,,,,,
0.0741435,SPI,MOSI, 0x00,  MISO, 0x00,,,,,,,
0.0741515,SPI,MOSI, 0x00,  MISO, 0x00,,,,,,,
0.0741595,SPI,MOSI, 0x00,  MISO, 0x00,,,,,,,
0.0741675,SPI,MOSI, 0x00,  MISO, 0x00,,,,,,,
0.0741755,SPI,MOSI, 0x00,  MISO, 0x00,,,,,,,
0.0741835,SPI,MOSI, 0x00,  MISO, 0x00,,,,,,,
0.0741915,SPI,MOSI, 0x00,  MISO, 0x00,,,,,,,
0.0741995,SPI,MOSI, 0x00,  MISO, 0x00,,,,,,,
0.0742075,SPI,MOSI, 0x00,  MISO, 0x00,,,,,,,
0.0742155,SPI,MOSI, 0x00,  MISO, 0x00,,,,,,,
0.0742235,SPI,MOSI, 0x00,  MISO, 0x00,,,,,,,
0.0742315,SPI,MOSI, 0x00,  MISO, 0x00,,,,,,,
0.0742395,SPI,MOSI, 0x00,  MISO, 0x00,,,,,,,
0.0742475,SPI,MOSI, 0x00,  MISO, 0x00,,,,,,,
0.0742555,SPI,MOSI, 0x00,  MISO, 0x00,,,,,,,
0.0757165,SPI,MOSI, 0x00,  MISO, 0x21,,,,,,,
0.0757245,SPI,MOSI, 0x00,  MISO, 0xF2,,,,,,,
0.0757595,SPI,MOSI, 0x00,  MISO, 0x21,,,,,,,
0.0757675,SPI,MOSI, 0x00,  MISO, 0xF2,,,,,,,
0.0758045,SPI,MOSI, 0x00,  MISO, 0x21,,,,,,,
0.0758125,SPI,MOSI, 0x00,  MISO, 0xF2,,,,,,,
0.0758565,SPI,MOSI, 0x00,  MISO, 0x21,,,,,,,
0.0758645,SPI,MOSI, 0x00,  MISO, 0xF2,,,,,,,
0.0758965,SPI,MOSI, 0x00,  MISO, 0x21,,,,,,,
