Time [s], Analyzer Name, Decoded Protocol Result,,,,,,,,,,
0.06476825,SPI,MOSI, 0x00,  MISO, 0x21,2,1,,10,1,,
0.06477625,SPI,MOSI, 0x00,  MISO, 0xF2,F,2,,,,,
0.064844,SPI,MOSI, 0x00,  MISO, 0x21,,,,,,,
0.064852,SPI,MOSI, 0x00,  MISO, 0xF2,,,,,,,
0.064884,SPI,MOSI, 0x00,  MISO, 0x21,,,,,,,
0.064892,SPI,MOSI, 0x00,  MISO, 0xF2,,,,,,,
0.06492375,SPI,MOSI, 0x00,  MISO, 0x21,,,,,,,
0.06493175,SPI,MOSI, 0x00,  MISO, 0xF2,,,,,,,
0.06496325,SPI,MOSI, 0x00,  MISO, 0x21,,,,,,,
0.06497125,SPI,MOSI, 0x00,  MISO, 0xF2,,,,,,,
0.06502425,SPI,MOSI, 0x00,  MISO, 0x21,,,,,,,
0.06503225,SPI,MOSI, 0x00,  MISO, 0xF2,,,,,,,
0.065274,SPI,MOSI, 0x00,  MISO, 0xA1,,,,,,,
0.065282,SPI,MOSI, 0x00,  MISO, 0xF2,,,,,,Start Status Group ADC Conversion with Digital Redundancy and Poll Status ADSTATD 1 0 MD[1] MD[0] 0 0 0 1 CHST[2] CHST[1] CHST[0,
0.06533775,SPI,MOSI, 0x00,  MISO, 0x21,,,,,,,
0.06534575,SPI,MOSI, 0x00,  MISO, 0xF2,,,,,,,
0.065379,SPI,MOSI, 0x00,  MISO, 0x4D,4,D,,100,1101,,ADSTATD
0.065387,SPI,MOSI, 0x00,  MISO, 0xA1,A,1,,,,,
0.065395,SPI,MOSI, 0x00,  MISO, 0xB7,B7,,,183,,,
0.065403,SPI,MOSI, 0x00,  MISO, 0x00,,,,,,,
0.065411,SPI,MOSI, 0x00,  MISO, 0x00,,,,,,,
0.065419,SPI,MOSI, 0x00,  MISO, 0x00,,,,,,,
0.065427,SPI,MOSI, 0x00,  MISO, 0x00,,,,,,,
0.065435,SPI,MOSI, 0x00,  MISO, 0x00,,,,,,,
0.065443,SPI,MOSI, 0x00,  MISO, 0x00,,,,,,,
0.065451,SPI,MOSI, 0x00,  MISO, 0x00,,,,,,,
0.065459,SPI,MOSI, 0x00,  MISO, 0x00,,,,,,,
0.065467,SPI,MOSI, 0x00,  MISO, 0x00,,,,,,,
0.065475,SPI,MOSI, 0x00,  MISO, 0x00,,,,,,,
0.065483,SPI,MOSI, 0x00,  MISO, 0x00,,,,,,,
0.065491,SPI,MOSI, 0x00,  MISO, 0x00,,,,,,,
0.065499,SPI,MOSI, 0x00,  MISO, 0x00,,,,,,,
0.065507,SPI,MOSI, 0x00,  MISO, 0x00,,,,,,,
0.065515,SPI,MOSI, 0x00,  MISO, 0x00,,,,,,,
0.065523,SPI,MOSI, 0x00,  MISO, 0x00,,,,,,,
0.065531,SPI,MOSI, 0x00,  MISO, 0x00,,,,,,,
0.065539,SPI,MOSI, 0x00,  MISO, 0x00,,,,,,,
0.065547,SPI,MOSI, 0x00,  MISO, 0x00,,,,,,,
0.065555,SPI,MOSI, 0x00,  MISO, 0x00,,,,,,,
0.065563,SPI,MOSI, 0x00,  MISO, 0x00,,,,,,,
0.065571,SPI,MOSI, 0x00,  MISO, 0x00,,,,,,,
0.065579,SPI,MOSI, 0x00,  MISO, 0x00,,,,,,,
0.065587,SPI,MOSI, 0x00,  MISO, 0x00,,,,,,,
0.065595,SPI,MOSI, 0x00,  MISO, 0x00,,,,,,,
0.065603,SPI,MOSI, 0x00,  MISO, 0x00,,,,,,,
0.065611,SPI,MOSI, 0x00,  MISO, 0x00,,,,,,,
0.065619,SPI,MOSI, 0x00,  MISO, 0x00,,,,,,,
0.065627,SPI,MOSI, 0x00,  MISO, 0x00,,,,,,,
0.065635,SPI,MOSI, 0x00,  MISO, 0x00,,,,,,,
0.065643,SPI,MOSI, 0x00,  MISO, 0x00,,,,,,,
0.065651,SPI,MOSI, 0x00,  MISO, 0x00,,,,,,,
0.065659,SPI,MOSI, 0x00,  MISO, 0x00,,,,,,,
0.065667,SPI,MOSI, 0x00,  MISO, 0x00,,,,,,,
0.065675,SPI,MOSI, 0x00,  MISO, 0x00,,,,,,,
0.065683,SPI,MOSI, 0x00,  MISO, 0x00,,,,,,,
0.065691,SPI,MOSI, 0x00,  MISO, 0x00,,,,,,,
0.065699,SPI,MOSI, 0x00,  MISO, 0x00,,,,,,,
0.065707,SPI,MOSI, 0x00,  MISO, 0x00,,,,,,,
0.065715,SPI,MOSI, 0x00,  MISO, 0x00,,,,,,,
0.065723,SPI,MOSI, 0x00,  MISO, 0x00,,,,,,,
0.065731,SPI,MOSI, 0x00,  MISO, 0x00,,,,,,,
0.065739,SPI,MOSI, 0x00,  MISO, 0x00,,,,,,,
0.065747,SPI,MOSI, 0x00,  MISO, 0x00,,,,,,,
0.065755,SPI,MOSI, 0x00,  MISO, 0x00,,,,,,,
0.065763,SPI,MOSI, 0x00,  MISO, 0x00,,,,,,,
0.065771,SPI,MOSI, 0x00,  MISO, 0x00,,,,,,,
0.065779,SPI,MOSI, 0x00,  MISO, 0x00,,,,,,,
0.065787,SPI,MOSI, 0x00,  MISO, 0x00,,,,,,,
0.065795,SPI,MOSI, 0x00,  MISO, 0x00,,,,,,,
0.065803,SPI,MOSI, 0x00,  MISO, 0x00,,,,,,,
0.065811,SPI,MOSI, 0x00,  MISO, 0x00,,,,,,,
0.065819,SPI,MOSI, 0x00,  MISO, 0x00,,,,,,,
0.065827,SPI,MOSI, 0x00,  MISO, 0x00,,,,,,,
0.065835,SPI,MOSI, 0x00,  MISO, 0x00,,,,,,,
0.065843,SPI,MOSI, 0x00,  MISO, 0x00,,,,,,,
0.065851,SPI,MOSI, 0x00,  MISO, 0x00,,,,,,,
0.065859,SPI,MOSI, 0x00,  MISO, 0x00,,,,,,,
0.065867,SPI,MOSI, 0x00,  MISO, 0x00,,,,,,,
0.065875,SPI,MOSI, 0x00,  MISO, 0x00,,,,,,,
0.065883,SPI,MOSI, 0x00,  MISO, 0x00,,,,,,,
0.065891,SPI,MOSI, 0x00,  MISO, 0x00,,,,,,,
0.065899,SPI,MOSI, 0x00,  MISO, 0x00,,,,,,,
0.065907,SPI,MOSI, 0x00,  MISO, 0x00,,,,,,,
0.065915,SPI,MOSI, 0x00,  MISO, 0x00,,,,,,,
0.065923,SPI,MOSI, 0x00,  MISO, 0x00,,,,,,,
0.065931,SPI,MOSI, 0x00,  MISO, 0x00,,,,,,,
0.065939,SPI,MOSI, 0x00,  MISO, 0x00,,,,,,,
0.065947,SPI,MOSI, 0x00,  MISO, 0x00,,,,,,,
0.065955,SPI,MOSI, 0x00,  MISO, 0x00,,,,,,,
0.065963,SPI,MOSI, 0x00,  MISO, 0x00,,,,,,,
0.065971,SPI,MOSI, 0x00,  MISO, 0x00,,,,,,,
0.065979,SPI,MOSI, 0x00,  MISO, 0x00,,,,,,,
0.067318,SPI,MOSI, 0x00,  MISO, 0x21,,,,,,,
0.067326,SPI,MOSI, 0x00,  MISO, 0xF2,,,,,,,
0.06736125,SPI,MOSI, 0x00,  MISO, 0x21,,,,,,,
0.06736925,SPI,MOSI, 0x00,  MISO, 0xF2,,,,,,,
0.067401,SPI,MOSI, 0x00,  MISO, 0x21,,,,,,,
0.067409,SPI,MOSI, 0x00,  MISO, 0xF2,,,,,,,
0.067441,SPI,MOSI, 0x00,  MISO, 0x21,,,,,,,
0.067449,SPI,MOSI, 0x00,  MISO, 0xF2,,,,,,,
0.06749175,SPI,MOSI, 0x00,  MISO, 0x21,,,,,,,
0.06749975,SPI,MOSI, 0x00,  MISO, 0xF2,,,,,,,
0.067532,SPI,MOSI, 0x00,  MISO, 0x21,,,,,,,
0.06754,SPI,MOSI, 0x00,  MISO, 0xF2,,,,,,,
0.06758325,SPI,MOSI, 0x00,  MISO, 0x21,,,,,,,
0.06759125,SPI,MOSI, 0x00,  MISO, 0xF2,,,,,,,
0.06762325,SPI,MOSI, 0x00,  MISO, 0x21,,,,,,,
0.06763125,SPI,MOSI, 0x00,  MISO, 0xF2,,,,,,,
0.06766425,SPI,MOSI, 0x00,  MISO, 0x4E,,,,,,,
0.06767225,SPI,MOSI, 0x00,  MISO, 0xA1,,,,,,,
0.06768025,SPI,MOSI, 0x00,  MISO, 0xA3,,,,,,,
0.06768825,SPI,MOSI, 0x00,  MISO, 0x00,,,,,,,
0.06769625,SPI,MOSI, 0x00,  MISO, 0x00,,,,,,,
0.06770425,SPI,MOSI, 0x00,  MISO, 0x00,,,,,,,
0.06771225,SPI,MOSI, 0x00,  MISO, 0x00,,,,,,,
0.06772025,SPI,MOSI, 0x00,  MISO, 0x00,,,,,,,
0.06772825,SPI,MOSI, 0x00,  MISO, 0x00,,,,,,,
0.06773625,SPI,MOSI, 0x00,  MISO, 0x00,,,,,,,
0.06774425,SPI,MOSI, 0x00,  MISO, 0x00,,,,,,,
0.06775225,SPI,MOSI, 0x00,  MISO, 0x00,,,,,,,
0.06776025,SPI,MOSI, 0x00,  MISO, 0x00,,,,,,,
0.06776825,SPI,MOSI, 0x00,  MISO, 0x00,,,,,,,
0.06777625,SPI,MOSI, 0x00,  MISO, 0x00,,,,,,,
0.06778425,SPI,MOSI, 0x00,  MISO, 0x00,,,,,,,
0.06779225,SPI,MOSI, 0x00,  MISO, 0x00,,,,,,,
0.06780025,SPI,MOSI, 0x00,  MISO, 0x00,,,,,,,
0.06780825,SPI,MOSI, 0x00,  MISO, 0x00,,,,,,,
0.06781625,SPI,MOSI, 0x00,  MISO, 0x00,,,,,,,
0.06782425,SPI,MOSI, 0x00,  MISO, 0x00,,,,,,,
0.06783225,SPI,MOSI, 0x00,  MISO, 0x00,,,,,,,
0.06784025,SPI,MOSI, 0x00,  MISO, 0x00,,,,,,,
0.06784825,SPI,MOSI, 0x00,  MISO, 0x00,,,,,,,
0.06785625,SPI,MOSI, 0x00,  MISO, 0x00,,,,,,,
0.06786425,SPI,MOSI, 0x00,  MISO, 0x00,,,,,,,
0.06787225,SPI,MOSI, 0x00,  MISO, 0x00,,,,,,,
0.06788025,SPI,MOSI, 0x00,  MISO, 0x00,,,,,,,
0.06788825,SPI,MOSI, 0x00,  MISO, 0x00,,,,,,,
0.06789625,SPI,MOSI, 0x00,  MISO, 0x00,,,,,,,
0.06790425,SPI,MOSI, 0x00,  MISO, 0x00,,,,,,,
0.06791225,SPI,MOSI, 0x00,  MISO, 0x00,,,,,,,
0.06792025,SPI,MOSI, 0x00,  MISO, 0x00,,,,,,,
0.06792825,SPI,MOSI, 0x00,  MISO, 0x00,,,,,,,
0.06793625,SPI,MOSI, 0x00,  MISO, 0x00,,,,,,,
0.06794425,SPI,MOSI, 0x00,  MISO, 0x00,,,,,,,
0.06795225,SPI,MOSI, 0x00,  MISO, 0x00,,,,,,,
0.06796025,SPI,MOSI, 0x00,  MISO, 0x00,,,,,,,
0.06796825,SPI,MOSI, 0x00,  MISO, 0x00,,,,,,,
0.06797625,SPI,MOSI, 0x00,  MISO, 0x00,,,,,,,
0.06798425,SPI,MOSI, 0x00,  MISO, 0x00,,,,,,,
0.06799225,SPI,MOSI, 0x00,  MISO, 0x00,,,,,,,
0.06800025,SPI,MOSI, 0x00,  MISO, 0x00,,,,,,,
0.06800825,SPI,MOSI, 0x00,  MISO, 0x00,,,,,,,
0.06801625,SPI,MOSI, 0x00,  MISO, 0x00,,,,,,,
0.06802425,SPI,MOSI, 0x00,  MISO, 0x00,,,,,,,
0.06803225,SPI,MOSI, 0x00,  MISO, 0x00,,,,,,,
0.06804025,SPI,MOSI, 0x00,  MISO, 0x00,,,,,,,
0.06804825,SPI,MOSI, 0x00,  MISO, 0x00,,,,,,,
0.06805625,SPI,MOSI, 0x00,  MISO, 0x00,,,,,,,
0.06806425,SPI,MOSI, 0x00,  MISO, 0x80,,,,,,,
0.06807225,SPI,MOSI, 0x00,  MISO, 0x00,,,,,,,
0.06808025,SPI,MOSI, 0x00,  MISO, 0x80,,,,,,,
0.06808825,SPI,MOSI, 0x00,  MISO, 0x00,,,,,,,
0.0680965,SPI,MOSI, 0x00,  MISO, 0x00,,,,,,,
0.06810425,SPI,MOSI, 0x00,  MISO, 0x00,,,,,,,
0.0681125,SPI,MOSI, 0x00,  MISO, 0x00,,,,,,,
0.06812025,SPI,MOSI, 0x00,  MISO, 0x00,,,,,,,
0.0681285,SPI,MOSI, 0x00,  MISO, 0x00,,,,,,,
0.06813625,SPI,MOSI, 0x00,  MISO, 0x00,,,,,,,
0.0681445,SPI,MOSI, 0x00,  MISO, 0x00,,,,,,,
0.0681525,SPI,MOSI, 0x00,  MISO, 0x00,,,,,,,
0.0681605,SPI,MOSI, 0x00,  MISO, 0x00,,,,,,,
0.0681685,SPI,MOSI, 0x00,  MISO, 0x00,,,,,,,
0.0681765,SPI,MOSI, 0x00,  MISO, 0x00,,,,,,,
0.0681845,SPI,MOSI, 0x00,  MISO, 0x00,,,,,,,
0.0681925,SPI,MOSI, 0x00,  MISO, 0x00,,,,,,,
0.0682005,SPI,MOSI, 0x00,  MISO, 0x00,,,,,,,
0.06820825,SPI,MOSI, 0x00,  MISO, 0x00,,,,,,,
0.0682165,SPI,MOSI, 0x00,  MISO, 0x00,,,,,,,
0.06822425,SPI,MOSI, 0x00,  MISO, 0x00,,,,,,,
0.0682325,SPI,MOSI, 0x00,  MISO, 0x00,,,,,,,
0.0682405,SPI,MOSI, 0x00,  MISO, 0x00,,,,,,,
0.0682485,SPI,MOSI, 0x00,  MISO, 0x00,,,,,,,
0.0682565,SPI,MOSI, 0x00,  MISO, 0x00,,,,,,,
0.0682645,SPI,MOSI, 0x00,  MISO, 0x00,,,,,,,
0.0693345,SPI,MOSI, 0x00,  MISO, 0x21,,,,,,,
0.0693425,SPI,MOSI, 0x00,  MISO, 0xF2,,,,,,,
0.06937725,SPI,MOSI, 0x00,  MISO, 0x21,,,,,,,
0.06938525,SPI,MOSI, 0x00,  MISO, 0xF2,,,,,,,
0.069417,SPI,MOSI, 0x00,  MISO, 0x21,,,,,,,
0.069425,SPI,MOSI, 0x00,  MISO, 0xF2,,,,,,,
0.06945675,SPI,MOSI, 0x00,  MISO, 0x21,,,,,,,
0.06946475,SPI,MOSI, 0x00,  MISO, 0xF2,,,,,,,
0.06950825,SPI,MOSI, 0x00,  MISO, 0x21,,,,,,,
0.06951625,SPI,MOSI, 0x00,  MISO, 0xF2,,,,,,,
0.06954825,SPI,MOSI, 0x00,  MISO, 0x21,,,,,,,
0.06955625,SPI,MOSI, 0x00,  MISO, 0xF2,,,,,,,
0.06958825,SPI,MOSI, 0x00,  MISO, 0x21,,,,,,,
0.06959625,SPI,MOSI, 0x00,  MISO, 0xF2,,,,,,,
0.069632,SPI,MOSI, 0x00,  MISO, 0x21,,,,,,,
0.06964,SPI,MOSI, 0x00,  MISO, 0xF2,,,,,,,
0.06967325,SPI,MOSI, 0x00,  MISO, 0xD0,,,,,,,
0.0696815,SPI,MOSI, 0x00,  MISO, 0xA1,,,,,,,
0.0696895,SPI,MOSI, 0x00,  MISO, 0x2B,,,,,,,
0.0696975,SPI,MOSI, 0x00,  MISO, 0x00,,,,,,,
0.0697055,SPI,MOSI, 0x00,  MISO, 0x00,,,,,,,
0.0697135,SPI,MOSI, 0x00,  MISO, 0x00,,,,,,,
0.06972125,SPI,MOSI, 0x00,  MISO, 0x00,,,,,,,
0.0697295,SPI,MOSI, 0x00,  MISO, 0x00,,,,,,,
0.0697375,SPI,MOSI, 0x00,  MISO, 0x00,,,,,,,
0.0697455,SPI,MOSI, 0x00,  MISO, 0x00,,,,,,,
0.0697535,SPI,MOSI, 0x00,  MISO, 0x00,,,,,,,
0.0697615,SPI,MOSI, 0x00,  MISO, 0x00,,,,,,,
0.0697695,SPI,MOSI, 0x00,  MISO, 0x00,,,,,,,
0.0697775,SPI,MOSI, 0x00,  MISO, 0x00,,,,,,,
0.0697855,SPI,MOSI, 0x00,  MISO, 0x00,,,,,,,
0.0697935,SPI,MOSI, 0x00,  MISO, 0x00,,,,,,,
0.0698015,SPI,MOSI, 0x00,  MISO, 0x00,,,,,,,
0.0698095,SPI,MOSI, 0x00,  MISO, 0x00,,,,,,,
0.0698175,SPI,MOSI, 0x00,  MISO, 0x00,,,,,,,
0.0698255,SPI,MOSI, 0x00,  MISO, 0x00,,,,,,,
0.0698335,SPI,MOSI, 0x00,  MISO, 0x00,,,,,,,
0.0698415,SPI,MOSI, 0x00,  MISO, 0x00,,,,,,,
0.0698495,SPI,MOSI, 0x00,  MISO, 0x00,,,,,,,
0.0698575,SPI,MOSI, 0x00,  MISO, 0x00,,,,,,,
0.0698655,SPI,MOSI, 0x00,  MISO, 0x00,,,,,,,
0.0698735,SPI,MOSI, 0x00,  MISO, 0x00,,,,,,,
0.0698815,SPI,MOSI, 0x00,  MISO, 0x00,,,,,,,
0.0698895,SPI,MOSI, 0x00,  MISO, 0x00,,,,,,,
0.0698975,SPI,MOSI, 0x00,  MISO, 0x00,,,,,,,
0.0699055,SPI,MOSI, 0x00,  MISO, 0x00,,,,,,,
0.0699135,SPI,MOSI, 0x00,  MISO, 0x00,,,,,,,
0.0699215,SPI,MOSI, 0x00,  MISO, 0x00,,,,,,,
0.0699295,SPI,MOSI, 0x00,  MISO, 0x00,,,,,,,
0.0699375,SPI,MOSI, 0x00,  MISO, 0x00,,,,,,,
0.0699455,SPI,MOSI, 0x00,  MISO, 0x00,,,,,,,
0.0699535,SPI,MOSI, 0x00,  MISO, 0x00,,,,,,,
0.0699615,SPI,MOSI, 0x00,  MISO, 0x00,,,,,,,
0.0699695,SPI,MOSI, 0x00,  MISO, 0x00,,,,,,,
0.0699775,SPI,MOSI, 0x00,  MISO, 0x00,,,,,,,
0.0699855,SPI,MOSI, 0x00,  MISO, 0x00,,,,,,,
0.0699935,SPI,MOSI, 0x00,  MISO, 0x00,,,,,,,
0.0700015,SPI,MOSI, 0x00,  MISO, 0x00,,,,,,,
0.0700095,SPI,MOSI, 0x00,  MISO, 0x00,,,,,,,
0.0700175,SPI,MOSI, 0x00,  MISO, 0x00,,,,,,,
0.0700255,SPI,MOSI, 0x00,  MISO, 0x00,,,,,,,
0.0700335,SPI,MOSI, 0x00,  MISO, 0x00,,,,,,,
0.0700415,SPI,MOSI, 0x00,  MISO, 0x00,,,,,,,
0.0700495,SPI,MOSI, 0x00,  MISO, 0x00,,,,,,,
0.0700575,SPI,MOSI, 0x00,  MISO, 0x00,,,,,,,
0.0700655,SPI,MOSI, 0x00,  MISO, 0x00,,,,,,,
0.0700735,SPI,MOSI, 0x00,  MISO, 0x00,,,,,,,
0.0700815,SPI,MOSI, 0x00,  MISO, 0x00,,,,,,,
0.0700895,SPI,MOSI, 0x00,  MISO, 0x00,,,,,,,
0.0700975,SPI,MOSI, 0x00,  MISO, 0x00,,,,,,,
0.0701055,SPI,MOSI, 0x00,  MISO, 0x00,,,,,,,
0.0701135,SPI,MOSI, 0x00,  MISO, 0x00,,,,,,,
0.0701215,SPI,MOSI, 0x00,  MISO, 0x00,,,,,,,
0.0701295,SPI,MOSI, 0x00,  MISO, 0x00,,,,,,,
0.0701375,SPI,MOSI, 0x00,  MISO, 0x00,,,,,,,
0.0701455,SPI,MOSI, 0x00,  MISO, 0x00,,,,,,,
0.07130825,SPI,MOSI, 0x00,  MISO, 0x21,,,,,,,
0.07131625,SPI,MOSI, 0x00,  MISO, 0xF2,,,,,,,
0.07135125,SPI,MOSI, 0x00,  MISO, 0x21,,,,,,,
0.07135925,SPI,MOSI, 0x00,  MISO, 0xF2,,,,,,,
0.07139125,SPI,MOSI, 0x00,  MISO, 0x21,,,,,,,
0.07139925,SPI,MOSI, 0x00,  MISO, 0xF2,,,,,,,
0.071431,SPI,MOSI, 0x00,  MISO, 0x21,,,,,,,
0.071439,SPI,MOSI, 0x00,  MISO, 0xF2,,,,,,,
0.07147075,SPI,MOSI, 0x00,  MISO, 0x21,,,,,,,
0.07147875,SPI,MOSI, 0x00,  MISO, 0xF2,,,,,,,
0.0715155,SPI,MOSI, 0x00,  MISO, 0x21,,,,,,,
0.0715235,SPI,MOSI, 0x00,  MISO, 0xF2,,,,,,,
0.071566,SPI,MOSI, 0x00,  MISO, 0x21,,,,,,,
0.071574,SPI,MOSI, 0x00,  MISO, 0xF2,,,,,,,
0.07160625,SPI,MOSI, 0x00,  MISO, 0x21,,,,,,,
0.07161425,SPI,MOSI, 0x00,  MISO, 0xF2,,,,,,,
0.07164725,SPI,MOSI, 0x00,  MISO, 0x2B,,,,,,,
0.07165525,SPI,MOSI, 0x00,  MISO, 0xFB,,,,,,,
0.07166325,SPI,MOSI, 0x00,  MISO, 0x00,,,,,,,
0.07167125,SPI,MOSI, 0x00,  MISO, 0x00,,,,,,,
0.071712,SPI,MOSI, 0x00,  MISO, 0x4F,,,,,,,
0.07172,SPI,MOSI, 0x00,  MISO, 0xA1,,,,,,,
0.071728,SPI,MOSI, 0x00,  MISO, 0x4A,,,,,,,
0.071736,SPI,MOSI, 0x00,  MISO, 0x00,,,,,,,
0.071744,SPI,MOSI, 0x00,  MISO, 0x00,,,,,,,
0.071752,SPI,MOSI, 0x00,  MISO, 0x00,,,,,,,
0.07176,SPI,MOSI, 0x00,  MISO, 0x00,,,,,,,
0.071768,SPI,MOSI, 0x00,  MISO, 0x00,,,,,,,
0.071776,SPI,MOSI, 0x00,  MISO, 0x00,,,,,,,
0.071784,SPI,MOSI, 0x00,  MISO, 0x00,,,,,,,
0.071792,SPI,MOSI, 0x00,  MISO, 0x00,,,,,,,
0.0718,SPI,MOSI, 0x00,  MISO, 0x00,,,,,,,
0.071808,SPI,MOSI, 0x00,  MISO, 0x00,,,,,,,
0.071816,SPI,MOSI, 0x00,  MISO, 0x00,,,,,,,
0.071824,SPI,MOSI, 0x00,  MISO, 0x00,,,,,,,
0.071832,SPI,MOSI, 0x00,  MISO, 0x00,,,,,,,
0.07184,SPI,MOSI, 0x00,  MISO, 0x00,,,,,,,
0.071848,SPI,MOSI, 0x00,  MISO, 0x00,,,,,,,
0.071856,SPI,MOSI, 0x00,  MISO, 0x00,,,,,,,
0.071864,SPI,MOSI, 0x00,  MISO, 0x00,,,,,,,
0.071872,SPI,MOSI, 0x00,  MISO, 0x00,,,,,,,
0.07188,SPI,MOSI, 0x00,  MISO, 0x00,,,,,,,
0.071888,SPI,MOSI, 0x00,  MISO, 0x00,,,,,,,
0.071896,SPI,MOSI, 0x00,  MISO, 0x00,,,,,,,
0.071904,SPI,MOSI, 0x00,  MISO, 0x00,,,,,,,
0.071912,SPI,MOSI, 0x00,  MISO, 0x00,,,,,,,
0.07192,SPI,MOSI, 0x00,  MISO, 0x00,,,,,,,
0.071928,SPI,MOSI, 0x00,  MISO, 0x00,,,,,,,
0.071936,SPI,MOSI, 0x00,  MISO, 0x00,,,,,,,
0.071944,SPI,MOSI, 0x00,  MISO, 0x00,,,,,,,
0.071952,SPI,MOSI, 0x00,  MISO, 0x00,,,,,,,
0.07196,SPI,MOSI, 0x00,  MISO, 0x00,,,,,,,
0.071968,SPI,MOSI, 0x00,  MISO, 0x00,,,,,,,
0.071976,SPI,MOSI, 0x00,  MISO, 0x00,,,,,,,
0.071984,SPI,MOSI, 0x00,  MISO, 0x00,,,,,,,
0.071992,SPI,MOSI, 0x00,  MISO, 0x00,,,,,,,
0.072,SPI,MOSI, 0x00,  MISO, 0x00,,,,,,,
0.072008,SPI,MOSI, 0x00,  MISO, 0x00,,,,,,,
0.072016,SPI,MOSI, 0x00,  MISO, 0x00,,,,,,,
0.072024,SPI,MOSI, 0x00,  MISO, 0x00,,,,,,,
0.072032,SPI,MOSI, 0x00,  MISO, 0x00,,,,,,,
0.07204,SPI,MOSI, 0x00,  MISO, 0x00,,,,,,,
0.072048,SPI,MOSI, 0x00,  MISO, 0x00,,,,,,,
0.072056,SPI,MOSI, 0x00,  MISO, 0x00,,,,,,,
0.072064,SPI,MOSI, 0x00,  MISO, 0x00,,,,,,,
0.072072,SPI,MOSI, 0x00,  MISO, 0x00,,,,,,,
0.07208,SPI,MOSI, 0x00,  MISO, 0x00,,,,,,,
0.072088,SPI,MOSI, 0x00,  MISO, 0x00,,,,,,,
0.072096,SPI,MOSI, 0x00,  MISO, 0x00,,,,,,,
0.072104,SPI,MOSI, 0x00,  MISO, 0x00,,,,,,,
0.072112,SPI,MOSI, 0x00,  MISO, 0x00,,,,,,,
0.07212,SPI,MOSI, 0x00,  MISO, 0x00,,,,,,,
0.072128,SPI,MOSI, 0x00,  MISO, 0x00,,,,,,,
0.072136,SPI,MOSI, 0x00,  MISO, 0x00,,,,,,,
0.072144,SPI,MOSI, 0x00,  MISO, 0x00,,,,,,,
0.072152,SPI,MOSI, 0x00,  MISO, 0x00,,,,,,,
0.07216,SPI,MOSI, 0x00,  MISO, 0x00,,,,,,,
0.072168,SPI,MOSI, 0x00,  MISO, 0x00,,,,,,,
0.072176,SPI,MOSI, 0x00,  MISO, 0x00,,,,,,,
0.072184,SPI,MOSI, 0x00,  MISO, 0x00,,,,,,,
0.073316,SPI,MOSI, 0x00,  MISO, 0x21,,,,,,,
0.073324,SPI,MOSI, 0x00,  MISO, 0xF2,,,,,,,
0.07335925,SPI,MOSI, 0x00,  MISO, 0x21,,,,,,,
0.07336725,SPI,MOSI, 0x00,  MISO, 0xF2,,,,,,,
0.07339925,SPI,MOSI, 0x00,  MISO, 0x21,,,,,,,
0.07340725,SPI,MOSI, 0x00,  MISO, 0xF2,,,,,,,
0.073439,SPI,MOSI, 0x00,  MISO, 0x21,,,,,,,
0.073447,SPI,MOSI, 0x00,  MISO, 0xF2,,,,,,,
0.07347875,SPI,MOSI, 0x00,  MISO, 0x21,,,,,,,
0.07348675,SPI,MOSI, 0x00,  MISO, 0xF2,,,,,,,
0.07352375,SPI,MOSI, 0x00,  MISO, 0x21,,,,,,,
0.07353175,SPI,MOSI, 0x00,  MISO, 0xF2,,,,,,,
0.0735745,SPI,MOSI, 0x00,  MISO, 0x21,,,,,,,
0.0735825,SPI,MOSI, 0x00,  MISO, 0xF2,,,,,,,
0.0736145,SPI,MOSI, 0x00,  MISO, 0x21,,,,,,,
0.0736225,SPI,MOSI, 0x00,  MISO, 0xF2,,,,,,,
0.0736555,SPI,MOSI, 0x00,  MISO, 0x47,,,,,,,
0.0736635,SPI,MOSI, 0x00,  MISO, 0xA1,,,,,,,
0.0736715,SPI,MOSI, 0x00,  MISO, 0xCF,,,,,,,
0.0736795,SPI,MOSI, 0x00,  MISO, 0x00,,,,,,,
0.0736875,SPI,MOSI, 0x00,  MISO, 0x00,,,,,,,
0.0736955,SPI,MOSI, 0x00,  MISO, 0x00,,,,,,,
0.0737035,SPI,MOSI, 0x00,  MISO, 0x00,,,,,,,
0.0737115,SPI,MOSI, 0x00,  MISO, 0x00,,,,,,,
0.0737195,SPI,MOSI, 0x00,  MISO, 0x00,,,,,,,
0.0737275,SPI,MOSI, 0x00,  MISO, 0x00,,,,,,,
0.0737355,SPI,MOSI, 0x00,  MISO, 0x00,,,,,,,
0.0737435,SPI,MOSI, 0x00,  MISO, 0x00,,,,,,,
0.0737515,SPI,MOSI, 0x00,  MISO, 0x00,,,,,,,
0.0737595,SPI,MOSI, 0x00,  MISO, 0x00,,,,,,,
0.0737675,SPI,MOSI, 0x00,  MISO, 0x00,,,,,,,
0.0737755,SPI,MOSI, 0x00,  MISO, 0x00,,,,,,,
0.0737835,SPI,MOSI, 0x00,  MISO, 0x00,,,,,,,
0.0737915,SPI,MOSI, 0x00,  MISO, 0x00,,,,,,,
0.0737995,SPI,MOSI, 0x00,  MISO, 0x00,,,,,,,
0.0738075,SPI,MOSI, 0x00,  MISO, 0x00,,,,,,,
0.0738155,SPI,MOSI, 0x00,  MISO, 0x00,,,,,,,
0.0738235,SPI,MOSI, 0x00,  MISO, 0x00,,,,,,,
0.0738315,SPI,MOSI, 0x00,  MISO, 0x00,,,,,,,
0.0738395,SPI,MOSI, 0x00,  MISO, 0x00,,,,,,,
0.0738475,SPI,MOSI, 0x00,  MISO, 0x00,,,,,,,
0.0738555,SPI,MOSI, 0x00,  MISO, 0x00,,,,,,,
0.0738635,SPI,MOSI, 0x00,  MISO, 0x00,,,,,,,
0.0738715,SPI,MOSI, 0x00,  MISO, 0x00,,,,,,,
0.0738795,SPI,MOSI, 0x00,  MISO, 0x00,,,,,,,
0.0738875,SPI,MOSI, 0x00,  MISO, 0x00,,,,,,,
0.0738955,SPI,MOSI, 0x00,  MISO, 0x00,,,,,,,
0.0739035,SPI,MOSI, 0x00,  MISO, 0x00,,,,,,,
0.0739115,SPI,MOSI, 0x00,  MISO, 0x00,,,,,,,
0.0739195,SPI,MOSI, 0x00,  MISO, 0x00,,,,,,,
0.0739275,SPI,MOSI, 0x00,  MISO, 0x00,,,,,,,
0.0739355,SPI,MOSI, 0x00,  MISO, 0x00,,,,,,,
0.0739435,SPI,MOSI, 0x00,  MISO, 0x00,,,,,,,
0.0739515,SPI,MOSI, 0x00,  MISO, 0x00,,,,,,,
0.0739595,SPI,MOSI, 0x00,  MISO, 0x00,,,,,,,
0.0739675,SPI,MOSI, 0x00,  MISO, 0x00,,,,,,,
0.0739755,SPI,MOSI, 0x00,  MISO, 0x00,,,,,,,
0.0739835,SPI,MOSI, 0x00,  MISO, 0x00,,,,,,,
0.0739915,SPI,MOSI, 0x00,  MISO, 0x00,,,,,,,
0.0739995,SPI,MOSI, 0x00,  MISO, 0x00,,,,,,,
0.0740075,SPI,MOSI, 0x00,  MISO, 0x00,,,,,,,
0.0740155,SPI,MOSI, 0x00,  MISO, 0x00,,,,,,,
0.0740235,SPI,MOSI, 0x00,  MISO, 0x00,,,,,,,
0.0740315,SPI,MOSI, 0x00,  MISO, 0x00,,,,,,,
0.0740395,SPI,MOSI, 0x00,  MISO, 0x00,,,,,,,
0.0740475,SPI,MOSI, 0x00,  MISO, 0x00,,,,,,,
0.0740555,SPI,MOSI, 0x00,  MISO, 0x00,,,,,,,
0.0740635,SPI,MOSI, 0x00,  MISO, 0x00,,,,,,,
0.0740715,SPI,MOSI, 0x00,  MISO, 0x00,,,,,,,
0.0740795,SPI,MOSI, 0x00,  MISO, 0x00,,,,,,,
0.0740875,SPI,MOSI, 0x00,  MISO, 0x00,,,,,,,
0.0740955,SPI,MOSI, 0x00,  MISO, 0x00,,,,,,,
0.0741035,SPI,MOSI, 0x00,  MISO, 0x00,,,,,,,
0.0741115,SPI,MOSI, 0x00,  MISO, 0x00,,,,,,,
0.0741195,SPI,MOSI, 0x00,  MISO, 0x00,,,,,,,
0.0741275,SPI,MOSI, 0x00,  MISO, 0x00,,,,,,,
0.0741355,SPI,MOSI, 0x00,  MISO, 0x00,,,,,,,
0.0741435,SPI,MOSI, 0x00,  MISO, 0x00,,,,,,,
0.0741515,SPI,MOSI, 0x00,  MISO, 0x00,,,,,,,
0.0741595,SPI,MOSI, 0x00,  MISO, 0x00,,,,,,,
0.0741675,SPI,MOSI, 0x00,  MISO, 0x00,,,,,,,
0.0741755,SPI,MOSI, 0x00,  MISO, 0x00,,,,,,,
0.0741835,SPI,MOSI, 0x00,  MISO, 0x00,,,,,,,
0.0741915,SPI,MOSI, 0x00,  MISO, 0x00,,,,,,,
0.0741995,SPI,MOSI, 0x00,  MISO, 0x00,,,,,,,
0.0742075,SPI,MOSI, 0x00,  MISO, 0x00,,,,,,,
0.0742155,SPI,MOSI, 0x00,  MISO, 0x00,,,,,,,
0.0742235,SPI,MOSI, 0x00,  MISO, 0x00,,,,,,,
0.0742315,SPI,MOSI, 0x00,  MISO, 0x00,,,,,,,
0.0742395,SPI,MOSI, 0x00,  MISO, 0x00,,,,,,,
0.0742475,SPI,MOSI, 0x00,  MISO, 0x00,,,,,,,
0.0742555,SPI,MOSI, 0x00,  MISO, 0x00,,,,,,,
0.0757165,SPI,MOSI, 0x00,  MISO, 0x21,,,,,,,
0.0757245,SPI,MOSI, 0x00,  MISO, 0xF2,,,,,,,
0.0757595,SPI,MOSI, 0x00,  MISO, 0x21,,,,,,,
0.0757675,SPI,MOSI, 0x00,  MISO, 0xF2,,,,,,,
0.0758045,SPI,MOSI, 0x00,  MISO, 0x21,,,,,,,
0.0758125,SPI,MOSI, 0x00,  MISO, 0xF2,,,,,,,
0.0758565,SPI,MOSI, 0x00,  MISO, 0x21,,,,,,,
0.0758645,SPI,MOSI, 0x00,  MISO, 0xF2,,,,,,,
0.0758965,SPI,MOSI, 0x00,  MISO, 0x21,,,,,,,
0.0759045,SPI,MOSI, 0x00,  MISO, 0xF2,,,,,,,
0.07593625,SPI,MOSI, 0x00,  MISO, 0x21,,,,,,,
0.07594425,SPI,MOSI, 0x00,  MISO, 0xF2,,,,,,,
0.07597625,SPI,MOSI, 0x00,  MISO, 0x21,,,,,,,
0.07598425,SPI,MOSI, 0x00,  MISO, 0xF2,,,,,,,
0.076016,SPI,MOSI, 0x00,  MISO, 0x21,,,,,,,
0.076024,SPI,MOSI, 0x00,  MISO, 0xF2,,,,,,,
0.0760675,SPI,MOSI, 0x00,  MISO, 0x48,,,,,,,
0.0760755,SPI,MOSI, 0x00,  MISO, 0xA1,,,,,,,
0.0760835,SPI,MOSI, 0x00,  MISO, 0x8B,,,,,,,
0.0760915,SPI,MOSI, 0x00,  MISO, 0x00,,,,,,,
0.0760995,SPI,MOSI, 0x00,  MISO, 0x00,,,,,,,
0.0761075,SPI,MOSI, 0x00,  MISO, 0x00,,,,,,,
0.0761155,SPI,MOSI, 0x00,  MISO, 0x00,,,,,,,
0.0761235,SPI,MOSI, 0x00,  MISO, 0x00,,,,,,,
0.0761315,SPI,MOSI, 0x00,  MISO, 0x00,,,,,,,
0.0761395,SPI,MOSI, 0x00,  MISO, 0x00,,,,,,,
0.0761475,SPI,MOSI, 0x00,  MISO, 0x00,,,,,,,
0.0761555,SPI,MOSI, 0x00,  MISO, 0x00,,,,,,,
0.0761635,SPI,MOSI, 0x00,  MISO, 0x00,,,,,,,
0.0761715,SPI,MOSI, 0x00,  MISO, 0x00,,,,,,,
0.0761795,SPI,MOSI, 0x00,  MISO, 0x00,,,,,,,
0.0761875,SPI,MOSI, 0x00,  MISO, 0x00,,,,,,,
0.0761955,SPI,MOSI, 0x00,  MISO, 0x00,,,,,,,
0.0762035,SPI,MOSI, 0x00,  MISO, 0x00,,,,,,,
0.0762115,SPI,MOSI, 0x00,  MISO, 0x00,,,,,,,
0.0762195,SPI,MOSI, 0x00,  MISO, 0x00,,,,,,,
0.0762275,SPI,MOSI, 0x00,  MISO, 0x00,,,,,,,
0.0762355,SPI,MOSI, 0x00,  MISO, 0x00,,,,,,,
0.0762435,SPI,MOSI, 0x00,  MISO, 0x80,,,,,,,
0.0762515,SPI,MOSI, 0x00,  MISO, 0x00,,,,,,,
0.0762595,SPI,MOSI, 0x00,  MISO, 0x00,,,,,,,
0.0762675,SPI,MOSI, 0x00,  MISO, 0x00,,,,,,,
0.0762755,SPI,MOSI, 0x00,  MISO, 0x00,,,,,,,
0.0762835,SPI,MOSI, 0x00,  MISO, 0x00,,,,,,,
0.0762915,SPI,MOSI, 0x00,  MISO, 0x80,,,,,,,
0.0762995,SPI,MOSI, 0x00,  MISO, 0x00,,,,,,,
0.0763075,SPI,MOSI, 0x00,  MISO, 0x80,,,,,,,
0.0763155,SPI,MOSI, 0x00,  MISO, 0x00,,,,,,,
0.0763235,SPI,MOSI, 0x00,  MISO, 0x80,,,,,,,
0.0763315,SPI,MOSI, 0x00,  MISO, 0x00,,,,,,,
0.07633975,SPI,MOSI, 0x00,  MISO, 0x00,,,,,,,
0.0763475,SPI,MOSI, 0x00,  MISO, 0x00,,,,,,,
0.07635575,SPI,MOSI, 0x00,  MISO, 0x00,,,,,,,
0.0763635,SPI,MOSI, 0x00,  MISO, 0x00,,,,,,,
0.07637175,SPI,MOSI, 0x00,  MISO, 0x00,,,,,,,
0.0763795,SPI,MOSI, 0x00,  MISO, 0x00,,,,,,,
0.07638775,SPI,MOSI, 0x00,  MISO, 0x00,,,,,,,
0.07639575,SPI,MOSI, 0x00,  MISO, 0x00,,,,,,,
0.07640375,SPI,MOSI, 0x00,  MISO, 0x00,,,,,,,
0.07641175,SPI,MOSI, 0x00,  MISO, 0x00,,,,,,,
0.07641975,SPI,MOSI, 0x00,  MISO, 0x00,,,,,,,
0.07642775,SPI,MOSI, 0x00,  MISO, 0x00,,,,,,,
0.07643575,SPI,MOSI, 0x00,  MISO, 0x00,,,,,,,
0.07644375,SPI,MOSI, 0x00,  MISO, 0x00,,,,,,,
0.07645175,SPI,MOSI, 0x00,  MISO, 0x00,,,,,,,
0.07645975,SPI,MOSI, 0x00,  MISO, 0x00,,,,,,,
0.07646775,SPI,MOSI, 0x00,  MISO, 0x00,,,,,,,
0.07647575,SPI,MOSI, 0x00,  MISO, 0x00,,,,,,,
0.07648375,SPI,MOSI, 0x00,  MISO, 0x00,,,,,,,
0.07649175,SPI,MOSI, 0x00,  MISO, 0x00,,,,,,,
0.0764995,SPI,MOSI, 0x00,  MISO, 0x00,,,,,,,
0.07650775,SPI,MOSI, 0x00,  MISO, 0x00,,,,,,,
0.0765155,SPI,MOSI, 0x00,  MISO, 0x00,,,,,,,
0.07652375,SPI,MOSI, 0x00,  MISO, 0x00,,,,,,,
0.0765315,SPI,MOSI, 0x00,  MISO, 0x00,,,,,,,
0.07653975,SPI,MOSI, 0x00,  MISO, 0x00,,,,,,,
0.0765475,SPI,MOSI, 0x00,  MISO, 0x00,,,,,,,
0.07655575,SPI,MOSI, 0x00,  MISO, 0x00,,,,,,,
0.0765635,SPI,MOSI, 0x00,  MISO, 0x00,,,,,,,
0.07657175,SPI,MOSI, 0x00,  MISO, 0x00,,,,,,,
0.07657975,SPI,MOSI, 0x00,  MISO, 0x00,,,,,,,
0.07658775,SPI,MOSI, 0x00,  MISO, 0x00,,,,,,,
0.07659575,SPI,MOSI, 0x00,  MISO, 0x00,,,,,,,
0.07660375,SPI,MOSI, 0x00,  MISO, 0x00,,,,,,,
0.07661175,SPI,MOSI, 0x00,  MISO, 0x00,,,,,,,
0.07661975,SPI,MOSI, 0x00,  MISO, 0x00,,,,,,,
0.07662775,SPI,MOSI, 0x00,  MISO, 0x00,,,,,,,
0.07663575,SPI,MOSI, 0x00,  MISO, 0x00,,,,,,,
0.07664375,SPI,MOSI, 0x00,  MISO, 0x00,,,,,,,
0.07665175,SPI,MOSI, 0x00,  MISO, 0x00,,,,,,,
0.07665975,SPI,MOSI, 0x00,  MISO, 0x00,,,,,,,
0.07666775,SPI,MOSI, 0x00,  MISO, 0x00,,,,,,,
0.0777295,SPI,MOSI, 0x00,  MISO, 0x21,,,,,,,
0.07773725,SPI,MOSI, 0x00,  MISO, 0xFA,,,,,,,
0.0777725,SPI,MOSI, 0x00,  MISO, 0x21,,,,,,,
0.0777805,SPI,MOSI, 0x00,  MISO, 0xF2,,,,,,,
0.07782325,SPI,MOSI, 0x00,  MISO, 0x21,,,,,,,
0.07783125,SPI,MOSI, 0x00,  MISO, 0xF2,,,,,,,
0.07786325,SPI,MOSI, 0x00,  MISO, 0x21,,,,,,,
0.07787125,SPI,MOSI, 0x00,  MISO, 0xF2,,,,,,,
0.07790325,SPI,MOSI, 0x00,  MISO, 0x21,,,,,,,
0.07791125,SPI,MOSI, 0x00,  MISO, 0xF2,,,,,,,
0.077943,SPI,MOSI, 0x00,  MISO, 0x21,,,,,,,
0.077951,SPI,MOSI, 0x00,  MISO, 0xF2,,,,,,,
0.07798275,SPI,MOSI, 0x00,  MISO, 0x21,,,,,,,
0.07799075,SPI,MOSI, 0x00,  MISO, 0xF2,,,,,,,
0.07802275,SPI,MOSI, 0x00,  MISO, 0x21,,,,,,,
0.07803075,SPI,MOSI, 0x00,  MISO, 0xF2,,,,,,,
0.07806375,SPI,MOSI, 0x00,  MISO, 0x49,,,,,,,
0.07807175,SPI,MOSI, 0x00,  MISO, 0xA1,,,,,,,
0.07807975,SPI,MOSI, 0x00,  MISO, 0x62,,,,,,,
0.07808775,SPI,MOSI, 0x00,  MISO, 0x00,,,,,,,
0.07809575,SPI,MOSI, 0x00,  MISO, 0x00,,,,,,,
0.07810375,SPI,MOSI, 0x00,  MISO, 0x00,,,,,,,
0.07811175,SPI,MOSI, 0x00,  MISO, 0x00,,,,,,,
0.07811975,SPI,MOSI, 0x00,  MISO, 0x00,,,,,,,
0.07812775,SPI,MOSI, 0x00,  MISO, 0x00,,,,,,,
0.07813575,SPI,MOSI, 0x00,  MISO, 0x00,,,,,,,
0.07814375,SPI,MOSI, 0x00,  MISO, 0x00,,,,,,,
0.07815175,SPI,MOSI, 0x00,  MISO, 0x00,,,,,,,
0.07815975,SPI,MOSI, 0x00,  MISO, 0x00,,,,,,,
0.07816775,SPI,MOSI, 0x00,  MISO, 0x00,,,,,,,
0.07817575,SPI,MOSI, 0x00,  MISO, 0x00,,,,,,,
0.07818375,SPI,MOSI, 0x00,  MISO, 0x00,,,,,,,
0.07819175,SPI,MOSI, 0x00,  MISO, 0x00,,,,,,,
0.07819975,SPI,MOSI, 0x00,  MISO, 0x00,,,,,,,
0.07820775,SPI,MOSI, 0x00,  MISO, 0x00,,,,,,,
0.07821575,SPI,MOSI, 0x00,  MISO, 0x00,,,,,,,
0.07822375,SPI,MOSI, 0x00,  MISO, 0x00,,,,,,,
0.07823175,SPI,MOSI, 0x00,  MISO, 0x00,,,,,,,
0.07823975,SPI,MOSI, 0x00,  MISO, 0x00,,,,,,,
0.07824775,SPI,MOSI, 0x00,  MISO, 0x00,,,,,,,
0.07825575,SPI,MOSI, 0x00,  MISO, 0x00,,,,,,,
0.07826375,SPI,MOSI, 0x00,  MISO, 0x00,,,,,,,
0.07827175,SPI,MOSI, 0x00,  MISO, 0x00,,,,,,,
0.07827975,SPI,MOSI, 0x00,  MISO, 0x00,,,,,,,
0.07828775,SPI,MOSI, 0x00,  MISO, 0x00,,,,,,,
0.07829575,SPI,MOSI, 0x00,  MISO, 0x00,,,,,,,
0.07830375,SPI,MOSI, 0x00,  MISO, 0x00,,,,,,,
0.07831175,SPI,MOSI, 0x00,  MISO, 0x00,,,,,,,
0.07831975,SPI,MOSI, 0x00,  MISO, 0x00,,,,,,,
0.07832775,SPI,MOSI, 0x00,  MISO, 0x00,,,,,,,
0.07833575,SPI,MOSI, 0x00,  MISO, 0x00,,,,,,,
0.07834375,SPI,MOSI, 0x00,  MISO, 0x00,,,,,,,
0.07835175,SPI,MOSI, 0x00,  MISO, 0x00,,,,,,,
0.07835975,SPI,MOSI, 0x00,  MISO, 0x00,,,,,,,
0.07836775,SPI,MOSI, 0x00,  MISO, 0x00,,,,,,,
0.07837575,SPI,MOSI, 0x00,  MISO, 0x00,,,,,,,
0.07838375,SPI,MOSI, 0x00,  MISO, 0x00,,,,,,,
0.07839175,SPI,MOSI, 0x00,  MISO, 0x00,,,,,,,
0.07839975,SPI,MOSI, 0x00,  MISO, 0x00,,,,,,,
0.07840775,SPI,MOSI, 0x00,  MISO, 0x00,,,,,,,
0.07841575,SPI,MOSI, 0x00,  MISO, 0x00,,,,,,,
0.07842375,SPI,MOSI, 0x00,  MISO, 0x00,,,,,,,
0.07843175,SPI,MOSI, 0x00,  MISO, 0x00,,,,,,,
0.07843975,SPI,MOSI, 0x00,  MISO, 0x00,,,,,,,
0.07844775,SPI,MOSI, 0x00,  MISO, 0x00,,,,,,,
0.07845575,SPI,MOSI, 0x00,  MISO, 0x00,,,,,,,
0.07846375,SPI,MOSI, 0x00,  MISO, 0x00,,,,,,,
0.07847175,SPI,MOSI, 0x00,  MISO, 0x00,,,,,,,
0.07847975,SPI,MOSI, 0x00,  MISO, 0x00,,,,,,,
0.07848775,SPI,MOSI, 0x00,  MISO, 0x00,,,,,,,
0.07849575,SPI,MOSI, 0x00,  MISO, 0x00,,,,,,,
0.07850375,SPI,MOSI, 0x00,  MISO, 0x00,,,,,,,
0.07851175,SPI,MOSI, 0x00,  MISO, 0x00,,,,,,,
0.07851975,SPI,MOSI, 0x00,  MISO, 0x00,,,,,,,
0.07852775,SPI,MOSI, 0x00,  MISO, 0x00,,,,,,,
0.07853575,SPI,MOSI, 0x00,  MISO, 0x00,,,,,,,
0.07854375,SPI,MOSI, 0x00,  MISO, 0x00,,,,,,,
0.07855175,SPI,MOSI, 0x00,  MISO, 0x00,,,,,,,
0.07855975,SPI,MOSI, 0x00,  MISO, 0x00,,,,,,,
0.07856775,SPI,MOSI, 0x00,  MISO, 0x00,,,,,,,
0.07857575,SPI,MOSI, 0x00,  MISO, 0x00,,,,,,,
0.07858375,SPI,MOSI, 0x00,  MISO, 0x00,,,,,,,
0.07859175,SPI,MOSI, 0x00,  MISO, 0x00,,,,,,,
0.07859975,SPI,MOSI, 0x00,  MISO, 0x00,,,,,,,
0.07860775,SPI,MOSI, 0x00,  MISO, 0x00,,,,,,,
0.07861575,SPI,MOSI, 0x00,  MISO, 0x00,,,,,,,
0.07862375,SPI,MOSI, 0x00,  MISO, 0x00,,,,,,,
0.07863175,SPI,MOSI, 0x00,  MISO, 0x00,,,,,,,
0.07863975,SPI,MOSI, 0x00,  MISO, 0x00,,,,,,,
0.07864775,SPI,MOSI, 0x00,  MISO, 0x00,,,,,,,
0.07865575,SPI,MOSI, 0x00,  MISO, 0x00,,,,,,,
0.07866375,SPI,MOSI, 0x00,  MISO, 0x00,,,,,,,
0.0797315,SPI,MOSI, 0x00,  MISO, 0x21,,,,,,,
0.0797395,SPI,MOSI, 0x00,  MISO, 0xF2,,,,,,,
0.0797745,SPI,MOSI, 0x00,  MISO, 0x21,,,,,,,
0.0797825,SPI,MOSI, 0x00,  MISO, 0xF2,,,,,,,
0.07981425,SPI,MOSI, 0x00,  MISO, 0x21,,,,,,,
0.07982225,SPI,MOSI, 0x00,  MISO, 0xF2,,,,,,,
0.07985425,SPI,MOSI, 0x00,  MISO, 0x21,,,,,,,
0.07986225,SPI,MOSI, 0x00,  MISO, 0xF2,,,,,,,
0.07989425,SPI,MOSI, 0x00,  MISO, 0x21,,,,,,,
0.07990225,SPI,MOSI, 0x00,  MISO, 0xF2,,,,,,,
0.07993425,SPI,MOSI, 0x00,  MISO, 0x21,,,,,,,
0.07994225,SPI,MOSI, 0x00,  MISO, 0xF2,,,,,,,
0.079974,SPI,MOSI, 0x00,  MISO, 0x21,,,,,,,
0.079982,SPI,MOSI, 0x00,  MISO, 0xF2,,,,,,,
0.08001375,SPI,MOSI, 0x00,  MISO, 0x21,,,,,,,
0.08002175,SPI,MOSI, 0x00,  MISO, 0xF2,,,,,,,
0.080055,SPI,MOSI, 0x00,  MISO, 0x4A,,,,,,,
0.080063,SPI,MOSI, 0x00,  MISO, 0xA1,,,,,,,
0.080071,SPI,MOSI, 0x00,  MISO, 0x76,,,,,,,
0.080079,SPI,MOSI, 0x00,  MISO, 0x00,,,,,,,
0.080087,SPI,MOSI, 0x00,  MISO, 0x00,,,,,,,
0.080095,SPI,MOSI, 0x00,  MISO, 0x00,,,,,,,
0.080103,SPI,MOSI, 0x00,  MISO, 0x00,,,,,,,
0.080111,SPI,MOSI, 0x00,  MISO, 0x00,,,,,,,
0.080119,SPI,MOSI, 0x00,  MISO, 0x00,,,,,,,
0.080127,SPI,MOSI, 0x00,  MISO, 0x00,,,,,,,
0.080135,SPI,MOSI, 0x00,  MISO, 0x00,,,,,,,
0.080143,SPI,MOSI, 0x00,  MISO, 0x00,,,,,,,
0.080151,SPI,MOSI, 0x00,  MISO, 0x00,,,,,,,
0.080159,SPI,MOSI, 0x00,  MISO, 0x00,,,,,,,
0.080167,SPI,MOSI, 0x00,  MISO, 0x00,,,,,,,
0.080175,SPI,MOSI, 0x00,  MISO, 0x00,,,,,,,
0.080183,SPI,MOSI, 0x00,  MISO, 0x00,,,,,,,
0.080191,SPI,MOSI, 0x00,  MISO, 0x00,,,,,,,
0.080199,SPI,MOSI, 0x00,  MISO, 0x00,,,,,,,
0.080207,SPI,MOSI, 0x00,  MISO, 0x00,,,,,,,
0.080215,SPI,MOSI, 0x00,  MISO, 0x00,,,,,,,
0.080223,SPI,MOSI, 0x00,  MISO, 0x00,,,,,,,
0.080231,SPI,MOSI, 0x00,  MISO, 0x00,,,,,,,
0.080239,SPI,MOSI, 0x00,  MISO, 0x00,,,,,,,
0.080247,SPI,MOSI, 0x00,  MISO, 0x00,,,,,,,
0.080255,SPI,MOSI, 0x00,  MISO, 0x00,,,,,,,
0.080263,SPI,MOSI, 0x00,  MISO, 0x00,,,,,,,
0.080271,SPI,MOSI, 0x00,  MISO, 0x00,,,,,,,
0.080279,SPI,MOSI, 0x00,  MISO, 0x00,,,,,,,
0.080287,SPI,MOSI, 0x00,  MISO, 0x00,,,,,,,
0.080295,SPI,MOSI, 0x00,  MISO, 0x00,,,,,,,
0.080303,SPI,MOSI, 0x00,  MISO, 0x00,,,,,,,
0.080311,SPI,MOSI, 0x00,  MISO, 0x00,,,,,,,
0.080319,SPI,MOSI, 0x00,  MISO, 0x00,,,,,,,
0.080327,SPI,MOSI, 0x00,  MISO, 0x00,,,,,,,
0.080335,SPI,MOSI, 0x00,  MISO, 0x00,,,,,,,
0.080343,SPI,MOSI, 0x00,  MISO, 0x00,,,,,,,
0.080351,SPI,MOSI, 0x00,  MISO, 0x00,,,,,,,
0.080359,SPI,MOSI, 0x00,  MISO, 0x00,,,,,,,
0.080367,SPI,MOSI, 0x00,  MISO, 0x00,,,,,,,
0.080375,SPI,MOSI, 0x00,  MISO, 0x00,,,,,,,
0.080383,SPI,MOSI, 0x00,  MISO, 0x00,,,,,,,
0.080391,SPI,MOSI, 0x00,  MISO, 0x00,,,,,,,
0.080399,SPI,MOSI, 0x00,  MISO, 0x00,,,,,,,
0.080407,SPI,MOSI, 0x00,  MISO, 0x00,,,,,,,
0.080415,SPI,MOSI, 0x00,  MISO, 0x00,,,,,,,
0.080423,SPI,MOSI, 0x00,  MISO, 0x00,,,,,,,
0.080431,SPI,MOSI, 0x00,  MISO, 0x00,,,,,,,
0.080439,SPI,MOSI, 0x00,  MISO, 0x00,,,,,,,
0.080447,SPI,MOSI, 0x00,  MISO, 0x00,,,,,,,
0.080455,SPI,MOSI, 0x00,  MISO, 0x00,,,,,,,
0.080463,SPI,MOSI, 0x00,  MISO, 0x00,,,,,,,
0.080471,SPI,MOSI, 0x00,  MISO, 0x00,,,,,,,
0.080479,SPI,MOSI, 0x00,  MISO, 0x00,,,,,,,
0.080487,SPI,MOSI, 0x00,  MISO, 0x00,,,,,,,
0.080495,SPI,MOSI, 0x00,  MISO, 0x00,,,,,,,
0.080503,SPI,MOSI, 0x00,  MISO, 0x00,,,,,,,
0.080511,SPI,MOSI, 0x00,  MISO, 0x00,,,,,,,
0.080519,SPI,MOSI, 0x00,  MISO, 0x00,,,,,,,
0.080527,SPI,MOSI, 0x00,  MISO, 0x00,,,,,,,
0.080535,SPI,MOSI, 0x00,  MISO, 0x00,,,,,,,
0.080543,SPI,MOSI, 0x00,  MISO, 0x00,,,,,,,
0.080551,SPI,MOSI, 0x00,  MISO, 0x00,,,,,,,
0.080559,SPI,MOSI, 0x00,  MISO, 0x00,,,,,,,
0.080567,SPI,MOSI, 0x00,  MISO, 0x00,,,,,,,
0.080575,SPI,MOSI, 0x00,  MISO, 0x00,,,,,,,
0.080583,SPI,MOSI, 0x00,  MISO, 0x00,,,,,,,
0.080591,SPI,MOSI, 0x00,  MISO, 0x00,,,,,,,
0.080599,SPI,MOSI, 0x00,  MISO, 0x00,,,,,,,
0.080607,SPI,MOSI, 0x00,  MISO, 0x00,,,,,,,
0.080615,SPI,MOSI, 0x00,  MISO, 0x00,,,,,,,
0.080623,SPI,MOSI, 0x00,  MISO, 0x00,,,,,,,
0.080631,SPI,MOSI, 0x00,  MISO, 0x00,,,,,,,
0.080639,SPI,MOSI, 0x00,  MISO, 0x00,,,,,,,
0.080647,SPI,MOSI, 0x00,  MISO, 0x00,,,,,,,
0.080655,SPI,MOSI, 0x00,  MISO, 0x00,,,,,,,
0.08170675,SPI,MOSI, 0x00,  MISO, 0x21,,,,,,,
0.08171475,SPI,MOSI, 0x00,  MISO, 0xF2,,,,,,,
0.0817495,SPI,MOSI, 0x00,  MISO, 0x21,,,,,,,
0.0817575,SPI,MOSI, 0x00,  MISO, 0xF2,,,,,,,
0.0817895,SPI,MOSI, 0x00,  MISO, 0x21,,,,,,,
0.0817975,SPI,MOSI, 0x00,  MISO, 0xF2,,,,,,,
0.08182925,SPI,MOSI, 0x00,  MISO, 0x21,,,,,,,
0.08183725,SPI,MOSI, 0x00,  MISO, 0xF2,,,,,,,
0.08186925,SPI,MOSI, 0x00,  MISO, 0x21,,,,,,,
0.08187725,SPI,MOSI, 0x00,  MISO, 0xF2,,,,,,,
0.081909,SPI,MOSI, 0x00,  MISO, 0x21,,,,,,,
0.081917,SPI,MOSI, 0x00,  MISO, 0xF2,,,,,,,
0.081949,SPI,MOSI, 0x00,  MISO, 0x21,,,,,,,
0.081957,SPI,MOSI, 0x00,  MISO, 0xF2,,,,,,,
0.08198875,SPI,MOSI, 0x00,  MISO, 0x21,,,,,,,
0.08199675,SPI,MOSI, 0x00,  MISO, 0xF2,,,,,,,
0.08202975,SPI,MOSI, 0x00,  MISO, 0x4B,,,,,,,
0.08203775,SPI,MOSI, 0x00,  MISO, 0xA1,,,,,,,
0.08204575,SPI,MOSI, 0x00,  MISO, 0x9F,,,,,,,
0.08205375,SPI,MOSI, 0x00,  MISO, 0x00,,,,,,,
0.08206175,SPI,MOSI, 0x00,  MISO, 0x00,,,,,,,
0.08206975,SPI,MOSI, 0x00,  MISO, 0x00,,,,,,,
0.08207775,SPI,MOSI, 0x00,  MISO, 0x00,,,,,,,
0.08208575,SPI,MOSI, 0x00,  MISO, 0x00,,,,,,,
0.08209375,SPI,MOSI, 0x00,  MISO, 0x00,,,,,,,
0.08210175,SPI,MOSI, 0x00,  MISO, 0x00,,,,,,,
0.08210975,SPI,MOSI, 0x00,  MISO, 0x00,,,,,,,
0.08211775,SPI,MOSI, 0x00,  MISO, 0x00,,,,,,,
0.08212575,SPI,MOSI, 0x00,  MISO, 0x00,,,,,,,
0.08213375,SPI,MOSI, 0x00,  MISO, 0x00,,,,,,,
0.08214175,SPI,MOSI, 0x00,  MISO, 0x00,,,,,,,
0.08214975,SPI,MOSI, 0x00,  MISO, 0x00,,,,,,,
0.08215775,SPI,MOSI, 0x00,  MISO, 0x00,,,,,,,
0.08216575,SPI,MOSI, 0x00,  MISO, 0x00,,,,,,,
0.08217375,SPI,MOSI, 0x00,  MISO, 0x00,,,,,,,
0.08218175,SPI,MOSI, 0x00,  MISO, 0x00,,,,,,,
0.08218975,SPI,MOSI, 0x00,  MISO, 0x00,,,,,,,
0.08219775,SPI,MOSI, 0x00,  MISO, 0x00,,,,,,,
0.08220575,SPI,MOSI, 0x00,  MISO, 0x00,,,,,,,
0.08221375,SPI,MOSI, 0x00,  MISO, 0x00,,,,,,,
0.08222175,SPI,MOSI, 0x00,  MISO, 0x00,,,,,,,
0.08222975,SPI,MOSI, 0x00,  MISO, 0x00,,,,,,,
0.08223775,SPI,MOSI, 0x00,  MISO, 0x00,,,,,,,
0.08224575,SPI,MOSI, 0x00,  MISO, 0x00,,,,,,,
0.08225375,SPI,MOSI, 0x00,  MISO, 0x00,,,,,,,
0.08226175,SPI,MOSI, 0x00,  MISO, 0x00,,,,,,,
0.08226975,SPI,MOSI, 0x00,  MISO, 0x00,,,,,,,
0.08227775,SPI,MOSI, 0x00,  MISO, 0x00,,,,,,,
0.08228575,SPI,MOSI, 0x00,  MISO, 0x00,,,,,,,
0.08229375,SPI,MOSI, 0x00,  MISO, 0x00,,,,,,,
0.08230175,SPI,MOSI, 0x00,  MISO, 0x00,,,,,,,
0.08230975,SPI,MOSI, 0x00,  MISO, 0x00,,,,,,,
0.08231775,SPI,MOSI, 0x00,  MISO, 0x00,,,,,,,
0.08232575,SPI,MOSI, 0x00,  MISO, 0x00,,,,,,,
0.08233375,SPI,MOSI, 0x00,  MISO, 0x00,,,,,,,
0.08234175,SPI,MOSI, 0x00,  MISO, 0x00,,,,,,,
0.08234975,SPI,MOSI, 0x00,  MISO, 0x00,,,,,,,
0.08235775,SPI,MOSI, 0x00,  MISO, 0x00,,,,,,,
0.08236575,SPI,MOSI, 0x00,  MISO, 0x00,,,,,,,
0.08237375,SPI,MOSI, 0x00,  MISO, 0x00,,,,,,,
0.08238175,SPI,MOSI, 0x00,  MISO, 0x00,,,,,,,
0.08238975,SPI,MOSI, 0x00,  MISO, 0x00,,,,,,,
0.08239775,SPI,MOSI, 0x00,  MISO, 0x00,,,,,,,
0.08240575,SPI,MOSI, 0x00,  MISO, 0x00,,,,,,,
0.08241375,SPI,MOSI, 0x00,  MISO, 0x00,,,,,,,
0.08242175,SPI,MOSI, 0x00,  MISO, 0x00,,,,,,,
0.08242975,SPI,MOSI, 0x00,  MISO, 0x00,,,,,,,
0.08243775,SPI,MOSI, 0x00,  MISO, 0x00,,,,,,,
0.08244575,SPI,MOSI, 0x00,  MISO, 0x00,,,,,,,
0.08245375,SPI,MOSI, 0x00,  MISO, 0x00,,,,,,,
0.08246175,SPI,MOSI, 0x00,  MISO, 0x00,,,,,,,
0.08246975,SPI,MOSI, 0x00,  MISO, 0x00,,,,,,,
0.08247775,SPI,MOSI, 0x00,  MISO, 0x00,,,,,,,
0.08248575,SPI,MOSI, 0x00,  MISO, 0x00,,,,,,,
0.08249375,SPI,MOSI, 0x00,  MISO, 0x00,,,,,,,
0.08250175,SPI,MOSI, 0x00,  MISO, 0x00,,,,,,,
0.08250975,SPI,MOSI, 0x00,  MISO, 0x00,,,,,,,
0.08251775,SPI,MOSI, 0x00,  MISO, 0x00,,,,,,,
0.08252575,SPI,MOSI, 0x00,  MISO, 0x00,,,,,,,
0.08253375,SPI,MOSI, 0x00,  MISO, 0x00,,,,,,,
0.08254175,SPI,MOSI, 0x00,  MISO, 0x00,,,,,,,
0.08254975,SPI,MOSI, 0x00,  MISO, 0x00,,,,,,,
0.08255775,SPI,MOSI, 0x00,  MISO, 0x00,,,,,,,
0.08256575,SPI,MOSI, 0x00,  MISO, 0x00,,,,,,,
0.08257375,SPI,MOSI, 0x00,  MISO, 0x00,,,,,,,
0.08258175,SPI,MOSI, 0x00,  MISO, 0x00,,,,,,,
0.08258975,SPI,MOSI, 0x00,  MISO, 0x00,,,,,,,
0.08259775,SPI,MOSI, 0x00,  MISO, 0x00,,,,,,,
0.08260575,SPI,MOSI, 0x00,  MISO, 0x00,,,,,,,
0.08261375,SPI,MOSI, 0x00,  MISO, 0x00,,,,,,,
0.08262175,SPI,MOSI, 0x00,  MISO, 0x00,,,,,,,
0.08262975,SPI,MOSI, 0x00,  MISO, 0x00,,,,,,,
0.0836775,SPI,MOSI, 0x00,  MISO, 0x21,,,,,,,
0.0836855,SPI,MOSI, 0x00,  MISO, 0xF2,,,,,,,
0.08372575,SPI,MOSI, 0x00,  MISO, 0x21,,,,,,,
0.08373375,SPI,MOSI, 0x00,  MISO, 0xF2,,,,,,,
0.083766,SPI,MOSI, 0x00,  MISO, 0x21,,,,,,,
0.083774,SPI,MOSI, 0x00,  MISO, 0xF2,,,,,,,
0.08381675,SPI,MOSI, 0x00,  MISO, 0x21,,,,,,,
0.08382475,SPI,MOSI, 0x00,  MISO, 0xF2,,,,,,,
0.083857,SPI,MOSI, 0x00,  MISO, 0x21,,,,,,,
0.083865,SPI,MOSI, 0x00,  MISO, 0xF2,,,,,,,
0.08389675,SPI,MOSI, 0x00,  MISO, 0x21,,,,,,,
0.08390475,SPI,MOSI, 0x00,  MISO, 0xF2,,,,,,,
0.08393675,SPI,MOSI, 0x00,  MISO, 0x21,,,,,,,
0.08394475,SPI,MOSI, 0x00,  MISO, 0xF2,,,,,,,
0.0839765,SPI,MOSI, 0x00,  MISO, 0x21,,,,,,,
0.0839845,SPI,MOSI, 0x00,  MISO, 0xF2,,,,,,,
0.08401775,SPI,MOSI, 0x00,  MISO, 0x4C,,,,,,,
0.08402575,SPI,MOSI, 0x00,  MISO, 0xA1,,,,,,,
0.08403375,SPI,MOSI, 0x00,  MISO, 0x5E,,,,,,,
0.08404175,SPI,MOSI, 0x00,  MISO, 0x00,,,,,,,
0.08404975,SPI,MOSI, 0x00,  MISO, 0x00,,,,,,,
0.08405775,SPI,MOSI, 0x00,  MISO, 0x00,,,,,,,
0.08406575,SPI,MOSI, 0x00,  MISO, 0x00,,,,,,,
0.08407375,SPI,MOSI, 0x00,  MISO, 0x00,,,,,,,
0.08408175,SPI,MOSI, 0x00,  MISO, 0x00,,,,,,,
0.08408975,SPI,MOSI, 0x00,  MISO, 0x00,,,,,,,
0.08409775,SPI,MOSI, 0x00,  MISO, 0x00,,,,,,,
0.08410575,SPI,MOSI, 0x00,  MISO, 0x00,,,,,,,
0.08411375,SPI,MOSI, 0x00,  MISO, 0x00,,,,,,,
0.08412175,SPI,MOSI, 0x00,  MISO, 0x00,,,,,,,
0.08412975,SPI,MOSI, 0x00,  MISO, 0x00,,,,,,,
0.08413775,SPI,MOSI, 0x00,  MISO, 0x00,,,,,,,
0.08414575,SPI,MOSI, 0x00,  MISO, 0x00,,,,,,,
0.08415375,SPI,MOSI, 0x00,  MISO, 0x00,,,,,,,
0.08416175,SPI,MOSI, 0x00,  MISO, 0x00,,,,,,,
0.08416975,SPI,MOSI, 0x00,  MISO, 0x00,,,,,,,
0.08417775,SPI,MOSI, 0x00,  MISO, 0x00,,,,,,,
0.08418575,SPI,MOSI, 0x00,  MISO, 0x00,,,,,,,
0.08419375,SPI,MOSI, 0x00,  MISO, 0x00,,,,,,,
0.08420175,SPI,MOSI, 0x00,  MISO, 0x00,,,,,,,
0.08420975,SPI,MOSI, 0x00,  MISO, 0x00,,,,,,,
0.08421775,SPI,MOSI, 0x00,  MISO, 0x00,,,,,,,
0.08422575,SPI,MOSI, 0x00,  MISO, 0x00,,,,,,,
0.08423375,SPI,MOSI, 0x00,  MISO, 0x00,,,,,,,
0.08424175,SPI,MOSI, 0x00,  MISO, 0x00,,,,,,,
0.08424975,SPI,MOSI, 0x00,  MISO, 0x00,,,,,,,
0.08425775,SPI,MOSI, 0x00,  MISO, 0x00,,,,,,,
0.08426575,SPI,MOSI, 0x00,  MISO, 0x00,,,,,,,
0.08427375,SPI,MOSI, 0x00,  MISO, 0x00,,,,,,,
0.08428175,SPI,MOSI, 0x00,  MISO, 0x00,,,,,,,
0.08428975,SPI,MOSI, 0x00,  MISO, 0x00,,,,,,,
0.08429775,SPI,MOSI, 0x00,  MISO, 0x00,,,,,,,
0.08430575,SPI,MOSI, 0x00,  MISO, 0x00,,,,,,,
0.08431375,SPI,MOSI, 0x00,  MISO, 0x00,,,,,,,
0.08432175,SPI,MOSI, 0x00,  MISO, 0x00,,,,,,,
0.08432975,SPI,MOSI, 0x00,  MISO, 0x00,,,,,,,
0.08433775,SPI,MOSI, 0x00,  MISO, 0x00,,,,,,,
0.08434575,SPI,MOSI, 0x00,  MISO, 0x00,,,,,,,
0.08435375,SPI,MOSI, 0x00,  MISO, 0x00,,,,,,,
0.08436175,SPI,MOSI, 0x00,  MISO, 0x00,,,,,,,
0.08436975,SPI,MOSI, 0x00,  MISO, 0x00,,,,,,,
0.08437775,SPI,MOSI, 0x00,  MISO, 0x00,,,,,,,
0.08438575,SPI,MOSI, 0x00,  MISO, 0x00,,,,,,,
0.08439375,SPI,MOSI, 0x00,  MISO, 0x00,,,,,,,
0.08440175,SPI,MOSI, 0x00,  MISO, 0x00,,,,,,,
0.08440975,SPI,MOSI, 0x00,  MISO, 0x00,,,,,,,
0.08441775,SPI,MOSI, 0x00,  MISO, 0x00,,,,,,,
0.08442575,SPI,MOSI, 0x00,  MISO, 0x00,,,,,,,
0.08443375,SPI,MOSI, 0x00,  MISO, 0x00,,,,,,,
0.08444175,SPI,MOSI, 0x00,  MISO, 0x00,,,,,,,
0.08444975,SPI,MOSI, 0x00,  MISO, 0x00,,,,,,,
0.08445775,SPI,MOSI, 0x00,  MISO, 0x00,,,,,,,
0.08446575,SPI,MOSI, 0x00,  MISO, 0x00,,,,,,,
0.08447375,SPI,MOSI, 0x00,  MISO, 0x00,,,,,,,
0.08448175,SPI,MOSI, 0x00,  MISO, 0x00,,,,,,,
0.08448975,SPI,MOSI, 0x00,  MISO, 0x00,,,,,,,
0.085842,SPI,MOSI, 0x00,  MISO, 0x21,,,,,,,
0.08585,SPI,MOSI, 0x00,  MISO, 0xF2,,,,,,,
0.0858845,SPI,MOSI, 0x00,  MISO, 0x21,,,,,,,
0.0858925,SPI,MOSI, 0x00,  MISO, 0xF2,,,,,,,
0.0859245,SPI,MOSI, 0x00,  MISO, 0x21,,,,,,,
0.0859325,SPI,MOSI, 0x00,  MISO, 0xF2,,,,,,,
0.08596425,SPI,MOSI, 0x00,  MISO, 0x21,,,,,,,
0.08597225,SPI,MOSI, 0x00,  MISO, 0xF2,,,,,,,
0.086004,SPI,MOSI, 0x00,  MISO, 0x21,,,,,,,
0.086012,SPI,MOSI, 0x00,  MISO, 0xF2,,,,,,,
0.08604375,SPI,MOSI, 0x00,  MISO, 0x21,,,,,,,
0.08605175,SPI,MOSI, 0x00,  MISO, 0xF2,,,,,,,
0.08608325,SPI,MOSI, 0x00,  MISO, 0x21,,,,,,,
0.08609125,SPI,MOSI, 0x00,  MISO, 0xF2,,,,,,,
0.08629125,SPI,MOSI, 0x00,  MISO, 0x21,,,,,,,
0.08629925,SPI,MOSI, 0x00,  MISO, 0xF2,,,,,,,
0.08633325,SPI,MOSI, 0x00,  MISO, 0x33,,,,,,,
0.08634125,SPI,MOSI, 0x00,  MISO, 0x02,,,,,,,
0.08634925,SPI,MOSI, 0x00,  MISO, 0x00,,,,,,,
0.08635725,SPI,MOSI, 0x00,  MISO, 0x00,,,,,,,
0.08636525,SPI,MOSI, 0x00,  MISO, 0x00,,,,,,,
0.08637325,SPI,MOSI, 0x00,  MISO, 0x00,,,,,,,
0.08638125,SPI,MOSI, 0x00,  MISO, 0x00,,,,,,,
0.08638925,SPI,MOSI, 0x00,  MISO, 0x00,,,,,,,
0.08639725,SPI,MOSI, 0x00,  MISO, 0x00,,,,,,,
0.08640525,SPI,MOSI, 0x00,  MISO, 0x00,,,,,,,
0.08641325,SPI,MOSI, 0x00,  MISO, 0x00,,,,,,,
0.08642125,SPI,MOSI, 0x00,  MISO, 0x00,,,,,,,
0.08642925,SPI,MOSI, 0x00,  MISO, 0x00,,,,,,,
0.08643725,SPI,MOSI, 0x00,  MISO, 0x00,,,,,,,
0.08644525,SPI,MOSI, 0x00,  MISO, 0x00,,,,,,,
0.08645325,SPI,MOSI, 0x00,  MISO, 0x00,,,,,,,
0.08646125,SPI,MOSI, 0x00,  MISO, 0x00,,,,,,,
0.08646925,SPI,MOSI, 0x00,  MISO, 0x00,,,,,,,
0.08647725,SPI,MOSI, 0x00,  MISO, 0x00,,,,,,,
0.08648525,SPI,MOSI, 0x00,  MISO, 0x00,,,,,,,
0.08649325,SPI,MOSI, 0x00,  MISO, 0x00,,,,,,,
0.08650125,SPI,MOSI, 0x00,  MISO, 0x00,,,,,,,
0.08650925,SPI,MOSI, 0x00,  MISO, 0x00,,,,,,,
0.08651725,SPI,MOSI, 0x00,  MISO, 0x00,,,,,,,
0.08652525,SPI,MOSI, 0x00,  MISO, 0x00,,,,,,,
0.08653325,SPI,MOSI, 0x00,  MISO, 0x00,,,,,,,
0.08654125,SPI,MOSI, 0x00,  MISO, 0x00,,,,,,,
0.08654925,SPI,MOSI, 0x00,  MISO, 0x00,,,,,,,
0.08655725,SPI,MOSI, 0x00,  MISO, 0x00,,,,,,,
0.08656525,SPI,MOSI, 0x00,  MISO, 0x00,,,,,,,
0.08657325,SPI,MOSI, 0x00,  MISO, 0x00,,,,,,,
0.08658125,SPI,MOSI, 0x00,  MISO, 0x00,,,,,,,
0.08658925,SPI,MOSI, 0x00,  MISO, 0x00,,,,,,,
0.08659725,SPI,MOSI, 0x00,  MISO, 0x00,,,,,,,
0.0874345,SPI,MOSI, 0x00,  MISO, 0x21,,,,,,,
0.0874425,SPI,MOSI, 0x00,  MISO, 0xF2,,,,,,,
0.087478,SPI,MOSI, 0x00,  MISO, 0x21,,,,,,,
0.087486,SPI,MOSI, 0x00,  MISO, 0xF2,,,,,,,
0.0875225,SPI,MOSI, 0x00,  MISO, 0x21,,,,,,,
0.0875305,SPI,MOSI, 0x00,  MISO, 0xF2,,,,,,,
0.087573,SPI,MOSI, 0x00,  MISO, 0x21,,,,,,,
0.087581,SPI,MOSI, 0x00,  MISO, 0xF2,,,,,,,
0.08761325,SPI,MOSI, 0x00,  MISO, 0x21,,,,,,,
0.08762125,SPI,MOSI, 0x00,  MISO, 0xF2,,,,,,,
0.087653,SPI,MOSI, 0x00,  MISO, 0x21,,,,,,,
0.087661,SPI,MOSI, 0x00,  MISO, 0xF2,,,,,,,
0.08769275,SPI,MOSI, 0x00,  MISO, 0x21,,,,,,,
0.08770075,SPI,MOSI, 0x00,  MISO, 0xF2,,,,,,,
0.0877325,SPI,MOSI, 0x00,  MISO, 0x21,,,,,,,
0.0877405,SPI,MOSI, 0x00,  MISO, 0xF2,,,,,,,
0.08777325,SPI,MOSI, 0x00,  MISO, 0x11,,,,,,,
0.08778125,SPI,MOSI, 0x00,  MISO, 0x2F,,,,,,,
0.08778925,SPI,MOSI, 0x00,  MISO, 0x03,,,,,,,
0.08779725,SPI,MOSI, 0x00,  MISO, 0x80,,,,,,,
0.08780525,SPI,MOSI, 0x00,  MISO, 0x00,,,,,,,
0.08781325,SPI,MOSI, 0x00,  MISO, 0x00,,,,,,,
0.08782125,SPI,MOSI, 0x00,  MISO, 0x2B,,,,,,,
0.08782925,SPI,MOSI, 0x00,  MISO, 0x06,,,,,,,
0.08783725,SPI,MOSI, 0x00,  MISO, 0x03,,,,,,,
0.08784525,SPI,MOSI, 0x00,  MISO, 0x80,,,,,,,
0.08785325,SPI,MOSI, 0x00,  MISO, 0x00,,,,,,,
0.08786125,SPI,MOSI, 0x00,  MISO, 0x00,,,,,,,
0.08786925,SPI,MOSI, 0x00,  MISO, 0x2B,,,,,,,
0.08787725,SPI,MOSI, 0x00,  MISO, 0x06,,,,,,,
0.08788525,SPI,MOSI, 0x00,  MISO, 0x03,,,,,,,
0.08789325,SPI,MOSI, 0x00,  MISO, 0x80,,,,,,,
0.08790125,SPI,MOSI, 0x00,  MISO, 0x00,,,,,,,
0.08790925,SPI,MOSI, 0x00,  MISO, 0x00,,,,,,,
0.08791725,SPI,MOSI, 0x00,  MISO, 0x2B,,,,,,,
0.08792525,SPI,MOSI, 0x00,  MISO, 0x06,,,,,,,
0.08793325,SPI,MOSI, 0x00,  MISO, 0x03,,,,,,,
0.08794125,SPI,MOSI, 0x00,  MISO, 0x80,,,,,,,
0.08794925,SPI,MOSI, 0x00,  MISO, 0x00,,,,,,,
0.08795725,SPI,MOSI, 0x00,  MISO, 0x00,,,,,,,
0.08796525,SPI,MOSI, 0x00,  MISO, 0x2B,,,,,,,
0.08797325,SPI,MOSI, 0x00,  MISO, 0x06,,,,,,,
0.08798125,SPI,MOSI, 0x00,  MISO, 0x03,,,,,,,
0.08798925,SPI,MOSI, 0x00,  MISO, 0x80,,,,,,,
0.08799725,SPI,MOSI, 0x00,  MISO, 0x00,,,,,,,
0.08800525,SPI,MOSI, 0x00,  MISO, 0x00,,,,,,,
0.08801325,SPI,MOSI, 0x00,  MISO, 0x2B,,,,,,,
0.08802125,SPI,MOSI, 0x00,  MISO, 0x06,,,,,,,
0.08802925,SPI,MOSI, 0x00,  MISO, 0x03,,,,,,,
0.08803725,SPI,MOSI, 0x00,  MISO, 0x80,,,,,,,
0.08804525,SPI,MOSI, 0x00,  MISO, 0x00,,,,,,,
0.08805325,SPI,MOSI, 0x00,  MISO, 0x00,,,,,,,
0.08806125,SPI,MOSI, 0x00,  MISO, 0x2B,,,,,,,
0.08806925,SPI,MOSI, 0x00,  MISO, 0x06,,,,,,,
0.08807725,SPI,MOSI, 0x00,  MISO, 0x03,,,,,,,
0.08808525,SPI,MOSI, 0x00,  MISO, 0x80,,,,,,,
0.08809325,SPI,MOSI, 0x00,  MISO, 0x00,,,,,,,
0.08810125,SPI,MOSI, 0x00,  MISO, 0x00,,,,,,,
0.08810925,SPI,MOSI, 0x00,  MISO, 0x2B,,,,,,,
0.08811725,SPI,MOSI, 0x00,  MISO, 0x06,,,,,,,
0.08812525,SPI,MOSI, 0x00,  MISO, 0x03,,,,,,,
0.08813325,SPI,MOSI, 0x00,  MISO, 0x80,,,,,,,
0.08814125,SPI,MOSI, 0x00,  MISO, 0x00,,,,,,,
0.08814925,SPI,MOSI, 0x00,  MISO, 0x00,,,,,,,
0.08815725,SPI,MOSI, 0x00,  MISO, 0x2B,,,,,,,
0.08816525,SPI,MOSI, 0x00,  MISO, 0x06,,,,,,,
0.08830225,SPI,MOSI, 0x00,  MISO, 0x14,,,,,,,
0.08831025,SPI,MOSI, 0x00,  MISO, 0xBC,,,,,,,
0.08831825,SPI,MOSI, 0x00,  MISO, 0x00,,,,,,,
0.08832625,SPI,MOSI, 0x00,  MISO, 0x00,,,,,,,
0.08833425,SPI,MOSI, 0x00,  MISO, 0x00,,,,,,,
0.08834225,SPI,MOSI, 0x00,  MISO, 0x00,,,,,,,
0.08835025,SPI,MOSI, 0x00,  MISO, 0x07,,,,,,,
0.08835825,SPI,MOSI, 0x00,  MISO, 0xAA,,,,,,,
0.08836625,SPI,MOSI, 0x00,  MISO, 0x00,,,,,,,
0.08837425,SPI,MOSI, 0x00,  MISO, 0x00,,,,,,,
0.08838225,SPI,MOSI, 0x00,  MISO, 0x00,,,,,,,
0.08839025,SPI,MOSI, 0x00,  MISO, 0x00,,,,,,,
0.08839825,SPI,MOSI, 0x00,  MISO, 0x07,,,,,,,
0.08840625,SPI,MOSI, 0x00,  MISO, 0xAA,,,,,,,
0.08841425,SPI,MOSI, 0x00,  MISO, 0x00,,,,,,,
0.08842225,SPI,MOSI, 0x00,  MISO, 0x00,,,,,,,
0.08843025,SPI,MOSI, 0x00,  MISO, 0x00,,,,,,,
0.08843825,SPI,MOSI, 0x00,  MISO, 0x00,,,,,,,
0.08844625,SPI,MOSI, 0x00,  MISO, 0x07,,,,,,,
0.08845425,SPI,MOSI, 0x00,  MISO, 0xAA,,,,,,,
0.08846225,SPI,MOSI, 0x00,  MISO, 0x00,,,,,,,
0.08847025,SPI,MOSI, 0x00,  MISO, 0x00,,,,,,,
0.08847825,SPI,MOSI, 0x00,  MISO, 0x00,,,,,,,
0.08848625,SPI,MOSI, 0x00,  MISO, 0x00,,,,,,,
0.08849425,SPI,MOSI, 0x00,  MISO, 0x07,,,,,,,
0.08850225,SPI,MOSI, 0x00,  MISO, 0xAA,,,,,,,
0.08851025,SPI,MOSI, 0x00,  MISO, 0x00,,,,,,,
0.08851825,SPI,MOSI, 0x00,  MISO, 0x00,,,,,,,
0.08852625,SPI,MOSI, 0x00,  MISO, 0x00,,,,,,,
0.08853425,SPI,MOSI, 0x00,  MISO, 0x00,,,,,,,
0.08854225,SPI,MOSI, 0x00,  MISO, 0x07,,,,,,,
0.08855025,SPI,MOSI, 0x00,  MISO, 0xAA,,,,,,,
0.08855825,SPI,MOSI, 0x00,  MISO, 0x00,,,,,,,
0.08856625,SPI,MOSI, 0x00,  MISO, 0x00,,,,,,,
0.08857425,SPI,MOSI, 0x00,  MISO, 0x00,,,,,,,
0.08858225,SPI,MOSI, 0x00,  MISO, 0x00,,,,,,,
0.08859025,SPI,MOSI, 0x00,  MISO, 0x07,,,,,,,
0.08859825,SPI,MOSI, 0x00,  MISO, 0xAA,,,,,,,
0.08860625,SPI,MOSI, 0x00,  MISO, 0x00,,,,,,,
0.08861425,SPI,MOSI, 0x00,  MISO, 0x00,,,,,,,
0.08862225,SPI,MOSI, 0x00,  MISO, 0x00,,,,,,,
0.08863025,SPI,MOSI, 0x00,  MISO, 0x00,,,,,,,
0.08863825,SPI,MOSI, 0x00,  MISO, 0x07,,,,,,,
0.08864625,SPI,MOSI, 0x00,  MISO, 0xAA,,,,,,,
0.08865425,SPI,MOSI, 0x00,  MISO, 0x00,,,,,,,
0.08866225,SPI,MOSI, 0x00,  MISO, 0x00,,,,,,,
0.08867025,SPI,MOSI, 0x00,  MISO, 0x00,,,,,,,
0.08867825,SPI,MOSI, 0x00,  MISO, 0x00,,,,,,,
0.08868625,SPI,MOSI, 0x00,  MISO, 0x07,,,,,,,
0.08869425,SPI,MOSI, 0x00,  MISO, 0xAA,,,,,,,
0.0887525,SPI,MOSI, 0x00,  MISO, 0x15,,,,,,,
0.0887605,SPI,MOSI, 0x00,  MISO, 0x93,,,,,,,
0.0887685,SPI,MOSI, 0x00,  MISO, 0x00,,,,,,,
0.0887765,SPI,MOSI, 0x00,  MISO, 0x00,,,,,,,
0.0887845,SPI,MOSI, 0x00,  MISO, 0x00,,,,,,,
0.0887925,SPI,MOSI, 0x00,  MISO, 0x00,,,,,,,
0.0888005,SPI,MOSI, 0x00,  MISO, 0x07,,,,,,,
0.0888085,SPI,MOSI, 0x00,  MISO, 0xAA,,,,,,,
0.0888165,SPI,MOSI, 0x00,  MISO, 0x00,,,,,,,
0.0888245,SPI,MOSI, 0x00,  MISO, 0x00,,,,,,,
0.0888325,SPI,MOSI, 0x00,  MISO, 0x00,,,,,,,
0.0888405,SPI,MOSI, 0x00,  MISO, 0x00,,,,,,,
0.0888485,SPI,MOSI, 0x00,  MISO, 0x07,,,,,,,
0.0888565,SPI,MOSI, 0x00,  MISO, 0xAA,,,,,,,
0.0888645,SPI,MOSI, 0x00,  MISO, 0x00,,,,,,,
0.0888725,SPI,MOSI, 0x00,  MISO, 0x00,,,,,,,
0.0888805,SPI,MOSI, 0x00,  MISO, 0x00,,,,,,,
0.0888885,SPI,MOSI, 0x00,  MISO, 0x00,,,,,,,
0.0888965,SPI,MOSI, 0x00,  MISO, 0x07,,,,,,,
0.0889045,SPI,MOSI, 0x00,  MISO, 0xAA,,,,,,,
0.0889125,SPI,MOSI, 0x00,  MISO, 0x00,,,,,,,
0.0889205,SPI,MOSI, 0x00,  MISO, 0x00,,,,,,,
0.0889285,SPI,MOSI, 0x00,  MISO, 0x00,,,,,,,
0.0889365,SPI,MOSI, 0x00,  MISO, 0x00,,,,,,,
0.0889445,SPI,MOSI, 0x00,  MISO, 0x07,,,,,,,
0.0889525,SPI,MOSI, 0x00,  MISO, 0xAA,,,,,,,
0.0889605,SPI,MOSI, 0x00,  MISO, 0x00,,,,,,,
0.0889685,SPI,MOSI, 0x00,  MISO, 0x00,,,,,,,
0.0889765,SPI,MOSI, 0x00,  MISO, 0x00,,,,,,,
0.0889845,SPI,MOSI, 0x00,  MISO, 0x00,,,,,,,
0.0889925,SPI,MOSI, 0x00,  MISO, 0x07,,,,,,,
0.0890005,SPI,MOSI, 0x00,  MISO, 0xAA,,,,,,,
0.0890085,SPI,MOSI, 0x00,  MISO, 0x00,,,,,,,
0.0890165,SPI,MOSI, 0x00,  MISO, 0x00,,,,,,,
0.0890245,SPI,MOSI, 0x00,  MISO, 0x00,,,,,,,
0.0890325,SPI,MOSI, 0x00,  MISO, 0x00,,,,,,,
0.0890405,SPI,MOSI, 0x00,  MISO, 0x07,,,,,,,
0.0890485,SPI,MOSI, 0x00,  MISO, 0xAA,,,,,,,
0.0890565,SPI,MOSI, 0x00,  MISO, 0x00,,,,,,,
0.0890645,SPI,MOSI, 0x00,  MISO, 0x00,,,,,,,
0.0890725,SPI,MOSI, 0x00,  MISO, 0x00,,,,,,,
0.0890805,SPI,MOSI, 0x00,  MISO, 0x00,,,,,,,
0.0890885,SPI,MOSI, 0x00,  MISO, 0x07,,,,,,,
0.0890965,SPI,MOSI, 0x00,  MISO, 0xAA,,,,,,,
0.0891045,SPI,MOSI, 0x00,  MISO, 0x00,,,,,,,
0.0891125,SPI,MOSI, 0x00,  MISO, 0x00,,,,,,,
0.0891205,SPI,MOSI, 0x00,  MISO, 0x00,,,,,,,
0.0891285,SPI,MOSI, 0x00,  MISO, 0x00,,,,,,,
0.0891365,SPI,MOSI, 0x00,  MISO, 0x07,,,,,,,
0.0891445,SPI,MOSI, 0x00,  MISO, 0xAA,,,,,,,
0.1660435,SPI,MOSI, 0x00,  MISO, 0x21,,,,,,,
0.1660515,SPI,MOSI, 0x00,  MISO, 0xF2,,,,,,,
0.1662645,SPI,MOSI, 0x00,  MISO, 0x21,,,,,,,
0.1662725,SPI,MOSI, 0x00,  MISO, 0xF2,,,,,,,
0.166306,SPI,MOSI, 0x00,  MISO, 0x21,,,,,,,
0.166314,SPI,MOSI, 0x00,  MISO, 0xF2,,,,,,,
0.16634575,SPI,MOSI, 0x00,  MISO, 0x21,,,,,,,
0.16635375,SPI,MOSI, 0x00,  MISO, 0xF2,,,,,,,
